;Version, 1, 0
;ac_out (VCTRL=0.1),;ac_out (VCTRL=0.01),;ac_out (VCTRL=0.02),;ac_out (VCTRL=0.03),;ac_out (VCTRL=0.04),;ac_out (VCTRL=0.05),;ac_out (VCTRL=0.06),;ac_out (VCTRL=0.07),;ac_out (VCTRL=0.08),;ac_out (VCTRL=0.09)
;X, Y,;X, Y,;X, Y,;X, Y,;X, Y,;X, Y,;X, Y,;X, Y,;X, Y,;X, Y
;Re, Re,;Re, Re,;Re, Re,;Re, Re,;Re, Re,;Re, Re,;Re, Re,;Re, Re,;Re, Re,;Re, Re
;freq, V,;freq, V,;freq, V,;freq, V,;freq, V,;freq, V,;freq, V,;freq, V,;freq, V,;freq, V
;Hz, dB,;Hz, dB,;Hz, dB,;Hz, dB,;Hz, dB,;Hz, dB,;Hz, dB,;Hz, dB,;Hz, dB,;Hz, dB
1,23.85023362625905,1,6.055836097319732,1,12.27610696147974,1,16.06947276272673,1,18.80551188475524,1,20.80514210572292,1,22.16752204687842,1,23.00395754845512,1,23.4722657640673,1,23.72039750063503
1.023292992280754,23.85023362625905,1.023292992280754,6.055836097319732,1.023292992280754,12.27610696147974,1.023292992280754,16.06947276272673,1.023292992280754,18.80551188475524,1.023292992280754,20.80514210572292,1.023292992280754,22.16752204687842,1.023292992280754,23.00395754845511,1.023292992280754,23.47226576406731,1.023292992280754,23.72039750063503
1.047128548050899,23.85023362625905,1.047128548050899,6.055836097319732,1.047128548050899,12.27610696147974,1.047128548050899,16.06947276272672,1.047128548050899,18.80551188475524,1.047128548050899,20.80514210572292,1.047128548050899,22.16752204687842,1.047128548050899,23.00395754845511,1.047128548050899,23.47226576406731,1.047128548050899,23.72039750063503
1.071519305237606,23.85023362625905,1.071519305237606,6.055836097319732,1.071519305237606,12.27610696147974,1.071519305237606,16.06947276272672,1.071519305237606,18.80551188475524,1.071519305237606,20.80514210572292,1.071519305237606,22.16752204687842,1.071519305237606,23.00395754845511,1.071519305237606,23.4722657640673,1.071519305237606,23.72039750063503
1.096478196143185,23.85023362625905,1.096478196143185,6.055836097319724,1.096478196143185,12.27610696147974,1.096478196143185,16.06947276272672,1.096478196143185,18.80551188475524,1.096478196143185,20.80514210572292,1.096478196143185,22.16752204687842,1.096478196143185,23.00395754845512,1.096478196143185,23.4722657640673,1.096478196143185,23.72039750063503
1.122018454301963,23.85023362625906,1.122018454301963,6.055836097319722,1.122018454301963,12.27610696147974,1.122018454301963,16.06947276272672,1.122018454301963,18.80551188475524,1.122018454301963,20.80514210572292,1.122018454301963,22.16752204687842,1.122018454301963,23.00395754845512,1.122018454301963,23.4722657640673,1.122018454301963,23.72039750063503
1.148153621496882,23.85023362625906,1.148153621496882,6.055836097319722,1.148153621496882,12.27610696147974,1.148153621496882,16.06947276272672,1.148153621496882,18.80551188475524,1.148153621496882,20.80514210572292,1.148153621496882,22.16752204687841,1.148153621496882,23.00395754845512,1.148153621496882,23.47226576406729,1.148153621496882,23.72039750063503
1.174897554939529,23.85023362625906,1.174897554939529,6.055836097319726,1.174897554939529,12.27610696147974,1.174897554939529,16.06947276272673,1.174897554939529,18.80551188475524,1.174897554939529,20.80514210572292,1.174897554939529,22.16752204687841,1.174897554939529,23.00395754845512,1.174897554939529,23.47226576406729,1.174897554939529,23.72039750063503
1.202264434617413,23.85023362625905,1.202264434617413,6.055836097319726,1.202264434617413,12.27610696147974,1.202264434617413,16.06947276272673,1.202264434617413,18.80551188475524,1.202264434617413,20.80514210572292,1.202264434617413,22.16752204687841,1.202264434617413,23.00395754845512,1.202264434617413,23.47226576406729,1.202264434617413,23.72039750063503
1.230268770812381,23.85023362625905,1.230268770812381,6.055836097319726,1.230268770812381,12.27610696147974,1.230268770812381,16.06947276272673,1.230268770812381,18.80551188475524,1.230268770812381,20.80514210572292,1.230268770812381,22.16752204687841,1.230268770812381,23.00395754845512,1.230268770812381,23.47226576406729,1.230268770812381,23.72039750063503
1.258925411794167,23.85023362625905,1.258925411794167,6.055836097319721,1.258925411794167,12.27610696147974,1.258925411794167,16.06947276272673,1.258925411794167,18.80551188475524,1.258925411794167,20.80514210572292,1.258925411794167,22.16752204687841,1.258925411794167,23.00395754845512,1.258925411794167,23.47226576406729,1.258925411794167,23.72039750063503
1.288249551693134,23.85023362625905,1.288249551693134,6.055836097319721,1.288249551693134,12.27610696147974,1.288249551693134,16.06947276272673,1.288249551693134,18.80551188475524,1.288249551693134,20.80514210572292,1.288249551693134,22.16752204687841,1.288249551693134,23.00395754845512,1.288249551693134,23.47226576406729,1.288249551693134,23.72039750063503
1.318256738556407,23.85023362625905,1.318256738556407,6.055836097319721,1.318256738556407,12.27610696147974,1.318256738556407,16.06947276272673,1.318256738556407,18.80551188475523,1.318256738556407,20.80514210572292,1.318256738556407,22.16752204687841,1.318256738556407,23.00395754845512,1.318256738556407,23.47226576406729,1.318256738556407,23.72039750063503
1.348962882591653,23.85023362625905,1.348962882591653,6.055836097319716,1.348962882591653,12.27610696147974,1.348962882591653,16.06947276272673,1.348962882591653,18.80551188475524,1.348962882591653,20.80514210572292,1.348962882591653,22.16752204687841,1.348962882591653,23.00395754845512,1.348962882591653,23.47226576406729,1.348962882591653,23.72039750063503
1.380384264602885,23.85023362625905,1.380384264602885,6.055836097319724,1.380384264602885,12.27610696147974,1.380384264602885,16.06947276272673,1.380384264602885,18.80551188475524,1.380384264602885,20.80514210572292,1.380384264602885,22.16752204687841,1.380384264602885,23.00395754845512,1.380384264602885,23.4722657640673,1.380384264602885,23.72039750063503
1.412537544622754,23.85023362625905,1.412537544622754,6.055836097319724,1.412537544622754,12.27610696147974,1.412537544622754,16.06947276272673,1.412537544622754,18.80551188475524,1.412537544622754,20.80514210572292,1.412537544622754,22.16752204687841,1.412537544622754,23.00395754845512,1.412537544622754,23.4722657640673,1.412537544622754,23.72039750063503
1.445439770745927,23.85023362625905,1.445439770745927,6.055836097319724,1.445439770745927,12.27610696147974,1.445439770745927,16.06947276272673,1.445439770745927,18.80551188475524,1.445439770745927,20.80514210572292,1.445439770745927,22.16752204687841,1.445439770745927,23.00395754845512,1.445439770745927,23.47226576406729,1.445439770745927,23.72039750063504
1.479108388168207,23.85023362625905,1.479108388168207,6.055836097319729,1.479108388168207,12.27610696147974,1.479108388168207,16.06947276272673,1.479108388168207,18.80551188475524,1.479108388168207,20.80514210572292,1.479108388168207,22.16752204687842,1.479108388168207,23.00395754845512,1.479108388168207,23.47226576406729,1.479108388168207,23.72039750063504
1.513561248436208,23.85023362625905,1.513561248436208,6.055836097319728,1.513561248436208,12.27610696147974,1.513561248436208,16.06947276272672,1.513561248436208,18.80551188475525,1.513561248436208,20.80514210572292,1.513561248436208,22.16752204687842,1.513561248436208,23.00395754845512,1.513561248436208,23.47226576406729,1.513561248436208,23.72039750063504
1.548816618912481,23.85023362625906,1.548816618912481,6.055836097319726,1.548816618912481,12.27610696147975,1.548816618912481,16.06947276272673,1.548816618912481,18.80551188475524,1.548816618912481,20.80514210572292,1.548816618912481,22.16752204687842,1.548816618912481,23.00395754845512,1.548816618912481,23.47226576406729,1.548816618912481,23.72039750063504
1.584893192461113,23.85023362625906,1.584893192461113,6.055836097319728,1.584893192461113,12.27610696147975,1.584893192461113,16.06947276272672,1.584893192461113,18.80551188475524,1.584893192461113,20.80514210572292,1.584893192461113,22.16752204687842,1.584893192461113,23.00395754845511,1.584893192461113,23.47226576406729,1.584893192461113,23.72039750063505
1.621810097358929,23.85023362625905,1.621810097358929,6.055836097319726,1.621810097358929,12.27610696147975,1.621810097358929,16.06947276272673,1.621810097358929,18.80551188475524,1.621810097358929,20.80514210572292,1.621810097358929,22.16752204687841,1.621810097358929,23.00395754845511,1.621810097358929,23.47226576406729,1.621810097358929,23.72039750063505
1.65958690743756,23.85023362625905,1.65958690743756,6.055836097319724,1.65958690743756,12.27610696147975,1.65958690743756,16.06947276272673,1.65958690743756,18.80551188475524,1.65958690743756,20.80514210572292,1.65958690743756,22.16752204687841,1.65958690743756,23.00395754845511,1.65958690743756,23.47226576406729,1.65958690743756,23.72039750063505
1.698243652461743,23.85023362625905,1.698243652461743,6.055836097319724,1.698243652461743,12.27610696147975,1.698243652461743,16.06947276272673,1.698243652461743,18.80551188475524,1.698243652461743,20.80514210572292,1.698243652461743,22.16752204687841,1.698243652461743,23.00395754845511,1.698243652461743,23.47226576406729,1.698243652461743,23.72039750063505
1.737800828749374,23.85023362625905,1.737800828749374,6.055836097319724,1.737800828749374,12.27610696147975,1.737800828749374,16.06947276272673,1.737800828749374,18.80551188475524,1.737800828749374,20.80514210572292,1.737800828749374,22.16752204687841,1.737800828749374,23.00395754845512,1.737800828749374,23.47226576406729,1.737800828749374,23.72039750063505
1.778279410038922,23.85023362625905,1.778279410038922,6.055836097319724,1.778279410038922,12.27610696147974,1.778279410038922,16.06947276272673,1.778279410038922,18.80551188475524,1.778279410038922,20.80514210572292,1.778279410038922,22.16752204687841,1.778279410038922,23.00395754845512,1.778279410038922,23.47226576406729,1.778279410038922,23.72039750063506
1.819700858609982,23.85023362625905,1.819700858609982,6.055836097319724,1.819700858609982,12.27610696147974,1.819700858609982,16.06947276272673,1.819700858609982,18.80551188475524,1.819700858609982,20.80514210572292,1.819700858609982,22.16752204687841,1.819700858609982,23.00395754845512,1.819700858609982,23.47226576406729,1.819700858609982,23.72039750063506
1.862087136662866,23.85023362625905,1.862087136662866,6.055836097319728,1.862087136662866,12.27610696147974,1.862087136662866,16.06947276272673,1.862087136662866,18.80551188475524,1.862087136662866,20.80514210572292,1.862087136662866,22.16752204687842,1.862087136662866,23.00395754845512,1.862087136662866,23.47226576406729,1.862087136662866,23.72039750063506
1.905460717963246,23.85023362625905,1.905460717963246,6.055836097319726,1.905460717963246,12.27610696147974,1.905460717963246,16.06947276272673,1.905460717963246,18.80551188475524,1.905460717963246,20.80514210572292,1.905460717963246,22.16752204687841,1.905460717963246,23.00395754845512,1.905460717963246,23.4722657640673,1.905460717963246,23.72039750063505
1.949844599758044,23.85023362625906,1.949844599758044,6.055836097319726,1.949844599758044,12.27610696147974,1.949844599758044,16.06947276272673,1.949844599758044,18.80551188475524,1.949844599758044,20.80514210572292,1.949844599758044,22.16752204687841,1.949844599758044,23.00395754845511,1.949844599758044,23.47226576406729,1.949844599758044,23.72039750063505
1.995262314968878,23.85023362625906,1.995262314968878,6.055836097319724,1.995262314968878,12.27610696147974,1.995262314968878,16.06947276272673,1.995262314968878,18.80551188475524,1.995262314968878,20.80514210572292,1.995262314968878,22.16752204687841,1.995262314968878,23.00395754845511,1.995262314968878,23.4722657640673,1.995262314968878,23.72039750063505
2.041737944669527,23.85023362625906,2.041737944669527,6.055836097319726,2.041737944669527,12.27610696147974,2.041737944669527,16.06947276272673,2.041737944669527,18.80551188475523,2.041737944669527,20.80514210572292,2.041737944669527,22.16752204687841,2.041737944669527,23.00395754845511,2.041737944669527,23.47226576406729,2.041737944669527,23.72039750063505
2.089296130854037,23.85023362625906,2.089296130854037,6.055836097319724,2.089296130854037,12.27610696147974,2.089296130854037,16.06947276272673,2.089296130854037,18.80551188475524,2.089296130854037,20.80514210572292,2.089296130854037,22.16752204687841,2.089296130854037,23.00395754845511,2.089296130854037,23.47226576406729,2.089296130854037,23.72039750063505
2.13796208950223,23.85023362625905,2.13796208950223,6.055836097319722,2.13796208950223,12.27610696147974,2.13796208950223,16.06947276272673,2.13796208950223,18.80551188475523,2.13796208950223,20.80514210572292,2.13796208950223,22.16752204687841,2.13796208950223,23.00395754845511,2.13796208950223,23.47226576406729,2.13796208950223,23.72039750063505
2.18776162394955,23.85023362625905,2.18776162394955,6.055836097319722,2.18776162394955,12.27610696147974,2.18776162394955,16.06947276272673,2.18776162394955,18.80551188475523,2.18776162394955,20.80514210572292,2.18776162394955,22.16752204687841,2.18776162394955,23.00395754845511,2.18776162394955,23.47226576406729,2.18776162394955,23.72039750063505
2.238721138568337,23.85023362625905,2.238721138568337,6.055836097319724,2.238721138568337,12.27610696147974,2.238721138568337,16.06947276272673,2.238721138568337,18.80551188475523,2.238721138568337,20.80514210572292,2.238721138568337,22.16752204687841,2.238721138568337,23.00395754845511,2.238721138568337,23.47226576406729,2.238721138568337,23.72039750063505
2.29086765276777,23.85023362625905,2.29086765276777,6.055836097319721,2.29086765276777,12.27610696147974,2.29086765276777,16.06947276272673,2.29086765276777,18.80551188475523,2.29086765276777,20.80514210572292,2.29086765276777,22.16752204687841,2.29086765276777,23.00395754845512,2.29086765276777,23.47226576406729,2.29086765276777,23.72039750063505
2.344228815319919,23.85023362625905,2.344228815319919,6.055836097319724,2.344228815319919,12.27610696147974,2.344228815319919,16.06947276272673,2.344228815319919,18.80551188475523,2.344228815319919,20.80514210572292,2.344228815319919,22.16752204687841,2.344228815319919,23.00395754845512,2.344228815319919,23.47226576406729,2.344228815319919,23.72039750063504
2.398832919019488,23.85023362625905,2.398832919019488,6.055836097319724,2.398832919019488,12.27610696147974,2.398832919019488,16.06947276272673,2.398832919019488,18.80551188475523,2.398832919019488,20.80514210572292,2.398832919019488,22.16752204687842,2.398832919019488,23.00395754845511,2.398832919019488,23.47226576406729,2.398832919019488,23.72039750063504
2.454708915685027,23.85023362625905,2.454708915685027,6.055836097319726,2.454708915685027,12.27610696147974,2.454708915685027,16.06947276272673,2.454708915685027,18.80551188475523,2.454708915685027,20.80514210572292,2.454708915685027,22.16752204687841,2.454708915685027,23.00395754845511,2.454708915685027,23.47226576406729,2.454708915685027,23.72039750063504
2.511886431509577,23.85023362625905,2.511886431509577,6.055836097319728,2.511886431509577,12.27610696147974,2.511886431509577,16.06947276272673,2.511886431509577,18.80551188475523,2.511886431509577,20.80514210572292,2.511886431509577,22.16752204687841,2.511886431509577,23.00395754845511,2.511886431509577,23.47226576406729,2.511886431509577,23.72039750063505
2.57039578276886,23.85023362625906,2.57039578276886,6.055836097319726,2.57039578276886,12.27610696147974,2.57039578276886,16.06947276272673,2.57039578276886,18.80551188475523,2.57039578276886,20.80514210572292,2.57039578276886,22.16752204687841,2.57039578276886,23.00395754845511,2.57039578276886,23.47226576406729,2.57039578276886,23.72039750063505
2.630267991895378,23.85023362625906,2.630267991895378,6.055836097319726,2.630267991895378,12.27610696147974,2.630267991895378,16.06947276272674,2.630267991895378,18.80551188475523,2.630267991895378,20.80514210572292,2.630267991895378,22.16752204687841,2.630267991895378,23.00395754845511,2.630267991895378,23.47226576406729,2.630267991895378,23.72039750063505
2.691534803926912,23.85023362625906,2.691534803926912,6.055836097319716,2.691534803926912,12.27610696147974,2.691534803926912,16.06947276272673,2.691534803926912,18.80551188475523,2.691534803926912,20.80514210572292,2.691534803926912,22.16752204687841,2.691534803926912,23.00395754845511,2.691534803926912,23.47226576406729,2.691534803926912,23.72039750063505
2.754228703338163,23.85023362625906,2.754228703338163,6.055836097319716,2.754228703338163,12.27610696147974,2.754228703338163,16.06947276272674,2.754228703338163,18.80551188475523,2.754228703338163,20.80514210572292,2.754228703338163,22.16752204687841,2.754228703338163,23.00395754845511,2.754228703338163,23.47226576406729,2.754228703338163,23.72039750063505
2.81838293126445,23.85023362625906,2.81838293126445,6.055836097319716,2.81838293126445,12.27610696147974,2.81838293126445,16.06947276272673,2.81838293126445,18.80551188475523,2.81838293126445,20.80514210572292,2.81838293126445,22.16752204687841,2.81838293126445,23.00395754845511,2.81838293126445,23.47226576406729,2.81838293126445,23.72039750063505
2.884031503126602,23.85023362625906,2.884031503126602,6.055836097319716,2.884031503126602,12.27610696147974,2.884031503126602,16.06947276272673,2.884031503126602,18.80551188475524,2.884031503126602,20.80514210572292,2.884031503126602,22.16752204687841,2.884031503126602,23.00395754845511,2.884031503126602,23.4722657640673,2.884031503126602,23.72039750063505
2.951209226666381,23.85023362625906,2.951209226666381,6.055836097319716,2.951209226666381,12.27610696147974,2.951209226666381,16.06947276272673,2.951209226666381,18.80551188475523,2.951209226666381,20.80514210572292,2.951209226666381,22.16752204687841,2.951209226666381,23.00395754845511,2.951209226666381,23.47226576406729,2.951209226666381,23.72039750063505
3.019951720402012,23.85023362625906,3.019951720402012,6.055836097319716,3.019951720402012,12.27610696147973,3.019951720402012,16.06947276272673,3.019951720402012,18.80551188475524,3.019951720402012,20.80514210572292,3.019951720402012,22.16752204687841,3.019951720402012,23.00395754845511,3.019951720402012,23.47226576406731,3.019951720402012,23.72039750063506
3.090295432513586,23.85023362625906,3.090295432513586,6.055836097319724,3.090295432513586,12.27610696147974,3.090295432513586,16.06947276272673,3.090295432513586,18.80551188475524,3.090295432513586,20.80514210572292,3.090295432513586,22.16752204687841,3.090295432513586,23.00395754845511,3.090295432513586,23.47226576406731,3.090295432513586,23.72039750063505
3.162277660168374,23.85023362625905,3.162277660168374,6.055836097319721,3.162277660168374,12.27610696147974,3.162277660168374,16.06947276272673,3.162277660168374,18.80551188475523,3.162277660168374,20.80514210572292,3.162277660168374,22.16752204687841,3.162277660168374,23.00395754845511,3.162277660168374,23.47226576406731,3.162277660168374,23.72039750063505
3.235936569296277,23.85023362625906,3.235936569296277,6.055836097319721,3.235936569296277,12.27610696147974,3.235936569296277,16.06947276272673,3.235936569296277,18.80551188475523,3.235936569296277,20.80514210572292,3.235936569296277,22.16752204687841,3.235936569296277,23.00395754845511,3.235936569296277,23.47226576406731,3.235936569296277,23.72039750063505
3.311311214825905,23.85023362625906,3.311311214825905,6.055836097319718,3.311311214825905,12.27610696147974,3.311311214825905,16.06947276272673,3.311311214825905,18.80551188475523,3.311311214825905,20.80514210572292,3.311311214825905,22.16752204687841,3.311311214825905,23.00395754845512,3.311311214825905,23.4722657640673,3.311311214825905,23.72039750063504
3.38844156139202,23.85023362625906,3.38844156139202,6.055836097319709,3.38844156139202,12.27610696147973,3.38844156139202,16.06947276272673,3.38844156139202,18.80551188475523,3.38844156139202,20.80514210572292,3.38844156139202,22.16752204687841,3.38844156139202,23.00395754845512,3.38844156139202,23.4722657640673,3.38844156139202,23.72039750063505
