;Version, 1, 0
;ac_phase (VCTRL=0.1),;ac_phase (VCTRL=0.01),;ac_phase (VCTRL=0.02),;ac_phase (VCTRL=0.03),;ac_phase (VCTRL=0.04),;ac_phase (VCTRL=0.05),;ac_phase (VCTRL=0.06),;ac_phase (VCTRL=0.07),;ac_phase (VCTRL=0.08),;ac_phase (VCTRL=0.09)
;X, Y,;X, Y,;X, Y,;X, Y,;X, Y,;X, Y,;X, Y,;X, Y,;X, Y,;X, Y
;Re, Re,;Re, Re,;Re, Re,;Re, Re,;Re, Re,;Re, Re,;Re, Re,;Re, Re,;Re, Re,;Re, Re
;freq, V,;freq, V,;freq, V,;freq, V,;freq, V,;freq, V,;freq, V,;freq, V,;freq, V,;freq, V
;Hz, deg,;Hz, deg,;Hz, deg,;Hz, deg,;Hz, deg,;Hz, deg,;Hz, deg,;Hz, deg,;Hz, deg,;Hz, deg
1,6.274750220798591e-09,1,-1.226378608496847e-07,1,-1.133537070133772e-07,1,-9.708549357728617e-08,1,-7.415095508051005e-08,1,-4.77242184997926e-08,1,-2.367373978711672e-08,1,-6.719498979558362e-09,1,2.505197144032615e-09,1,6.064707491728706e-09
1.023292992280754,6.420907929255196e-09,1.023292992280754,-1.254944635957842e-07,1.023292992280754,-1.159940540358342e-07,1.023292992280754,-9.934690522975515e-08,1.023292992280754,-7.587815270481092e-08,1.023292992280754,-4.883585835291341e-08,1.023292992280754,-2.422517202523465e-08,1.023292992280754,-6.876016217419707e-09,1.023292992280754,2.563550681770298e-09,1.023292992280754,6.205972676518483e-09
1.047128548050899,6.570470088086877e-09,1.047128548050899,-1.284176051675982e-07,1.047128548050899,-1.186959026411047e-07,1.047128548050899,-1.016609919263886e-07,1.047128548050899,-7.764558193004206e-08,1.047128548050899,-4.997339162455183e-08,1.047128548050899,-2.478944877021846e-08,1.047128548050899,-7.036179210094428e-09,1.047128548050899,2.623263448012109e-09,1.047128548050899,6.350528350167205e-09
1.071519305237606,6.723515997129514e-09,1.071519305237606,-1.314088354534805e-07,1.071519305237606,-1.214606853850807e-07,1.071519305237606,-1.040289806265835e-07,1.071519305237606,-7.945417987057306e-08,1.071519305237606,-5.113742144990534e-08,1.071519305237606,-2.536686920906726e-08,1.071519305237606,-7.200072878121175e-09,1.071519305237606,2.684367103256951e-09,1.071519305237606,6.498451158006244e-09
1.096478196143185,6.880126803350334e-09,1.096478196143185,-1.344697404433212e-07,1.096478196143185,-1.24289868192171e-07,1.096478196143185,-1.064521268692934e-07,1.096478196143185,-8.130490546897199e-08,1.096478196143185,-5.232856501299583e-08,1.096478196143185,-2.595773949774104e-08,1.096478196143185,-7.367784120092105e-09,1.096478196143185,2.746894045471859e-09,1.096478196143185,6.649819530666828e-09
1.122018454301963,7.040385543871139e-09,1.122018454301963,-1.37601943069463e-07,1.122018454301963,-1.271849511325468e-07,1.122018454301963,-1.089317154387299e-07,1.122018454301963,-8.319874000444811e-08,1.122018454301963,-5.354745387390653e-08,1.122018454301963,-2.656237292348789e-08,1.122018454301963,-7.539401858727805e-09,1.122018454301963,2.810877427269198e-09,1.122018454301963,6.804713725662726e-09
1.148153621496882,7.204377189998093e-09,1.148153621496882,-1.408071040671963e-07,1.148153621496882,-1.301474692175055e-07,1.148153621496882,-1.114690610455735e-07,1.148153621496882,-8.513668761314024e-08,1.148153621496882,-5.479473430364542e-08,1.148153621496882,-2.718109007095295e-08,1.148153621496882,-7.715017088024498e-09,1.148153621496882,2.876351173484656e-09,1.148153621496882,6.963215869947332e-09
1.174897554939529,7.372188692272323e-09,1.174897554939529,-1.440869228553091e-07,1.174897554939529,-1.331789932133483e-07,1.174897554939529,-1.140655090240508e-07,1.174897554939529,-8.711977582052212e-08,1.174897554939529,-5.607106762680614e-08,1.174897554939529,-2.781421899215832e-08,1.174897554939529,-7.894722921501625e-09,1.174897554939529,2.943349999165531e-09,1.174897554939529,7.125410003455154e-09
1.202264434617413,7.543909026573978e-09,1.202264434617413,-1.474431384371352e-07,1.202264434617413,-1.36281130474226e-07,1.202264434617413,-1.16722436045248e-07,1.202264434617413,-8.914905608621061e-08,1.202264434617413,-5.737713057221098e-08,1.202264434617413,-2.846209538043801e-08,1.202264434617413,-8.078614641571085e-09,1.202264434617413,3.011909427975473e-09,1.202264434617413,7.291382123662956e-09
1.230268770812381,7.719629241296509e-09,1.230268770812381,-1.508775303226012e-07,1.230268770812381,-1.394555257943745e-07,1.230268770812381,-1.194412508470412e-07,1.230268770812381,-9.122560436146328e-08,1.230268770812381,-5.871361563172175e-08,1.230268770812381,-2.912506274842849e-08,1.230268770812381,-8.26678975005649e-09,1.230268770812381,3.0820658110317e-09,1.230268770812381,7.461220231185356e-09
1.258925411794167,7.899442505624394e-09,1.258925411794167,-1.543919194717449e-07,1.258925411794167,-1.427038622802109e-07,1.258925411794167,-1.222233949810248e-07,1.258925411794167,-9.335052165966176e-08,1.258925411794167,-6.008123142740635e-08,1.258925411794167,-2.980347261020415e-08,1.258925411794167,-8.459348019890904e-09,1.258925411794167,3.153856346176807e-09,1.258925411794167,7.635014376435522e-09
1.288249551693134,8.083444158930034e-09,1.288249551693134,-1.579881692602122e-07,1.288249551693134,-1.460278622427376e-07,1.288249551693134,-1.250703435768455e-07,1.288249551693134,-9.552493464008472e-08,1.288249551693134,-6.148070308726303e-08,1.288249551693134,-3.049768466765332e-08,1.288249551693134,-8.65639154801856e-09,1.288249551693134,3.227319097702606e-09,1.288249551693134,7.812856707369178e-09
1.318256738556407,8.271731761325756e-09,1.318256738556407,-1.616681864672396e-07,1.318256738556407,-1.494292881107329e-07,1.318256738556407,-1.279836061243319e-07,1.318256738556407,-9.774999620527605e-08,1.318256738556407,-6.291277262969023e-08,1.318256738556407,-3.120806700119777e-08,1.318256738556407,-8.858024809525741e-09,1.318256738556407,3.302493016533212e-09,1.318256738556407,7.994841518344545e-09
1.348962882591653,8.46440514539067e-09,1.348962882591653,-1.65433922286665e-07,1.348962882591653,-1.529099433652148e-07,1.348962882591653,-1.309647272738495e-07,1.348962882591653,-1.000268861123291e-07,1.348962882591653,-6.437819935691437e-08,1.348962882591653,-3.1934996264954e-08,1.348962882591653,-9.064354713036856e-09,1.348962882591653,3.379417960874456e-09,1.348962882591653,8.181065300117241e-09
1.380384264602885,8.661566469103716e-09,1.380384264602885,-1.692873733614627e-07,1.380384264602885,-1.564716734956712e-07,1.380384264602885,-1.340152876552903e-07,1.380384264602885,-1.023568115984111e-07,1.380384264602885,-6.587776025758365e-08,1.380384264602885,-3.267885788643948e-08,1.380384264602885,-9.275490657397558e-09,1.380384264602885,3.458134717350536e-09,1.380384264602885,8.371626791001217e-09
1.412537544622754,8.863320270007668e-09,1.412537544622754,-1.732305828424012e-07,1.412537544622754,-1.60116366978562e-07,1.412537544622754,-1.371369047161477e-07,1.412537544622754,-1.047410080208555e-07,1.412537544622754,-6.741225041873683e-08,1.412537544622754,-3.344004627093209e-08,1.412537544622754,-9.4915445896805e-09,1.412537544622754,3.538685022627649e-09,1.412537544622754,8.566627029221384e-09
1.445439770745927,9.06977352063881e-09,1.445439770745927,-1.772656414713384e-07,1.445439770745927,-1.638459562786166e-07,1.445439770745927,-1.403312335791078e-07,1.445439770745927,-1.071807395121636e-07,1.445439770745927,-6.898248344736853e-08,1.445439770745927,-3.421896501058893e-08,1.445439770745927,-9.712631064540306e-09,1.445439770745927,3.621111585543639e-09,1.445439770745927,8.766169406485331e-09
1.479108388168207,9.281035685243485e-09,1.479108388168207,-1.813946886897738e-07,1.479108388168207,-1.676624188734471e-07,1.479108388168207,-1.435999679196144e-07,1.479108388168207,-1.09677299650266e-07,1.479108388168207,-7.058929190181533e-08,1.479108388168207,-3.501602709843576e-08,1.479108388168207,-9.938867304952596e-09,1.479108388168207,3.705458109753354e-09,1.479108388168207,8.97035972280252e-09
1.513561248436208,9.497218777817113e-09,1.513561248436208,-1.856199137731952e-07,1.513561248436208,-1.715677783020385e-07,1.513561248436208,-1.469448408638821e-07,1.513561248436208,-1.122320121443935e-07,1.513561248436208,-7.223352773318831e-08,1.513561248436208,-3.583165514734238e-08,1.513561248436208,-1.017037326436641e-08,1.513561248436208,3.791769316900442e-09,1.513561248436208,9.17930624258107e-09
1.548816618912481,9.718437421497326e-09,1.548816618912481,-1.899435569918682e-07,1.548816618912481,-1.755641052376541e-07,1.548816618912481,-1.503676259078211e-07,1.548816618912481,-1.148462315369261e-07,1.548816618912481,-7.391606273708918e-08,1.548816618912481,-3.666628161409619e-08,1.548816618912481,-1.040727169030544e-08,1.548816618912481,3.880090970329428e-09,1.548816618912481,9.393119752032154e-09
1.584893192461113,9.944808909337629e-09,1.584893192461113,-1.943679107986578e-07,1.584893192461113,-1.796535185857318e-07,1.584893192461113,-1.538701378573674e-07,1.584893192461113,-1.175213439215898e-07,1.584893192461113,-7.563778901584802e-08,1.584893192461113,-3.752034902869716e-08,1.584893192461113,-1.06496881894517e-08,1.584893192461113,3.970469899350148e-09,1.584893192461113,9.611913617908815e-09
1.621810097358929,1.017645326649595e-08,1.621810097358929,-1.988953210445169e-07,1.621810097358929,-1.838381866073597e-07,1.621810097358929,-1.574542337907176e-07,1.621810097358929,-1.202587676783789e-07,1.621810097358929,-7.739961945152743e-08,1.621810097358929,-3.839431022899385e-08,1.621810097358929,-1.089775129424096e-08,1.621810097358929,4.062954024066222e-09,1.621810097358929,9.835803847614203e-09
1.65958690743756,1.041349331387782e-08,1.65958690743756,-2.03528188222285e-07,1.65958690743756,-1.881203280689128e-07,1.65958690743756,-1.61121814042977e-07,1.65958690743756,-1.230599542256045e-07,1.65958690743756,-7.920248818994515e-08,1.65958690743756,-3.928862860078286e-08,1.65958690743756,-1.11515925310154e-08,1.65958690743756,4.157592380785972e-09,1.65958690743756,1.006490915071099e-08
1.698243652461743,1.065605473325379e-08,1.698243652461743,-2.082689687394626e-07,1.698243652461743,-1.925022134184744e-07,1.698243652461743,-1.648748232137407e-07,1.698243652461743,-1.259263887894515e-07,1.698243652461743,-8.104735113597036e-08,1.698243652461743,-4.020377832350235e-08,1.698243652461743,-1.141134648975833e-08,1.698243652461743,4.254435148018424e-09,1.698243652461743,1.029935100186575e-08
1.737800828749374,1.090426613389858e-08,1.737800828749374,-2.131201762206314e-07,1.737800828749374,-1.969861659896594e-07,1.737800828749374,-1.687152511981489e-07,1.737800828749374,-1.288595911914676e-07,1.737800828749374,-8.293518646035597e-08,1.737800828749374,-4.114024462164915e-08,1.737800828749374,-1.167715089545714e-08,1.737800828749374,4.35353367308003e-09,1.737800828749374,1.053925370524885e-08
1.778279410038922,1.115825912078269e-08,1.778279410038922,-2.18084382840211e-07,1.778279410038922,-2.015745632334722e-07,1.778279410038922,-1.726451342419529e-07,1.778279410038922,-1.318611166543913e-07,1.778279410038922,-8.48669951183801e-08,1.778279410038922,-4.209852402204874e-08,1.778279410038922,-1.194914668112603e-08,1.778279410038922,4.45494049932092e-09,1.778279410038922,1.078474446045002e-08
1.819700858609982,1.141816836434992e-08,1.819700858609982,-2.231642206862613e-07,1.819700858609982,-2.062698379788654e-07,1.819700858609982,-1.766665560211601e-07,1.819700858609982,-1.349325566267541e-07,1.819700858609982,-8.684380138056335e-08,1.819700858609982,-4.307912461712625e-08,1.819700858609982,-1.222747806253118e-08,1.819700858609982,4.558709393982734e-09,1.819700858609982,1.103595342991746e-08
1.862087136662866,1.168413167192094e-08,1.862087136662866,-2.283623831560474e-07,1.862087136662866,-2.110744797226592e-07,1.862087136662866,-1.80781648746829e-07,1.862087136662866,-1.380755396266833e-07,1.862087136662866,-8.886665337575187e-08,1.862087136662866,-4.408256633429436e-08,1.862087136662866,-1.251229261465491e-08,1.862087136662866,4.66489537670688e-09,1.862087136662866,1.129301380797082e-08
1.905460717963246,1.19562900607626e-08,1.905460717963246,-2.336816263841165e-07,1.905460717963246,-2.159910359495034e-07,1.905460717963246,-1.849925942955909e-07,1.905460717963246,-1.412917321053684e-07,1.905460717963246,-9.093662364684969e-08,1.905460717963246,-4.510938121163458e-08,1.905460717963246,-1.280374134994279e-08,1.905460717963246,4.773554748707411e-09,1.905460717963246,1.155606189142654e-08
1.949844599758044,1.223478783285428e-08,1.949844599758044,-2.391247707036344e-07,1.949844599758044,-2.210221134825874e-07,1.949844599758044,-1.893016253665146e-07,1.949844599758044,-1.445828393306328e-07,1.949844599758044,-9.305480971949392e-08,1.949844599758044,-4.616011367998708e-08,1.949844599758044,-1.310197879837186e-08,1.949844599758044,4.884745122620925e-09,1.949844599758044,1.182523715185945e-08
1.995262314968878,1.251977265140184e-08,1.995262314968878,-2.44694702141772e-07,1.995262314968878,-2.261703798658128e-07,1.995262314968878,-1.937110266649104e-07,1.995262314968878,-1.47950606291091e-07,1.995262314968878,-9.522233468397648e-08,1.995262314968878,-4.723532085161329e-08,1.995262314968878,-1.340716308938483e-08,1.995262314968878,4.998525453055704e-09,1.995262314968878,1.21006823095558e-08
2.041737944669527,1.28113956191277e-08,2.041737944669527,-2.503943739499004e-07,2.041737944669527,-2.314385647781631e-07,2.041737944669527,-1.982231361137129e-07,2.041737944669527,-1.51396818621362e-07,2.041737944669527,-9.744034779072591e-08,2.041737944669527,-4.833557281558932e-08,2.041737944669527,-1.371945603573309e-08,2.041737944669527,5.114956067848934e-09,2.041737944669527,1.238254340918359e-08
2.089296130854037,1.310981135838947e-08,2.089296130854037,-2.562268081694594e-07,2.089296130854037,-2.368294614810094e-07,2.089296130854037,-2.028403460930768e-07,2.089296130854037,-1.549233035488406e-07,2.089296130854037,-9.971002505964901e-08,2.089296130854037,-4.946145294006853e-08,2.089296130854037,-1.403902321926931e-08,2.089296130854037,5.234098700053179e-09,2.089296130854037,1.267096989723001e-08
2.13796208950223,1.341517809316269e-08,2.13796208950223,-2.621950972342729e-07,2.13796208950223,-2.423459282991408e-07,2.13796208950223,-2.075651047088479e-07,2.13796208950223,-1.585319308625127e-07,2.13796208950223,-1.020325699036774e-07,2.13796208950223,-5.061355818159675e-08,2.13796208950223,-1.436603407874498e-08,2.13796208950223,5.356016520670049e-09,2.13796208950223,1.296611470123583e-08
2.18776162394955,1.372765773293181e-08,2.18776162394955,-2.683024056102028e-07,2.18776162394955,-2.479908901362862e-07,2.18776162394955,-2.123999170905848e-07,2.18776162394955,-1.622246139043457e-07,2.18776162394955,-1.044092137668289e-07,2.18776162394955,-5.179249940162178e-08,2.18776162394955,-1.47006619996465e-08,2.18776162394955,5.480774172141823e-09,2.18776162394955,1.326813431088309e-08
2.238721138568337,1.40474159585377e-08,2.238721138568337,-2.745519714729897e-07,2.238721138568337,-2.537673400259266e-07,2.238721138568337,-2.173473467198089e-07,2.238721138568337,-1.660033105837681e-07,2.238721138568337,-1.068412167771396e-07,2.238721138568337,-5.29989016903848e-08,2.238721138568337,-1.504308440612615e-08,2.238721138568337,5.608437802626536e-09,2.238721138568337,1.357718886096665e-08
2.29086765276777,1.437462231002472e-08,2.29086765276777,-2.809471084251753e-07,2.29086765276777,-2.596783407182587e-07,2.29086765276777,-2.224100167891955e-07,2.29086765276777,-1.698700244157758e-07,2.29086765276777,-1.093298684147958e-07,2.29086765276777,-5.423340469834778e-08,2.29086765276777,-1.539348285507673e-08,2.29086765276777,5.73907510107026e-09,2.29086765276777,1.3893442216299e-08
2.344228815319919,1.470945027653042e-08,2.344228815319919,-2.874912072530214e-07,2.344228815319919,-2.657270263040875e-07,2.344228815319919,-2.275906115934282e-07,2.344228815319919,-1.738268055832236e-07,2.344228815319919,-1.11876488195837e-07,2.344228815319919,-5.549666297534518e-08,2.344228815319919,-1.575204313239385e-08,2.344228815319919,5.872755333097779e-09,2.344228815319919,1.421706205859641e-08
2.398832919019488,1.505207738827575e-08,2.398832919019488,-2.941877377243524e-07,2.398832919019488,-2.719166038765758e-07,2.398832919019488,-2.328918779524467e-07,2.398832919019488,-1.778757520238619e-07,2.398832919019488,-1.14482426371781e-07,2.398832919019488,-5.678934631763747e-08,2.398832919019488,-1.61189553514832e-08,2.398832919019488,6.009549377737867e-09,2.398832919019488,1.454821997538214e-08
2.454708915685027,1.540268531069011e-08,2.454708915685027,-3.01040250428257e-07,2.454708915685027,-2.782503552316818e-07,2.454708915685027,-2.383166266678432e-07,2.454708915685027,-1.820190105426864e-07,2.454708915685027,-1.171490646455405e-07,2.454708915685027,-5.811214012304322e-08,2.454708915685027,-1.649441405405932e-08,2.454708915685027,6.149529765004469e-09,2.454708915685027,1.488709155096793e-08
2.511886431509577,1.576145994073566e-08,2.511886431509577,-3.080523786576787e-07,2.511886431509577,-2.847316386082103e-07,2.511886431509577,-2.438677340131923e-07,2.511886431509577,-1.862587779502075e-07,2.511886431509577,-1.198778169040268e-07,2.511886431509577,-5.946574575434692e-08,2.511886431509577,-1.687861831329556e-08,2.511886431509577,6.292770714351076e-09,2.511886431509577,1.523385645954723e-08
2.57039578276886,1.612859150546818e-08,2.57039578276886,-3.15227840335819e-07,2.57039578276886,-2.913638904683973e-07,2.57039578276886,-2.495481432590863e-07,2.57039578276886,-1.905973022272249e-07,2.57039578276886,-1.226701299678061e-07,2.57039578276886,-6.085088091117279e-08,2.57039578276886,-1.727177183937708e-08,2.57039578276886,6.439348174024741e-09,2.57039578276886,1.558869856046554e-08
2.630267991895378,1.650427466290448e-08,2.630267991895378,-3.225704399874402e-07,2.630267991895378,-2.981506273199678e-07,2.630267991895378,-2.55360866233696e-07,2.630267991895378,-1.950368837167362e-07,2.630267991895378,-1.255274843582247e-07,2.630267991895378,-6.226828001051386e-08,2.630267991895378,-1.767408308750732e-08,2.630267991895378,6.589339861335515e-09,2.630267991895378,1.595180599570102e-08
2.691534803926912,1.688870860522709e-08,2.691534803926912,-3.300840707560662e-07,2.691534803926912,-3.05095447580634e-07,2.691534803926912,-2.61308984919684e-07,2.691534803926912,-1.995798763436124e-07,2.691534803926912,-1.284513950824034e-07,2.691534803926912,-6.371869457613461e-08,2.691534803926912,-1.808576536843346e-08,2.691534803926912,6.742825303860899e-09,2.691534803926912,1.632337128962333e-08
2.754228703338163,1.728209716440028e-08,2.754228703338163,-3.377727164681875e-07,2.754228703338163,-3.12202033486023e-07,2.754228703338163,-2.673956530883096e-07,2.754228703338163,-2.042286888626782e-07,2.754228703338163,-1.314434124365101e-07,2.754228703338163,-6.520289363703645e-08,2.754228703338163,-1.850703696155166e-08,2.754228703338163,6.899885881614239e-09,2.754228703338163,1.670359145106827e-08
2.81838293126445,1.768464892024588e-08,2.81838293126445,-3.456404537455308e-07,2.81838293126445,-3.194741530420486e-07,2.81838293126445,-2.736240979716034e-07,2.81838293126445,-2.089857861358636e-07,2.81838293126445,-1.345051228277498e-07,2.81838293126445,-6.672166413520644e-08,2.81838293126445,-1.893812123063699e-08,2.81838293126445,7.060604870192557e-09,2.81838293126445,1.709266807779898e-08
2.884031503126602,1.809657731103237e-08,2.884031503126602,-3.536914541665406e-07,2.884031503126602,-3.269156620227572e-07,2.884031503126602,-2.799976219734838e-07,2.884031503126602,-2.138536904391135e-07,2.884031503126602,-1.376381496154974e-07,2.884031503126602,-6.827581134286701e-08,2.884031503126602,-1.937924674227388e-08,2.884031503126602,7.225067484931245e-09,2.884031503126602,1.74908074633922e-08
2.951209226666381,1.851810074664737e-08,2.951209226666381,-3.619299864782138e-07,2.951209226666381,-3.345305060147097e-07,2.951209226666381,-2.865196044207413e-07,2.951209226666381,-2.188349827997223e-07,2.951209226666381,-1.40844153972029e-07,2.951209226666381,-6.986615928943846e-08,2.951209226666381,-1.983064738704925e-08,2.951209226666381,7.393360926086346e-09,2.951209226666381,1.789822070662192e-08
