;Version, 1, 0
;out (VCTRL=0.1),;out (VCTRL=0.01),;out (VCTRL=0.02),;out (VCTRL=0.03),;out (VCTRL=0.04),;out (VCTRL=0.05),;out (VCTRL=0.06),;out (VCTRL=0.07),;out (VCTRL=0.08),;out (VCTRL=0.09)
;X, Y,;X, Y,;X, Y,;X, Y,;X, Y,;X, Y,;X, Y,;X, Y,;X, Y,;X, Y
;Re, Re,;Re, Re,;Re, Re,;Re, Re,;Re, Re,;Re, Re,;Re, Re,;Re, Re,;Re, Re,;Re, Re
;vin, V,;vin, V,;vin, V,;vin, V,;vin, V,;vin, V,;vin, V,;vin, V,;vin, V,;vin, V
;xunit, V,;xunit, V,;xunit, V,;xunit, V,;xunit, V,;xunit, V,;xunit, V,;xunit, V,;xunit, V,;xunit, V
-0.3,-0.7791474409475835,-0.3,-0.1155559672357551,-0.3,-0.2290679484067737,-0.3,-0.3382951693493537,-0.3,-0.4407071692591322,-0.3,-0.5334734959869263,-0.3,-0.6135946953023111,-0.3,-0.678393657129878,-0.3,-0.7265239557483689,-0.3,-0.7590102038316202
-0.299,-0.779174857467973,-0.299,-0.1155654540530011,-0.299,-0.2290848288016223,-0.299,-0.3383167957371598,-0.299,-0.4407315066493795,-0.299,-0.5334993066578653,-0.299,-0.6136212992081364,-0.299,-0.6784206872233376,-0.299,-0.7265512090269099,-0.299,-0.7590375678902299
-0.298,-0.7792016746408706,-0.298,-0.1155747344136826,-0.298,-0.229101341326303,-0.298,-0.3383379502282433,-0.298,-0.4407553125471555,-0.298,-0.5335245533999302,-0.298,-0.6136473217097671,-0.298,-0.6784471265185095,-0.298,-0.7265778665809992,-0.298,-0.7590643337711208
-0.297,-0.7792279051934629,-0.297,-0.1155838126627862,-0.297,-0.2291174937450722,-0.297,-0.3383586428084504,-0.297,-0.440778598218392,-0.297,-0.5335492481776356,-0.297,-0.6136727751482081,-0.297,-0.6784729875585864,-0.297,-0.7266039410597552,-0.297,-0.7590905141761991
-0.296,-0.7792535616066731,-0.296,-0.1155926930630771,-0.296,-0.2291332936742663,-0.296,-0.3383788832721837,-0.296,-0.4408013747121553,-0.296,-0.5335734027246455,-0.296,-0.6136976716260336,-0.296,-0.6784982826442619,-0.296,-0.7266294448676452,-0.296,-0.7591161215616127
-0.295,-0.7792786561187562,-0.295,-0.1156013797962472,-0.295,-0.2291487485843833,-0.295,-0.3383986812251518,-0.295,-0.4408236528638179,-0.295,-0.5335970285471801,-0.295,-0.6137220230109455,-0.295,-0.6785230238373386,-0.295,-0.7266543901681087,-0.295,-0.759141168141408
-0.294,-0.7793032007289236,-0.294,-0.1156098769640217,-0.294,-0.2291638658021526,-0.294,-0.3384180460871162,-0.294,-0.4408454432981777,-0.294,-0.5336201369273628,-0.294,-0.6137458409392307,-0.294,-0.6785472229642501,-0.294,-0.7266787888871258,-0.294,-0.7591656658911073
-0.293,-0.7793272072009271,-0.293,-0.1156181885893022,-0.293,-0.2291786525126023,-0.293,-0.3384369870946213,-0.293,-0.4408667564326065,-0.293,-0.5336427389265843,-0.293,-0.6137691368192327,-0.293,-0.6785708916196087,-0.293,-0.7267026527168077,-0.293,-0.7591896265513061
-0.292,-0.7793506870666556,-0.292,-0.115626318617283,-0.292,-0.2291931157611384,-0.292,-0.3384555133037133,-0.292,-0.4408876024801547,-0.292,-0.5336648453888242,-0.292,-0.6137919218348233,-0.292,-0.6785940411697126,-0.292,-0.7267259931189141,-0.292,-0.7592130616312234
-0.291,-0.7793736516296577,-0.291,-0.1156342709165958,-0.291,-0.2292072624556005,-0.291,-0.3384736335926566,-0.291,-0.4409079914526675,-0.291,-0.5336864669440118,-0.291,-0.6138142069488421,-0.291,-0.6786166827560843,-0.291,-0.726748821328423,-0.291,-0.7592359824122843
-0.29,-0.7793961119687445,-0.29,-0.1156420492804089,-0.29,-0.229221099368339,-0.29,-0.3384913566646643,-0.29,-0.4409279331639082,-0.29,-0.533707614011325,-0.29,-0.6138360029065302,-0.29,-0.6786388272989357,-0.29,-0.7267711483570578,-0.29,-0.759258399951632
-0.289,-0.7794180789414952,-0.289,-0.1156496574275869,-0.289,-0.2292346331382744,-0.289,-0.3385086910505934,-0.289,-0.4409474372326256,-0.289,-0.5337282968025017,-0.289,-0.61385732023898,-0.289,-0.6786604855006806,-0.289,-0.7267929849967979,-0.289,-0.759280325085704
-0.288,-0.7794395631877884,-0.288,-0.1156570990038028,-0.288,-0.229247870272949,-0.288,-0.3385256451116589,-0.288,-0.4409665130856628,-0.288,-0.5337485253251555,-0.288,-0.6138781692665085,-0.288,-0.6786816678494028,-0.288,-0.7268143418233838,-0.288,-0.7593017684337119
-0.287,-0.7794605751332904,-0.287,-0.1156643775826536,-0.287,-0.2292608171505921,-0.287,-0.3385422270420915,-0.287,-0.4409851699610061,-0.287,-0.5337683093860313,-0.287,-0.6138985601020861,-0.287,-0.6787023846222882,-0.287,-0.726835229199787,-0.287,-0.7593227404011272
-0.286,-0.7794811249929494,-0.286,-0.1156714966668044,-0.286,-0.2292734800221428,-0.286,-0.338558444871851,-0.286,-0.4410034169108479,-0.286,-0.5337876585942698,-0.286,-0.6139185026546714,-0.286,-0.6787226458890665,-0.286,-0.7268556572796847,-0.286,-0.759343251183196
-0.285,-0.7795012227744437,-0.285,-0.115678459689081,-0.285,-0.2292858650133045,-0.285,-0.3385743064692528,-0.285,-0.4410212628046173,-0.285,-0.5338065823646621,-0.285,-0.6139380066325927,-0.285,-0.6787424615154075,-0.285,-0.7268756360108692,-0.285,-0.75936331076835
-0.284,-0.7795208782816034,-0.284,-0.1156852700135904,-0.284,-0.2292979781265529,-0.284,-0.3385898195436419,-0.284,-0.441038716331992,-0.284,-0.5338250899208448,-0.284,-0.6139570815468427,-0.284,-0.6787618411663308,-0.284,-0.7268951751386865,-0.284,-0.759382928941628
-0.283,-0.7795401011178125,-0.283,-0.1156919309368314,-0.283,-0.229309825243158,-0.283,-0.3386049916479925,-0.283,-0.4410557860058928,-0.283,-0.533843190298515,-0.283,-0.6139757367144163,-0.283,-0.6787807943095258,-0.283,-0.7269142842093986,-0.283,-0.759402115288101
-0.282,-0.779558900689401,-0.282,-0.1156984456888035,-0.282,-0.2293214121251801,-0.282,-0.3386198301815384,-0.282,-0.4410724801654611,-0.282,-0.5338608923485864,-0.282,-0.6139939812615509,-0.282,-0.6787993302187056,-0.282,-0.7269329725735587,-0.282,-0.759420879196213
-0.281,-0.7795772862089617,-0.281,-0.1157048174340707,-0.281,-0.2293327444174564,-0.281,-0.338634342392367,-0.281,-0.4410888069790009,-0.281,-0.5338782047403485,-0.281,-0.6140118241270055,-0.281,-0.678817457976904,-0.281,-0.726951249389326,-0.281,-0.7594392298611546
-0.28,-0.7795952666986949,-0.28,-0.1157110492728834,-0.28,-0.2293438276495752,-0.28,-0.338648535379968,-0.28,-0.4411047744469065,-0.28,-0.5338951359645687,-0.28,-0.6140292740652621,-0.28,-0.6788351864797596,-0.28,-0.7269691236257726,-0.28,-0.7594571762881216
-0.279,-0.7796128509936509,-0.279,-0.1157171442422433,-0.279,-0.2293546672378268,-0.279,-0.3386624160978127,-0.279,-0.4411203904045577,-0.279,-0.5339116943365962,-0.279,-0.6140463396497206,-0.279,-0.6788525244387308,-0.279,-0.7269866040661404,-0.279,-0.7594747272956449
-0.278,-0.7796300477450118,-0.278,-0.1157231053169696,-0.278,-0.2293652684871688,-0.278,-0.3386759913558486,-0.278,-0.4411356625252005,-0.278,-0.5339278879994083,-0.278,-0.6140630292758615,-0.278,-0.6788694803843343,-0.278,-0.7270036993110913,-0.278,-0.7594918915187906
-0.277,-0.7796468654232874,-0.277,-0.1157289354107727,-0.277,-0.2293756365931106,-0.277,-0.3386892678230298,-0.277,-0.4411505983227832,-0.277,-0.5339437249266528,-0.277,-0.6140793511643811,-0.277,-0.6788860626693058,-0.277,-0.7270204177818903,-0.277,-0.7595086774124052
-0.276,-0.779663312321489,-0.276,-0.1157346373773029,-0.276,-0.2293857766436576,-0.276,-0.3387022520297898,-0.276,-0.4411652051547716,-0.276,-0.5339592129256492,-0.276,-0.6140953133642612,-0.276,-0.6789022794717501,-0.276,-0.7270367677235702,-0.276,-0.7595250932542653
-0.275,-0.7796793965582851,-0.275,-0.1157402140111987,-0.275,-0.2293956936211854,-0.275,-0.3387149503704872,-0.275,-0.4411794902249386,-0.275,-0.5339743596403372,-0.275,-0.6141109237558622,-0.275,-0.6789181387982447,-0.275,-0.7270527572080862,-0.275,-0.7595411471482166
-0.274,-0.7796951260810735,-0.274,-0.1157456680491236,-0.274,-0.2294053924043011,-0.274,-0.3387273691058443,-0.274,-0.4411934605861225,-0.274,-0.5339891725542303,-0.274,-0.6141261900539247,-0.274,-0.67893364848691,-0.274,-0.7270683941373743,-0.274,-0.7595568470272852
-0.273,-0.7797105086690738,-0.273,-0.1157510021707773,-0.273,-0.2294148777697134,-0.273,-0.3387395143653471,-0.273,-0.4412071231429506,-0.273,-0.5340036589933037,-0.273,-0.6141411198105662,-0.273,-0.6789488162104533,-0.273,-0.7270836862464192,-0.273,-0.7595722006567346
-0.272,-0.7797255519363346,-0.272,-0.1157562189999335,-0.272,-0.2294241543940623,-0.272,-0.3387513921496257,-0.272,-0.4412204846545358,-0.272,-0.53401782612886,-0.272,-0.6141557204182468,-0.272,-0.6789636494791628,-0.272,-0.7270986411062904,-0.272,-0.7595872156370705
-0.271,-0.7797402633347161,-0.271,-0.1157613211054218,-0.271,-0.2294332268557093,-0.271,-0.3387630083327937,-0.271,-0.4412335517371195,-0.271,-0.5340316809803658,-0.271,-0.6141699991126737,-0.271,-0.6789781556438528,-0.271,-0.7271132661270715,-0.271,-0.759601899407053
-0.27,-0.7797546501568261,-0.27,-0.1157663110021392,-0.27,-0.2294420996365523,-0.27,-0.3387743686647768,-0.27,-0.4412463308667296,-0.27,-0.5340452304182417,-0.27,-0.6141839629756749,-0.27,-0.6789923418988041,-0.27,-0.7271275685608435,-0.27,-0.7596162592466068
-0.269,-0.7797687195389323,-0.269,-0.1157711911520167,-0.269,-0.2294507771237744,-0.269,-0.3387854787735922,-0.269,-0.4412588283817505,-0.269,-0.5340584811666149,-0.269,-0.6141976189380515,-0.269,-0.6790062152846276,-0.269,-0.7271415555045616,-0.269,-0.7596303022797406
-0.268,-0.7797824784638054,-0.268,-0.1157759639649969,-0.268,-0.2294592636116184,-0.268,-0.3387963441676314,-0.268,-0.441271050485498,-0.268,-0.5340714398060595,-0.268,-0.6142109737823886,-0.268,-0.6790197826911136,-0.268,-0.7271552339029048,-0.268,-0.75964403547739
-0.267,-0.7797959337635176,-0.267,-0.1157806317999994,-0.267,-0.2294675633030843,-0.267,-0.338806970237876,-0.267,-0.4412830032487414,-0.267,-0.5340841127762475,-0.267,-0.6142240341457906,-0.267,-0.6790330508600333,-0.267,-0.7271686105510763,-0.267,-0.7596574656602416
-0.266,-0.7798090921222319,-0.266,-0.1157851969658483,-0.266,-0.229475680311642,-0.266,-0.3388173622601052,-0.266,-0.4412946926121877,-0.266,-0.5340965063786172,-0.266,-0.6142368065226191,-0.266,-0.679046026387873,-0.266,-0.7271816920976006,-0.266,-0.7596705995014857
-0.265,-0.7798219600789262,-0.265,-0.115789661722224,-0.265,-0.2294836186629248,-0.265,-0.3388275253970694,-0.265,-0.4413061243889524,-0.265,-0.5341086267789812,-0.265,-0.6142492972671798,-0.265,-0.6790587157285792,-0.265,-0.7271944850470353,-0.265,-0.7596834435295616
-0.264,-0.7798345440300303,-0.264,-0.1157940282805796,-0.264,-0.2294913822963585,-0.264,-0.3388374647006289,-0.264,-0.4413173042669649,-0.264,-0.5341204800100796,-0.264,-0.6142615125963478,-0.264,-0.6790711251962009,-0.264,-0.727206995762626,-0.264,-0.7596960041308233
-0.263,-0.7798468502320852,-0.263,-0.115798298805043,-0.263,-0.2294989750668308,-0.263,-0.3388471851138717,-0.263,-0.4413282378113608,-0.263,-0.5341320719741154,-0.263,-0.6142734585921802,-0.263,-0.6790832609675471,-0.263,-0.7272192304689973,-0.263,-0.7597082875521634
-0.262,-0.7798588848043425,-0.262,-0.1158024754133324,-0.262,-0.2295064007462728,-0.262,-0.3388566914731856,-0.262,-0.4413389304668369,-0.262,-0.5341434084452477,-0.262,-0.6142851412044623,-0.262,-0.6790951290847426,-0.262,-0.727231195254688,-0.262,-0.7597202999036287
-0.261,-0.779870653731227,-0.261,-0.1158065601776144,-0.261,-0.229513663025267,-0.261,-0.3388659885103134,-0.261,-0.4413493875599408,-0.261,-0.5341544950720321,-0.261,-0.6142965662532285,-0.261,-0.6791067354577947,-0.261,-0.7272428960747216,-0.261,-0.7597320471609348
-0.26,-0.7798821628649014,-0.26,-0.1158105551254054,-0.26,-0.229520765514597,-0.26,-0.338875080854361,-0.26,-0.4413596143013729,-0.26,-0.5341653373798447,-0.26,-0.6143077394312411,-0.26,-0.6791180858670736,-0.26,-0.7272543387531184,-0.26,-0.759743535167965
-0.259,-0.7798934179276484,-0.259,-0.1158144622404009,-0.259,-0.2295277117467951,-0.259,-0.3388839730337914,-0.259,-0.4413696157882012,-0.259,-0.5341759407732332,-0.259,-0.6143186663064051,-0.259,-0.6791291859657654,-0.259,-0.7272655289853185,-0.259,-0.7597547696392242
-0.258,-0.7799044245142819,-0.258,-0.1158182834633394,-0.258,-0.2295345051776547,-0.258,-0.3388926694783714,-0.258,-0.4413793970060833,-0.258,-0.5341863105382501,-0.258,-0.6143293523241631,-0.258,-0.6791400412822802,-0.258,-0.7272764723406082,-0.258,-0.7597657561622145
-0.257,-0.7799151880944711,-0.257,-0.115822020692828,-0.257,-0.2295411491877202,-0.257,-0.3389011745210957,-0.257,-0.4413889628314103,-0.257,-0.5341964518447562,-0.257,-0.6143398028098395,-0.257,-0.679150657222619,-0.257,-0.7272871742644731,-0.257,-0.7597765001998129
-0.2559999999999999,-0.7799257140150224,-0.2559999999999999,-0.1158256757861675,-0.2559999999999999,-0.2295476470837665,-0.2559999999999999,-0.3389094924000733,-0.2559999999999999,-0.4413983180334407,-0.2559999999999999,-0.5342063697486359,-0.2559999999999999,-0.6143500229709404,-0.2559999999999999,-0.6791610390726818,-0.2559999999999999,-0.7272976400808957,-0.2559999999999999,-0.7597870070925287
-0.2549999999999999,-0.7799360075021226,-0.2549999999999999,-0.1158292505601455,-0.2549999999999999,-0.2295540021002165,-0.2549999999999999,-0.3389176272603847,-0.2549999999999999,-0.4414074672764001,-0.2549999999999999,-0.5342160691940396,-0.2549999999999999,-0.6143600178993992,-0.2549999999999999,-0.6791711920005278,-0.2549999999999999,-0.7273078749946367,-0.2549999999999999,-0.7597972820607908
-0.2539999999999999,-0.7799460736635002,-0.2539999999999999,-0.1158327467918465,-0.2539999999999999,-0.2295602174005917,-0.2539999999999999,-0.338925583155907,-0.2539999999999999,-0.4414164151215036,-0.2539999999999999,-0.5342255550155075,-0.2539999999999999,-0.6143697925737992,-0.2539999999999999,-0.6791811210586095,-0.2539999999999999,-0.727317884093422,-0.2539999999999999,-0.7598073302071036
-0.2529999999999999,-0.7799559174905641,-0.2529999999999999,-0.1158361662194118,-0.2529999999999999,-0.2295662960788805,-0.2529999999999999,-0.3389333640511025,-0.2529999999999999,-0.4414251660290001,-0.2529999999999999,-0.5342348319401278,-0.2529999999999999,-0.6143793518615384,-0.2529999999999999,-0.6791908311859424,-0.2529999999999999,-0.7273276723501283,-0.2529999999999999,-0.7598171565182116
-0.2519999999999999,-0.7799655438604793,-0.2519999999999999,-0.1158395105428247,-0.2519999999999999,-0.22957224116092,-0.2519999999999999,-0.33894097382278,-0.2519999999999999,-0.4414337243601283,-0.2519999999999999,-0.5342439045895899,-0.2519999999999999,-0.6143887005209353,-0.2519999999999999,-0.6792003272102296,-0.2519999999999999,-0.7273372446248797,-0.2519999999999999,-0.7598267658671882
-0.2509999999999999,-0.779974957538171,-0.2509999999999999,-0.1158427814246401,-0.2509999999999999,-0.2295780556057396,-0.2509999999999999,-0.3389484162618142,-0.2509999999999999,-0.4414420943790534,-0.2509999999999999,-0.5342527774822401,-0.2509999999999999,-0.6143978432033229,-0.2509999999999999,-0.6792096138499342,-0.2509999999999999,-0.7273466056671016,-0.2509999999999999,-0.7598361630154706
-0.2499999999999999,-0.7799841631782821,-0.2499999999999999,-0.1158459804907477,-0.2499999999999999,-0.2295837423068776,-0.2499999999999999,-0.3389556950748465,-0.2499999999999999,-0.4414502802547744,-0.2499999999999999,-0.5342614550350628,-0.2499999999999999,-0.614406784455074,-0.2499999999999999,-0.6792186957163062,-0.2499999999999999,-0.727355760117551,-0.2499999999999999,-0.7598453526148385
-0.2489999999999999,-0.7799931653271021,-0.2489999999999999,-0.1158491093310883,-0.2489999999999999,-0.2295893040936794,-0.2489999999999999,-0.3389628138859464,-0.2489999999999999,-0.4414582860629728,-0.2489999999999999,-0.5342699415656409,-0.2489999999999999,-0.6144155287195793,-0.2489999999999999,-0.6792275773153866,-0.2489999999999999,-0.7273647125102521,-0.2489999999999999,-0.7598543392093412
-0.2479999999999999,-0.7800019684243743,-0.2479999999999999,-0.1158521695003514,-0.2479999999999999,-0.2295947437325676,-0.2479999999999999,-0.3389697762382307,-0.2479999999999999,-0.4414661157878401,-0.2479999999999999,-0.5342782412940741,-0.2479999999999999,-0.6144240803391892,-0.2479999999999999,-0.6792362630498944,-0.2479999999999999,-0.7273734672744097,-0.2479999999999999,-0.759863127237181
-0.2469999999999999,-0.7800105768051206,-0.2469999999999999,-0.1158551625186994,-0.2469999999999999,-0.2296000639282874,-0.2469999999999999,-0.3389765855954692,-0.2469999999999999,-0.4414737733238636,-0.2469999999999999,-0.5342863583448239,-0.2469999999999999,-0.6144324435571085,-0.2469999999999999,-0.6792447572211538,-0.2469999999999999,-0.7273820287362527,-0.2469999999999999,-0.7598717210325112
-0.2459999999999999,-0.7800189947013327,-0.2459999999999999,-0.1158580898724286,-0.2459999999999999,-0.2296052673251294,-0.2459999999999999,-0.3389832453436239,-0.2459999999999999,-0.4414812624775615,-0.2459999999999999,-0.5342942967485615,-0.2459999999999999,-0.61444062251923,-0.2459999999999999,-0.6792530640308703,-0.2459999999999999,-0.7273904011208321,-0.2459999999999999,-0.7598801248272102
-0.2449999999999999,-0.7800272262436709,-0.2449999999999999,-0.1158609530146639,-0.2449999999999999,-0.2296103565081287,-0.2449999999999999,-0.3389897587924089,-0.2449999999999999,-0.4414885869691958,-0.2449999999999999,-0.5343020604439366,-0.2449999999999999,-0.6144486212759431,-0.2449999999999999,-0.6792611875829574,-0.2449999999999999,-0.7273985885537596,-0.2449999999999999,-0.7598883427525638
-0.2439999999999999,-0.7800352754630211,-0.2439999999999999,-0.1158637533659974,-0.2439999999999999,-0.2296153340042286,-0.2439999999999999,-0.3389961291767669,-0.2439999999999999,-0.4414957504344295,-0.2439999999999999,-0.5343096532793095,-0.2439999999999999,-0.6144564437838684,-0.2439999999999999,-0.679269131885225,-0.2439999999999999,-0.7274065950628825,-0.2439999999999999,-0.7598963788409048
-0.2429999999999999,-0.7800431462920862,-0.2429999999999999,-0.115866492315144,-0.2429999999999999,-0.2296202022834373,-0.2429999999999999,-0.3390023596583334,-0.2429999999999999,-0.4415027564259633,-0.2429999999999999,-0.5343170790144591,-0.2429999999999999,-0.6144640939075685,-0.2429999999999999,-0.67927690085107,-0.2429999999999999,-0.727414424579923,-0.2429999999999999,-0.7599042370272193
-0.2419999999999999,-0.780050842566823,-0.2419999999999999,-0.1158691712195674,-0.2419999999999999,-0.2296249637599483,-0.2419999999999999,-0.339008453326862,-0.2419999999999999,-0.4415096084151118,-0.2419999999999999,-0.5343243413222083,-0.2419999999999999,-0.6144715754211966,-0.2419999999999999,-0.6792844983010813,-0.2419999999999999,-0.727422080942031,-0.2419999999999999,-0.7599119211506074
-0.2409999999999999,-0.7800583680278396,-0.2409999999999999,-0.1158717914061018,-0.2409999999999999,-0.2296296207932218,-0.2409999999999999,-0.3390144132016293,-0.2409999999999999,-0.4415163097933592,-0.2409999999999999,-0.534331443790057,-0.2409999999999999,-0.6144788920100809,-0.2409999999999999,-0.6792919279645989,-0.2409999999999999,-0.7274295678932883,-0.2409999999999999,-0.7599194349557825
-0.2399999999999999,-0.7800657263217498,-0.2399999999999999,-0.1158743541715579,-0.2399999999999999,-0.2296341756890832,-0.2399999999999999,-0.3390202422327966,-0.2399999999999999,-0.4415228638738617,-0.2399999999999999,-0.5343383899217058,-0.2399999999999999,-0.6144860472723014,-0.2399999999999999,-0.6792991934812368,-0.2399999999999999,-0.727436889086168,-0.2399999999999999,-0.7599267820944097
-0.2389999999999999,-0.7800729210024288,-0.2389999999999999,-0.1158768607832974,-0.2389999999999999,-0.2296386307007585,-0.2389999999999999,-0.3390259433027287,-0.2389999999999999,-0.4415292738929173,-0.2389999999999999,-0.5343451831385959,-0.2389999999999999,-0.6144930447201628,-0.2389999999999999,-0.6793062984023143,-0.2389999999999999,-0.7274440480829012,-0.2389999999999999,-0.7599339661264621
-0.2379999999999999,-0.7800799555322041,-0.2379999999999999,-0.1158793124798354,-0.2379999999999999,-0.22964298802988,-0.2379999999999999,-0.3390315192272917,-0.2379999999999999,-0.4415355430113863,-0.2379999999999999,-0.5343518267813594,-0.2379999999999999,-0.6144998877816553,-0.2379999999999999,-0.6793132461922547,-0.2379999999999999,-0.7274510483567969,-0.2379999999999999,-0.7599409905214454
