;Version, 1, 0
;vout (VCTRL=0.02),;vout (VCTRL=0.04),;vout (VCTRL=0.06),;vout (VCTRL=0.08),;vout (VCTRL=0.1),;vout (VCTRL=0.12),;vout (VCTRL=0.14),;vout (VCTRL=0.16),;vout (VCTRL=0.18),;vout (VCTRL=0.2)
;X, Y,;X, Y,;X, Y,;X, Y,;X, Y,;X, Y,;X, Y,;X, Y,;X, Y,;X, Y
;Re, Re,;Re, Re,;Re, Re,;Re, Re,;Re, Re,;Re, Re,;Re, Re,;Re, Re,;Re, Re,;Re, Re
;vin, V,;vin, V,;vin, V,;vin, V,;vin, V,;vin, V,;vin, V,;vin, V,;vin, V,;vin, V
;xunit, V,;xunit, V,;xunit, V,;xunit, V,;xunit, V,;xunit, V,;xunit, V,;xunit, V,;xunit, V,;xunit, V
-0.2,-0.2074303284579816,-0.2,-0.4092031234730186,-0.2,-0.5978814463622893,-0.2,-0.7623285318179867,-0.2,-0.8915347688059034,-0.2,-0.9862082084646151,-0.2,-1.059491862067155,-0.2,-1.121874472896668,-0.2,-1.177769202532014,-0.2,-1.229035728011329
-0.199,-0.2074296609345848,-0.199,-0.4092081598345511,-0.199,-0.5979071567539228,-0.199,-0.7624038524332444,-0.199,-0.891680368271021,-0.199,-0.9864055479341555,-0.199,-1.059707434928985,-0.199,-1.122089099480233,-0.199,-1.177956326751856,-0.199,-1.229219160126482
-0.198,-0.2074288724169434,-0.198,-0.4092130712137576,-0.198,-0.5979329862787318,-0.198,-0.7624798676135356,-0.198,-0.8918276377846559,-0.198,-0.986605736614468,-0.198,-1.05992581929805,-0.198,-1.122306528728353,-0.198,-1.178163116551711,-0.198,-1.229409044036081
-0.197,-0.2074279545233291,-0.197,-0.4092178422239564,-0.197,-0.5979588892945353,-0.197,-0.7625565610005609,-0.197,-0.8919765517679712,-0.197,-0.9868083916954189,-0.197,-1.060146990973392,-0.197,-1.122526753216928,-0.197,-1.178372557305196,-0.197,-1.229601338440216
-0.196,-0.2074268982525347,-0.196,-0.4092224575995227,-0.196,-0.5979848488030846,-0.196,-0.7626339156197529,-0.196,-0.8921270962767813,-0.196,-0.9870135057714733,-0.196,-1.06037094658025,-0.196,-1.122749770268806,-0.196,-1.178584645608679,-0.196,-1.229796038398953
-0.195,-0.2074256939535251,-0.195,-0.4092269009307596,-0.195,-0.598010846512961,-0.195,-0.7627119130456418,-0.195,-0.8922792555901243,-0.195,-0.9872210694827827,-0.195,-1.060597680770486,-0.195,-1.122975575234772,-0.195,-1.178799376102245,-0.195,-1.229993137044787
-0.194,-0.207424331266221,-0.194,-0.4092311545606755,-0.194,-0.5980368627313842,-0.194,-0.7627905333005249,-0.194,-0.8924330120998722,-0.194,-0.9874310713931724,-0.194,-1.060827186095595,-0.194,-1.123204161364017,-0.194,-1.179016741338492,-0.194,-1.230192625450228
-0.193,-0.2074227990555091,-0.193,-0.4092351994699536,-0.193,-0.598062876243891,-0.193,-0.7628697547425611,-0.193,-0.8925883461903366,-0.193,-0.9876434978578663,-0.193,-1.061059452869059,-0.193,-1.123435519663627,-0.193,-1.179236731639971,-0.193,-1.230394492483779
-0.192,-0.2074210853375684,-0.192,-0.4092390151484628,-0.192,-0.5980888641801866,-0.192,-0.7629495539417753,-0.192,-0.8927452361064658,-0.192,-0.9878583328795464,-0.192,-1.061294469016665,-0.192,-1.123669638745662,-0.192,-1.179459334943755,-0.192,-1.230598724652573
-0.191,-0.2074191771974467,-0.191,-0.4092425794514322,-0.191,-0.5981148018642327,-0.191,-0.7630299055422577,-0.191,-0.8929036578091247,-0.191,-0.9880755579512401,-0.191,-1.061532219913224,-0.191,-1.123906504660202,-0.191,-1.179684536631496,-0.191,-1.230805305929937
-0.19,-0.2074170606966387,-0.19,-0.4092458684380935,-0.19,-0.5981406626463225,-0.19,-0.7631107821085105,-0.19,-0.8930635848155609,-0.19,-0.9882951518842134,-0.19,-1.061772688203857,-0.19,-1.124146100712491,-0.19,-1.179912319342965,-0.19,-1.231014217565793
-0.189,-0.2074147207692552,-0.189,-0.4092488561902344,-0.189,-0.5981664177145133,-0.189,-0.7631921539536061,-0.189,-0.8932249880229614,-0.189,-0.9885170906187797,-0.189,-1.062015853607699,-0.189,-1.124388407261951,-0.189,-1.180142662770812,-0.189,-1.231225437877528
-0.188,-0.207412141105079,-0.188,-0.4092515146076593,-0.188,-0.5981920358823555,-0.188,-0.7632739889463341,-0.188,-0.8933878355125457,-0.188,-0.9887413470155376,-0.188,-1.062261692701503,-0.188,-1.124633401500474,-0.188,-1.180375543433815,-0.188,-1.231438942018486
-0.187,-0.2074093040175554,-0.187,-0.4092538229258645,-0.187,-0.5982174833493044,-0.187,-0.7633562522940862,-0.187,-0.8935520923312557,-0.187,-0.9889678906241557,-0.187,-1.062510178680217,-0.187,-1.124881057206987,-0.187,-1.180610934425504,-0.187,-1.231654701720802
-0.186,-0.2074061902944283,-0.186,-0.4092557787194222,-0.186,-0.598242723429608,-0.186,-0.763438906297619,-0.186,-0.8937177202475401,-0.186,-0.9891966874262694,-0.186,-1.062761281091022,-0.186,-1.125131344474675,-0.186,-1.180848805134401,-0.186,-1.231872685008688
-0.185,-0.2074027790282729,-0.185,-0.4092573516345591,-0.185,-0.5982677162446564,-0.185,-0.7635219100730739,-0.185,-0.8938846774770901,-0.185,-0.9894276995484486,-0.185,-1.063014965536763,-0.185,-1.125384229406655,-0.185,-1.181089120931486,-0.185,-1.232092855877554
-0.184,-0.2073990474237537,-0.184,-0.4092585064599087,-0.184,-0.5982924183728933,-0.184,-0.7636052192358629,-0.184,-0.8940529183735997,-0.184,-0.9896608849404119,-0.184,-1.063271193343839,-0.184,-1.125639673775055,-0.184,-1.181331842819683,-0.184,-1.232315173933517
-0.183,-0.2073949705777905,-0.183,-0.4092592046171566,-0.183,-0.5983167824502647,-0.183,-0.7636887855398649,-0.183,-0.894222393078707,-0.183,-0.9898961970127829,-0.183,-1.06352992118879,-0.183,-1.12589763463754,-0.183,-1.181576927039111,-0.183,-1.232539593986804
-0.182,-0.2073905212280891,-0.182,-0.4092594037406859,-0.182,-0.5983407567128233,-0.182,-0.7637725564641981,-0.182,-0.8943930471240688,-0.182,-0.9901335842275021,-0.182,-1.063791100676562,-0.182,-1.126158063904116,-0.182,-1.181824324620699,-0.182,-1.232766065591262
-0.181,-0.2073856694646683,-0.181,-0.4092590571914488,-0.181,-0.5983642844714432,-0.181,-0.7638564747381852,-0.181,-0.8945648209771311,-0.181,-0.9903729896326638,-0.181,-1.064054677862159,-0.181,-1.126420907845603,-0.181,-1.182073980879194,-0.181,-1.232994532520663
-0.18,-0.207380382397836,-0.18,-0.4092581134929507,-0.18,-0.5983873035065916,-0.18,-0.7639404777932491,-0.18,-0.8947376495204316,-0.18,-0.99061435033185,-0.18,-1.064320592705553,-0.18,-1.126686106533454,-0.18,-1.182325834834853,-0.18,-1.23322493217056
-0.179,-0.2073746237748375,-0.179,-0.4092565156744455,-0.179,-0.5984097453685465,-0.179,-0.7640244971280258,-0.179,-0.8949114614520455,-0.179,-0.9908575968758889,-0.179,-1.064588778447654,-0.179,-1.126953593198327,-0.179,-1.182579818550702,-0.179,-1.233457194872057
-0.178,-0.2073683535356777,-0.178,-0.4092542005031263,-0.178,-0.5984315345653837,-0.178,-0.7641084575700782,-0.178,-0.8950861785921878,-0.178,-0.9911026525624111,-0.178,-1.06485916089252,-0.178,-1.127223293492183,-0.178,-1.182835856369589,-0.178,-1.233691243100986
-0.177,-0.2073615272966058,-0.177,-0.4092510975828776,-0.177,-0.5984525876171165,-0.177,-0.7641922764137816,-0.177,-0.8952617150775274,-0.177,-0.9913494326252199,-0.177,-1.065131657577564,-0.177,-1.127495124635182,-0.177,-1.183093864031561,-0.177,-1.233926990562185
-0.176,-0.2073540957471592,-0.176,-0.4092471282919055,-0.176,-0.5984728119495369,-0.176,-0.7642758624093301,-0.176,-0.8954379764206009,-0.176,-0.9915978432914356,-0.176,-1.065406176809453,-0.176,-1.127768994424446,-0.176,-1.183353747647744,-0.176,-1.234164341124038
-0.175,-0.2073460039434664,-0.175,-0.4092422045247005,-0.175,-0.5984921045951056,-0.175,-0.7643591145718941,-0.175,-0.895614858406337,-0.175,-0.9918477806791282,-0.175,-1.065682616538054,-0.175,-1.128044800076298,-0.175,-1.183615402501284,-0.175,-1.234403187572536
-0.174,-0.2073371904763873,-0.174,-0.4092362271952165,-0.174,-0.5985103506604555,-0.174,-0.7644419207723658,-0.174,-0.8957922457908569,-0.174,-0.9920991295015014,-0.174,-1.065960863034061,-0.174,-1.128322426866661,-0.174,-1.183878711638687,-0.174,-1.23464341014664
-0.173,-0.207327586487861,-0.173,-0.4092290844468075,-0.173,-0.5985274215100176,-0.173,-0.7645241560615158,-0.173,-0.8959700107589827,-0.173,-0.9923517615351631,-0.173,-1.06624078932731,-0.173,-1.128601746525491,-0.173,-1.184143544205751,-0.173,-1.234884874807199
-0.172,-0.2073171145021472,-0.172,-0.4092206494999319,-0.172,-0.5985431726024206,-0.172,-0.764605680666879,-0.172,-0.8961480110855413,-0.172,-0.9926055337989812,-0.172,-1.066522253351608,-0.172,-1.128882615329593,-0.172,-1.184409753470408,-0.172,-1.235127431179263
-0.171,-0.2073056870299271,-0.171,-0.4092107780493507,-0.171,-0.598557440899552,-0.171,-0.7646863375854887,-0.171,-0.8963260879308201,-0.171,-0.9928602863756981,-0.171,-1.066805095727422,-0.171,-1.129164871823338,-0.171,-1.184677174459335,-0.171,-1.235370910091613
-0.17,-0.2072932048919751,-0.17,-0.409199305097124,-0.17,-0.5985700417462536,-0.17,-0.7647659496742755,-0.17,-0.8965040631811672,-0.17,-0.9931158397895786,-0.17,-1.067089137094622,-0.17,-1.129448334077159,-0.17,-1.184945621114925,-0.17,-1.235615120616172
-0.169,-0.2072795551941297,-0.169,-0.4091860410736428,-0.169,-0.5985807650897075,-0.169,-0.7648443161118281,-0.169,-0.8966817362200662,-0.169,-0.9933719918284254,-0.169,-1.067374174882272,-0.169,-1.129732796367825,-0.169,-1.185214882852353,-0.169,-1.235859846482055
-0.168,-0.2072646088655687,-0.168,-0.409170767052894,-0.168,-0.5985893708689772,-0.168,-0.7649212080676467,-0.168,-0.8968588799807402,-0.168,-0.9936285136648915,-0.168,-1.067659979368609,-0.168,-1.130018025129789,-0.168,-1.185484720360574,-0.168,-1.236104841701662
-0.167,-0.2072482176457542,-0.167,-0.4091532288053386,-0.167,-0.5985955833532723,-0.167,-0.7649963633643648,-0.167,-0.8970352360849896,-0.167,-0.9938851450868966,-0.167,-1.067946288838772,-0.167,-1.130303753980141,-0.167,-1.185754860442662,-0.167,-1.236349825195871
-0.166,-0.2072302103693799,-0.166,-0.4091331293448849,-0.166,-0.5985990841368045,-0.166,-0.7650694798493649,-0.166,-0.8972105088096591,-0.166,-0.994141588585338,-0.166,-1.068232803585383,-0.166,-1.130589677555697,-0.166,-1.18602498962466,-0.166,-1.236594474136524
-0.165,-0.2072103883491576,-0.165,-0.4091101195049345,-0.165,-0.5985995034008189,-0.165,-0.7651402070970188,-0.165,-0.8973843575347429,-0.165,-0.9943975019621565,-0.165,-1.068519178411093,-0.165,-1.130875443812517,-0.165,-1.186294746170834,-0.165,-1.236838415629536
-0.164,-0.2071885195874175,-0.164,-0.4090837859059774,-0.164,-0.5985964089176123,-0.164,-0.7652081359298121,-0.164,-0.8975563872046589,-0.164,-0.9946524890026223,-0.164,-1.068805013171505,-0.164,-1.131160644314473,-0.164,-1.18656371001527,-0.164,-1.237081216229015
-0.163,-0.2071643314505088,-0.163,-0.4090536354289962,-0.163,-0.5985892920793917,-0.163,-0.7652727850582823,-0.163,-0.89772613616055,-0.163,-0.9949060875865586,-0.163,-1.069089840725822,-0.163,-1.131444801862148,-0.163,-1.186831389938412,-0.163,-1.23732236858448
-0.162,-0.2071375013011042,-0.162,-0.4090191281967124,-0.162,-0.5985775499591703,-0.162,-0.7653335838690456,-0.162,-0.8978930604511226,-0.162,-0.9951577543694725,-0.162,-1.069373111416031,-0.162,-1.131727354560625,-0.162,-1.187097207055915,-0.162,-1.237561274251894
-0.161,-0.2071076443814566,-0.161,-0.4089798706080318,-0.161,-0.5985604620084622,-0.161,-0.765389849994516,-0.161,-0.8980565133627599,-0.161,-0.9954068448073705,-0.161,-1.069654172834103,-0.161,-1.132007635054566,-0.161,-1.187360473304465,-0.161,-1.237797221302132
-0.16,-0.2070742979411792,-0.16,-0.4089351418930807,-0.16,-0.5985371593981018,-0.16,-0.765440759708958,-0.16,-0.8982157183623545,-0.16,-0.9956525867660331,-0.16,-1.069932243097675,-0.16,-1.132284843106678,-0.16,-1.187620363038556,-0.16,-1.238029354768094
-0.159,-0.2070369001502649,-0.159,-0.4088840434194349,-0.159,-0.5985065841003713,-0.159,-0.7654853083007892,-0.159,-0.8983697328127597,-0.159,-0.9958940451435437,-0.159,-1.070206375033508,-0.159,-1.132558008854525,-0.159,-1.187875874983188,-0.159,-1.238256637070223
-0.158,-0.2069947616373451,-0.158,-0.4088254701198315,-0.158,-0.5984674334008953,-0.158,-0.7655222561806837,-0.158,-0.8985173985223314,-0.158,-0.9961300736698826,-0.158,-1.070475407439068,-0.158,-1.132825942770543,-0.158,-1.188125780434265,-0.158,-1.238477794156685
-0.157,-0.2069477241608234,-0.157,-0.4087591264434833,-0.157,-0.5984192654899012,-0.157,-0.765551079596151,-0.157,-0.8986581788478176,-0.157,-0.9963600985728521,-0.157,-1.070738747977286,-0.157,-1.133088046269755,-0.157,-1.188369480037248,-0.157,-1.238692230002579
-0.156,-0.2068963191916997,-0.156,-0.4086857840820226,-0.156,-0.5983628148030826,-0.156,-0.765572273000062,-0.156,-0.89879244209554,-0.156,-0.9965844029745421,-0.156,-1.07099666393379,-0.156,-1.133344608531477,-0.156,-1.188607309500462,-0.156,-1.238900341767051
-0.155,-0.2068383099594092,-0.155,-0.4086019141720357,-0.155,-0.59829407612193,-0.155,-0.7655821805902956,-0.155,-0.8989168768606436,-0.155,-0.9967998022868598,-0.155,-1.071245949666638,-0.155,-1.133592330551674,-0.155,-1.188835824559264,-0.155,-1.239098509348982
-0.154,-0.2067727067909633,-0.154,-0.4085058928214589,-0.154,-0.5982110803632488,-0.154,-0.7655788542787308,-0.154,-0.8990296586183284,-0.154,-0.9970044895738313,-0.154,-1.071484771885441,-0.154,-1.1338293367581,-0.154,-1.189053093980349,-0.154,-1.239284738173264
-0.153,-0.2066983565585839,-0.153,-0.4083958186418104,-0.153,-0.5981120948147698,-0.153,-0.7655599890144189,-0.153,-0.8991286288459457,-0.153,-0.9971963318682493,-0.153,-1.071710967437199,-0.153,-1.134053414414789,-0.153,-1.189256839448889,-0.153,-1.239456675255028
-0.152,-0.2066139184182524,-0.152,-0.4082694690150808,-0.152,-0.5979955642949543,-0.152,-0.7655228606194173,-0.152,-0.8992112347135006,-0.152,-0.9973728124355576,-0.152,-1.071921985464027,-0.152,-1.134261954615597,-0.152,-1.189444375056522,-0.152,-1.239611546801695
-0.151,-0.2065178365559374,-0.151,-0.4081242503546546,-0.151,-0.5978584107043604,-0.151,-0.765464253967067,-0.151,-0.8992744584036581,-0.151,-0.9975309633111227,-0.151,-1.072114820006297,-0.151,-1.134451883670942,-0.151,-1.18961253689996,-0.151,-1.239746085632972
-0.15,-0.2064083115596921,-0.15,-0.4079571447779566,-0.15,-0.5976970156314156,-0.15,-0.7653803839121647,-0.15,-0.8993147378043571,-0.15,-0.9976672898951555,-0.15,-1.072285934939724,-0.15,-1.134619586779202,-0.15,-1.189757604834913,-0.15,-1.239856450539575
-0.149,-0.2062832717927051,-0.149,-0.4077646552848808,-0.149,-0.5975071303626134,-0.149,-0.765266811143282,-0.149,-0.8993278800704241,-0.149,-0.9977776890356693,-0.149,-1.07243118282695,-0.149,-1.134760825624283,-0.149,-1.189875218108975,-0.149,-1.239938139366543
-0.148,-0.2061403469242816,-0.148,-0.4075427529120429,-0.148,-0.5972837902934606,-0.148,-0.7651183569181472,-0.148,-0.8993089712589744,-0.148,-0.9978573636424845,-0.148,-1.072545720854188,-0.148,-1.134870653152174,-0.148,-1.189960288271582,-0.148,-1.239985899334127
-0.147,-0.2059768467413841,-0.147,-0.4072868310907993,-0.147,-0.5970212330980443,-0.147,-0.7649290230122104,-0.147,-0.899252287629539,-0.147,-0.9979007390564263,-0.147,-1.072623929205673,-0.147,-1.13494333096401,-0.147,-1.19000691504463,-0.147,-1.239993640465517
-0.146,-0.2057897494438247,-0.146,-0.4069916744868034,-0.146,-0.5967128294303644,-0.146,-0.7646919260936276,-0.146,-0.8991512172668191,-0.146,-0.9979013891760771,-0.146,-1.072659339992966,-0.146,-1.134972257452084,-0.146,-1.19000831371517,-0.146,-1.239954360955557
-0.145,-0.2055757046579586,-0.145,-0.4066514516824656,-0.145,-0.5963510381196399,-0.145,-0.7643992588637321,-0.145,-0.8989982042264755,-0.145,-0.997851983594425,-0.145,-1.072644588010146,-0.145,-1.134949917575876,-0.145,-1.18995676586945,-0.145,-1.239860096668267
-0.144,-0.2053310570971618,-0.144,-0.4062597426865312,-0.144,-0.595927400771769,-0.144,-0.7640422930890864,-0.144,-0.8987847308763254,-0.144,-0.9977442701977972,-0.144,-1.07257139764387,-0.144,-1.134867866358713,-0.144,-1.189843608407056,-0.144,-1.239701910157652
-0.143,-0.2050518967338357,-0.143,-0.4058096126578445,-0.143,-0.5954331124922132,-0.143,-0.7636114411389576,-0.143,-0.8985013565103597,-0.143,-0.9975691099763802,-0.143,-1.072430622359007,-0.143,-1.134716747423882,-0.143,-1.189659277839029,-0.143,-1.239469936720942
-0.142,-0.2047341400371497,-0.142,-0.4052937414697049,-0.142,-0.5948615571321419,-0.142,-0.7630963915447572,-0.142,-0.8981378302178955,-0.142,-0.9973165809109423,-0.142,-1.072212353059676,-0.142,-1.134486125187979,-0.142,-1.189393426584978,-0.142,-1.239153504682208
-0.141,-0.204373643866803,-0.141,-0.4047046139488842,-0.141,-0.5942035265888183,-0.141,-0.7624863290773858,-0.141,-0.897683291791463,-0.141,-0.9969761642581837,-0.141,-1.071906107875679,-0.141,-1.134164677861984,-0.141,-1.18903512396218,-0.141,-1.238741342893105
-0.14,-0.2039663488703957,-0.14,-0.404034767466833,-0.14,-0.5934489459634188,-0.14,-0.7617702401211287,-0.14,-0.8971265650291806,-0.14,-0.9965370182934337,-0.14,-1.071501107665971,-0.14,-1.133742395966131,-0.14,-1.188573145534119,-0.14,-1.238221879272569
-0.139,-0.2035084437679806,-0.139,-0.4032770827880535,-0.139,-0.5925875485701935,-0.139,-0.760937290107793,-0.139,-0.8964565332012064,-0.139,-0.9959883312374854,-0.139,-1.07098662812809,-0.139,-1.133208394019517,-0.139,-1.187996341261693,-0.139,-1.237583620260767
-0.138,-0.202996534623003,-0.138,-0.4024250928504544,-0.138,-0.5916090960523966,-0.138,-0.7599772439844781,-0.138,-0.8956625692937707,-0.138,-0.9953197294377333,-0.138,-1.070352404662207,-0.138,-1.132552276481857,-0.138,-1.187294056383449,-0.138,-1.236815584442734
-0.137,-0.2024278021784214,-0.137,-0.4014732757554706,-0.137,-0.5905035799399044,-0.137,-0.7588808871043202,-0.137,-0.8947349777987885,-0.137,-0.9945217012313441,-0.137,-1.069589050519326,-0.137,-1.13176455356473,-0.137,-1.186456564474786,-0.137,-1.235907748405461
-0.136,-0.2018001262349282,-0.136,-0.4004172960250658,-0.136,-0.5892613716330489,-0.136,-0.7576403974614591,-0.136,-0.8936653962471501,-0.136,-0.9935859881090809,-0.136,-1.068688441044127,-0.136,-1.130837028629628,-0.136,-1.185475463457152,-0.136,-1.234851454161372
-0.135,-0.2011121628633997,-0.135,-0.3992541639744688,-0.135,-0.5878774644786012,-0.135,-0.7562496240780191,-0.135,-0.8924471068734087,-0.135,-0.9925058953228942,-0.135,-1.067644017462927,-0.135,-1.129763102909185,-0.135,-1.184343986910238,-0.135,-1.233639729119529
-0.134,-0.2003633673751661,-0.134,-0.3979822979327277,-0.134,-0.5863557346885989,-0.134,-0.7547042433312721,-0.134,-0.8910752254359328,-0.134,-0.9912764888667249,-0.134,-1.066450978580088,-0.134,-1.128537966107589,-0.134,-1.183057198608633,-0.134,-1.232267485606871
-0.133,-0.1995539564111628,-0.133,-0.3966014750967894,-0.133,-0.5846952063452473,-0.133,-0.7530017118881154,-0.133,-0.8895467330192345,-0.133,-0.9898946412741667,-0.133,-1.065106322884025,-0.133,-1.127158635421041,-0.133,-1.181612032354509,-0.133,-1.230731561561468
-0.132,-0.1986848420992648,-0.132,-0.3951127265989612,-0.132,-0.5828962818223558,-0.132,-0.7511529349846937,-0.132,-0.8878604196622214,-0.132,-0.9883589955109897,-0.132,-1.063608812969468,-0.132,-1.125623916764579,-0.132,-1.180007251686215,-0.132,-1.229030677807228
-0.1309999999999999,-0.1977575131874009,-0.1309999999999999,-0.3935181341042532,-0.1309999999999999,-0.5809607259949385,-0.1309999999999999,-0.7491651936733709,-0.1309999999999999,-0.886016667195455,-0.1309999999999999,-0.9866697648533587,-0.1309999999999999,-1.06195877574472,-0.1309999999999999,-1.123934200178827,-0.1309999999999999,-1.178243240647439,-0.1309999999999999,-1.227165223405468
-0.1299999999999999,-0.1967739184222044,-0.1299999999999999,-0.3918206246884056,-0.1299999999999999,-0.578891424000087,-0.1299999999999999,-0.7470377315171874,-0.1299999999999999,-0.884017208085029,-0.1299999999999999,-0.9848285090471054,-0.1299999999999999,-1.060157882050504,-0.1299999999999999,-1.122091235571912,-0.1299999999999999,-1.176321772639807,-0.1299999999999999,-1.225137018840215
-0.1289999999999999,-0.1957363425554642,-0.1289999999999999,-0.3900237496147689,-0.1289999999999999,-0.5766921104673078,-0.1289999999999999,-0.7447709427287115,-0.1289999999999999,-0.8818648380364624,-0.1289999999999999,-0.9828378592670384,-0.1289999999999999,-1.058208874931669,-0.1289999999999999,-1.120097857115079,-0.1289999999999999,-1.174245720312311,-0.1289999999999999,-1.222949026044371
