;Version, 1, 0
;/M37:gm,;/M37/D
;X, Y,;X, Y
;Re, Re,;Re, Re
;vin, S,;vin, I
;xunit, S,;xunit, A
0,5.279116841765712e-11,0,3.380552490298422e-12
0.001,5.459064828253415e-11,0.001,3.434448317775309e-12
0.002,5.645143144648851e-11,0.002,3.490181261965806e-12
0.003,5.837560453235454e-11,0.003,3.547813907459073e-12
0.004,6.036532509349416e-11,0.004,3.607410969033199e-12
0.005,6.242282402005637e-11,0.005,3.669039364059768e-12
0.006,6.45504080267567e-11,0.006,3.732768287372695e-12
0.007,6.675046222472809e-11,0.007,3.798669288673096e-12
0.008,6.902545278045125e-11,0.008,3.866816352566655e-12
0.009000000000000001,7.137792966429287e-11,0.009000000000000001,3.937285981298425e-12
0.01,7.381052949210401e-11,0.01,4.010157280302409e-12
0.011,7.632597846300787e-11,0.011,4.085512046661098e-12
0.012,7.892709539619031e-11,0.012,4.163434860548012e-12
0.013,8.161679487041244e-11,0.013,4.244013179777479e-12
0.01400000000000001,8.43980904696921e-11,0.01400000000000001,4.327337437566311e-12
0.01500000000000001,8.727409813827583e-11,0.01500000000000001,4.413501143589122e-12
0.01600000000000001,9.024803964912634e-11,0.01600000000000001,4.502600988471735e-12
0.01700000000000001,9.332324618981839e-11,0.01700000000000001,4.594736951843587e-12
0.01800000000000001,9.650316206863059e-11,0.01800000000000001,4.690012414000128e-12
0.01900000000000001,9.97913485465902e-11,0.01900000000000001,4.788534271400277e-12
0.02000000000000001,1.031914877983925e-10,0.02000000000000001,4.890413056050176e-12
0.02100000000000001,1.067073870067048e-10,0.02100000000000001,4.995763058915598e-12
0.02200000000000001,1.103429825953663e-10,0.02200000000000001,5.104702457561157e-12
0.02300000000000001,1.141023446045049e-10,0.02300000000000001,5.217353448060722e-12
0.02400000000000001,1.179896812136875e-10,0.02400000000000001,5.333842381404775e-12
0.02500000000000002,1.220093434171313e-10,0.02500000000000002,5.45429990450033e-12
0.02600000000000002,1.261658298568963e-10,0.02600000000000002,5.578861105967808e-12
0.02700000000000002,1.30463791818731e-10,0.02700000000000002,5.707665666859539e-12
0.02800000000000002,1.3490803839625e-10,0.02800000000000002,5.840858016479718e-12
0.02900000000000002,1.395035418286819e-10,0.02900000000000002,5.978587493453981e-12
0.03000000000000002,1.44255443019449e-10,0.03000000000000002,6.121008512312859e-12
0.03100000000000002,1.491690572387143e-10,0.03100000000000002,6.26828073559995e-12
0.03200000000000002,1.542498800198695e-10,0.03200000000000002,6.420569251920298e-12
0.03300000000000002,1.595035932530103e-10,0.03300000000000002,6.578044759922872e-12
0.03400000000000002,1.649360714838491e-10,0.03400000000000002,6.740883758528961e-12
0.03500000000000002,1.705533884246235e-10,0.03500000000000002,6.909268743598586e-12
0.03600000000000003,1.763618236840602e-10,0.03600000000000003,7.083388411250358e-12
0.03700000000000003,1.823678697225102e-10,0.03700000000000003,7.263437867987013e-12
0.03800000000000003,1.885782390426668e-10,0.03800000000000003,7.449618848029453e-12
0.03900000000000003,1.949998716201112e-10,0.03900000000000003,7.642139937884864e-12
0.04000000000000003,2.016399425846126e-10,0.04000000000000003,7.841216808568208e-12
0.04100000000000003,2.085058701587873e-10,0.04100000000000003,8.047072455629037e-12
0.04200000000000003,2.156053238631709e-10,0.04200000000000003,8.259937447274905e-12
0.04300000000000003,2.229462329975832e-10,0.04300000000000003,8.480050180923859e-12
0.04400000000000003,2.305367954058639e-10,0.04400000000000003,8.70765714834206e-12
0.04500000000000003,2.383854865354446e-10,0.04500000000000003,8.94301320977695e-12
0.04600000000000003,2.465010688001029e-10,0.04600000000000003,9.186381877300593e-12
0.04700000000000003,2.548926012577577e-10,0.04700000000000003,9.438035607779073e-12
0.04800000000000004,2.635694496103766e-10,0.04800000000000004,9.698256105586929e-12
0.04900000000000004,2.725412965416387e-10,0.04900000000000004,9.967334635690591e-12
0.05000000000000004,2.818181523988652e-10,0.05000000000000004,1.024557234716616e-11
0.05100000000000004,2.91410366232956e-10,0.05100000000000004,1.053328060764053e-11
0.05200000000000004,3.013286372085951e-10,0.05200000000000004,1.083078134904514e-11
0.05300000000000004,3.115840263956085e-10,0.05300000000000004,1.113840742497808e-11
0.05400000000000004,3.221879689545479e-10,0.05400000000000004,1.145650298008995e-11
0.05500000000000004,3.331522867304822e-10,0.05500000000000004,1.178542383195178e-11
0.05600000000000004,3.444892012667509e-10,0.05600000000000004,1.212553786571734e-11
0.05700000000000004,3.562113472546372e-10,0.05700000000000004,1.247722544213196e-11
0.05800000000000004,3.683317864311382e-10,0.05800000000000004,1.284087981920005e-11
0.05900000000000005,3.808640219417548e-10,0.05900000000000005,1.321690758809519e-11
0.06000000000000005,3.938220131822705e-10,0.06000000000000005,1.360572912370528e-11
0.06100000000000005,4.072201911353646e-10,0.06100000000000005,1.400777905030407e-11
0.06200000000000005,4.210734742192375e-10,0.06200000000000005,1.442350672290569e-11
0.06300000000000004,4.353972846644326e-10,0.06300000000000004,1.48533767247837e-11
0.06400000000000004,4.502075654361463e-10,0.06400000000000004,1.52978693816879e-11
0.06500000000000004,4.655207977207205e-10,0.06500000000000004,1.575748129335981e-11
0.06600000000000004,4.813540189943169e-10,0.06600000000000004,1.623272588288948e-11
0.06700000000000005,4.977248416922703e-10,0.06700000000000005,1.672413396446989e-11
0.06800000000000005,5.146514725003155e-10,0.06800000000000005,1.723225433024894e-11
0.06900000000000005,5.321527322873387e-10,0.06900000000000005,1.775765435686877e-11
0.07000000000000005,5.50248076699853e-10,0.07000000000000005,1.830092063229668e-11
0.07100000000000005,5.689576174421638e-10,0.07100000000000005,1.886265960375842e-11
0.07200000000000005,5.883021442614506e-10,0.07200000000000005,1.944349824728109e-11
0.07300000000000005,6.083031476646455e-10,0.07300000000000005,2.0044084759792e-11
0.07400000000000005,6.289828423865785e-10,0.07400000000000005,2.066508927425357e-11
0.07500000000000005,6.503641916394151e-10,0.07500000000000005,2.130720459892792e-11
0.07600000000000005,6.724709321625398e-10,0.07600000000000005,2.197114698118823e-11
0.07700000000000005,6.953276001052004e-10,0.07700000000000005,2.265765689706351e-11
0.07800000000000006,7.189595577645765e-10,0.07800000000000006,2.336749986709857e-11
0.07900000000000006,7.433930212087778e-10,0.07900000000000006,2.410146729949936e-11
0.08000000000000006,7.686550888145408e-10,0.08000000000000006,2.486037736152398e-11
0.08100000000000006,7.947737707479954e-10,0.08100000000000006,2.564507587997067e-11
0.08200000000000006,8.217780194182878e-10,0.08200000000000006,2.645643727167233e-11
0.08300000000000006,8.496977609392762e-10,0.08300000000000006,2.729536550520788e-11
0.08400000000000006,8.78563927627184e-10,0.08400000000000006,2.816279509456983e-11
0.08500000000000006,9.084084915723616e-10,0.08500000000000006,2.905969212611916e-11
0.08600000000000006,9.392644993163688e-10,0.08600000000000006,2.998705531970897e-11
0.08700000000000006,9.71166107672033e-10,0.08700000000000006,3.094591712521802e-11
0.08800000000000006,1.004148620723298e-09,0.08800000000000006,3.193734485565184e-11
0.08900000000000007,1.038248528041781e-09,0.08900000000000007,3.296244185794493e-11
0.09000000000000007,1.073503544161871e-09,0.09000000000000007,3.402234872285892e-11
0.09100000000000007,1.10995264935069e-09,0.09100000000000007,3.511824453500693e-11
0.09200000000000007,1.147636131720034e-09,0.09200000000000007,3.625134816464982e-11
0.09300000000000007,1.186595630717021e-09,0.09300000000000007,3.742291960224722e-11
0.09400000000000007,1.226874182045721e-09,0.09400000000000007,3.863426133764827e-11
0.09500000000000007,1.268516264057229e-09,0.09500000000000007,3.988671978487357e-11
0.09600000000000007,1.311567845661179e-09,0.09600000000000007,4.118168675434108e-11
0.09700000000000007,1.356076435805354e-09,0.09700000000000007,4.252060097396306e-11
0.09800000000000007,1.402091134574151e-09,0.09800000000000007,4.390494966075019e-11
0.09900000000000007,1.449662685955048e-09,0.09900000000000007,4.533627014441815e-11
0.1000000000000001,1.498843532332501e-09,0.1000000000000001,4.681615154506955e-11
0.1010000000000001,1.549687870755813e-09,0.1010000000000001,4.834623650620188e-11
0.1020000000000001,1.602251711044899e-09,0.1020000000000001,4.99282229852968e-11
0.1030000000000001,1.656592935788881e-09,0.1030000000000001,5.156386610365448e-11
0.1040000000000001,1.712771362296287e-09,0.1040000000000001,5.325498005732276e-11
0.1050000000000001,1.770848806564559e-09,0.1050000000000001,5.500344009145897e-11
0.1060000000000001,1.830889149325122e-09,0.1060000000000001,5.681118453972246e-11
0.1070000000000001,1.892958404235168e-09,0.1070000000000001,5.868021693114179e-11
0.1080000000000001,1.95712478828134e-09,0.1080000000000001,6.061260816648778e-11
0.1090000000000001,2.023458794469236e-09,0.1090000000000001,6.261049876665747e-11
0.1100000000000001,2.092033266862069e-09,0.1100000000000001,6.467610119487792e-11
0.1110000000000001,2.162923478053173e-09,0.1110000000000001,6.681170225577231e-11
0.1120000000000001,2.236207209139989e-09,0.1120000000000001,6.901966557324139e-11
0.1130000000000001,2.311964832283327e-09,0.1130000000000001,7.130243415002908e-11
0.1140000000000001,2.39027939593102e-09,0.1140000000000001,7.366253301149986e-11
0.1150000000000001,2.471236712787381e-09,0.1150000000000001,7.610257193622618e-11
0.1160000000000001,2.55492545061861e-09,0.1160000000000001,7.862524827645401e-11
0.1170000000000001,2.641437225980369e-09,0.1170000000000001,8.123334987120481e-11
0.1180000000000001,2.730866700953506e-09,0.1180000000000001,8.392975805469487e-11
0.1190000000000001,2.823311682992857e-09,0.1190000000000001,8.671745076383007e-11
0.1200000000000001,2.918873227973238e-09,0.1200000000000001,8.959950574719841e-11
0.1210000000000001,3.017655746540747e-09,0.1210000000000001,9.257910387937219e-11
0.1220000000000001,3.119767113866156e-09,0.1220000000000001,9.565953258356276e-11
0.1230000000000001,3.22531878290725e-09,0.1230000000000001,9.884418936621019e-11
0.1240000000000001,3.334425901291141e-09,0.1240000000000001,1.021365854672661e-10
0.1250000000000001,3.447207431919324e-09,0.1250000000000001,1.05540349629345e-10
0.1260000000000001,3.563786277420131e-09,0.1260000000000001,1.090592319901667e-10
0.1270000000000001,3.68428940855958e-09,0.1270000000000001,1.126971081018063e-10
0.1280000000000001,3.808847996733645e-09,0.1280000000000001,1.164579830809044e-10
0.1290000000000001,3.937597550664694e-09,0.1290000000000001,1.203459958938999e-10
0.1300000000000001,4.070678057434764e-09,0.1300000000000001,1.243654237818475e-10
0.1310000000000001,4.208234127981224e-09,0.1310000000000001,1.285206868288771e-10
0.1320000000000001,4.350415147194308e-09,0.1320000000000001,1.328163526790912e-10
0.1330000000000001,4.497375428753816e-09,0.1330000000000001,1.372571414064846e-10
0.1340000000000001,4.649274374850888e-09,0.1340000000000001,1.418479305428887e-10
0.1350000000000001,4.806276640934232e-09,0.1350000000000001,1.465937602684575e-10
0.1360000000000001,4.968552305641278e-09,0.1360000000000001,1.514998387703924e-10
0.1370000000000001,5.136277046066357e-09,0.1370000000000001,1.565715477749939e-10
0.1380000000000001,5.309632318518232e-09,0.1380000000000001,1.618144482580482e-10
0.1390000000000001,5.48880554494423e-09,0.1390000000000001,1.67234286339954e-10
0.1400000000000001,5.673990305175017e-09,0.1400000000000001,1.728369993704986e-10
0.1410000000000001,5.865386535174662e-09,0.1410000000000001,1.786287222099331e-10
0.1420000000000001,6.063200731467674e-09,0.1420000000000001,1.846157937121056e-10
0.1430000000000001,6.267646161922172e-09,0.1430000000000001,1.90804763415758e-10
0.1440000000000001,6.478943083084696e-09,0.1440000000000001,1.972023984509745e-10
0.1450000000000001,6.697318964254892e-09,0.1450000000000001,2.038156906672188e-10
0.1460000000000001,6.923008718489783e-09,0.1460000000000001,2.106518639893644e-10
0.1470000000000001,7.156254940756611e-09,0.1470000000000001,2.177183820098088e-10
0.1480000000000001,7.397308153423481e-09,0.1480000000000001,2.250229558228053e-10
0.1490000000000001,7.646427059312891e-09,0.1490000000000001,2.325735521092509e-10
0.1500000000000001,7.903878802536081e-09,0.1500000000000001,2.403784014795735e-10
0.1510000000000001,8.16993923732183e-09,0.1510000000000001,2.484460070820204e-10
0.1520000000000001,8.444893205085741e-09,0.1520000000000001,2.567851534854712e-10
0.1530000000000001,8.729034819958531e-09,0.1530000000000001,2.654049158441229e-10
0.1540000000000001,9.022667763031331e-09,0.1540000000000001,2.743146693536708e-10
0.1550000000000001,9.326105585549199e-09,0.1550000000000001,2.835240990068535e-10
0.1560000000000001,9.639672021322174e-09,0.1560000000000001,2.930432096584346e-10
0.1570000000000001,9.963701308600569e-09,0.1570000000000001,3.028823364081853e-10
0.1580000000000001,1.02985385216907e-08,0.1580000000000001,3.130521553121245e-10
0.1590000000000001,1.064453991257784e-08,0.1590000000000001,3.235636944315492e-10
0.1600000000000001,1.100207326283753e-08,0.1600000000000001,3.344283452301634e-10
0.1610000000000001,1.137151824612147e-08,0.1610000000000001,3.456578743297988e-10
0.1620000000000001,1.175326680151148e-08,0.1620000000000001,3.572644356355243e-10
0.1630000000000001,1.214772351803632e-08,0.1630000000000001,3.692605828409254e-10
0.1640000000000001,1.255530603066995e-08,0.1640000000000001,3.816592823256464e-10
0.1650000000000001,1.297644542810261e-08,0.1650000000000001,3.944739264555153e-10
0.1660000000000001,1.341158667263594e-08,0.1660000000000001,4.077183472991155e-10
0.1670000000000001,1.386118903249898e-08,0.1670000000000001,4.214068307712173e-10
0.1680000000000001,1.432572652694479e-08,0.1680000000000001,4.355541312172145e-10
0.1690000000000001,1.480568838445148e-08,0.1690000000000001,4.501754864504246e-10
0.1700000000000001,1.530157951439589e-08,0.1700000000000001,4.652866332566683e-10
0.1710000000000001,1.581392099254053e-08,0.1710000000000001,4.809038233788136e-10
0.1720000000000001,1.634325056071174e-08,0.1720000000000001,4.970438399960883e-10
0.1730000000000001,1.689012314103212e-08,0.1730000000000001,5.137240147120071e-10
0.1740000000000001,1.745511136509795e-08,0.1740000000000001,5.309622450663065e-10
0.1750000000000001,1.803880611848424e-08,0.1750000000000001,5.4877701258574e-10
0.1760000000000001,1.864181710096957e-08,0.1760000000000001,5.671874013890424e-10
0.1770000000000001,1.926477340289865e-08,0.1770000000000001,5.862131173629166e-10
0.1780000000000001,1.990832409807714e-08,0.1780000000000001,6.058745079243081e-10
0.1790000000000001,2.057313885363378e-08,0.1790000000000001,6.261925823867569e-10
0.1800000000000001,2.125990855727599e-08,0.1800000000000001,6.471890329478999e-10
0.1810000000000001,2.196934596235555e-08,0.1810000000000001,6.688862563146098e-10
0.1820000000000001,2.270218635122715e-08,0.1820000000000001,6.91307375986285e-10
0.1830000000000001,2.345918821730683e-08,0.1830000000000001,7.144762652120505e-10
0.1840000000000001,2.424113396633042e-08,0.1840000000000001,7.384175706433816e-10
0.1850000000000001,2.504883063724935e-08,0.1850000000000001,7.631567366997403e-10
0.1860000000000001,2.588311064326013e-08,0.1860000000000001,7.887200306684509e-10
0.1870000000000001,2.67448325334433e-08,0.1870000000000001,8.151345685587512e-10
0.1880000000000001,2.763488177549884e-08,0.1880000000000001,8.424283417307025e-10
0.1890000000000001,2.855417156009349e-08,0.1890000000000001,8.706302443213474e-10
0.1900000000000001,2.950364362729853e-08,0.1900000000000001,8.997701014883317e-10
0.1910000000000001,3.048426911567094e-08,0.1910000000000001,9.298786984958053e-10
0.1920000000000001,3.149704943445998e-08,0.1920000000000001,9.609878106631083e-10
0.1930000000000001,3.254301715950441e-08,0.1930000000000001,9.931302342019889e-10
0.1940000000000001,3.362323695332091e-08,0.1940000000000001,1.026339817964153e-09
0.1950000000000001,3.473880650996349e-08,0.1950000000000001,1.060651496126019e-09
0.1960000000000001,3.589085752517009e-08,0.1960000000000001,1.09610132183368e-09
0.1970000000000001,3.70805566923847e-08,0.1970000000000001,1.132726501835763e-09
0.1980000000000001,3.830910672518573e-08,0.1980000000000001,1.170565432128397e-09
0.1990000000000001,3.957774740671147e-08,0.1990000000000001,1.209657734640517e-09
0.2000000000000001,4.088775666665903e-08,0.2000000000000001,1.250044294986941e-09
0.2010000000000002,4.224045168641519e-08,0.2010000000000002,1.291767301315869e-09
0.2020000000000002,4.36371900329303e-08,0.2020000000000002,1.334870284280968e-09
0.2030000000000002,4.507937082190337e-08,0.2030000000000002,1.379398158165765e-09
0.2040000000000002,4.65684359108906e-08,0.2040000000000002,1.425397263191245e-09
0.2050000000000002,4.810587112292401e-08,0.2050000000000002,1.472915409036171e-09
0.2060000000000002,4.969320750124868e-08,0.2060000000000002,1.522001919601506e-09
0.2070000000000002,5.133202259578322e-08,0.2070000000000002,1.572707679050375e-09
0.2080000000000002,5.302394178191009e-08,0.2080000000000002,1.625085179155673e-09
0.2090000000000002,5.477063961219848e-08,0.2090000000000002,1.679188567987503e-09
0.2100000000000002,5.657384120169977e-08,0.2100000000000002,1.735073699975689e-09
0.2110000000000002,5.843532364739012e-08,0.2110000000000002,1.792798187378835e-09
0.2120000000000002,6.035691748239739e-08,0.2120000000000002,1.852421453196054e-09
0.2130000000000002,6.234050816563548e-08,0.2130000000000002,1.914004785557195e-09
0.2140000000000002,6.438803760742406e-08,0.2140000000000002,1.977611393625183e-09
0.2150000000000002,6.650150573173612e-08,0.2150000000000002,2.043306465048945e-09
0.2160000000000002,6.868297207567769e-08,0.2160000000000002,2.111157225003642e-09
0.2170000000000002,7.093455742678991e-08,0.2170000000000002,2.181232996854947e-09
0.2180000000000002,7.325844549878645e-08,0.2180000000000002,2.253605264486295e-09
0.2190000000000002,7.565688464633028e-08,0.2190000000000002,2.328347736328433e-09
0.2200000000000002,7.813218961942053e-08,0.2200000000000002,2.405536411129456e-09
0.2210000000000002,8.068674335800613e-08,0.2210000000000002,2.485249645507339e-09
0.2220000000000002,8.332299882736544e-08,0.2220000000000002,2.567568223323233e-09
0.2230000000000002,8.604348089484889e-08,0.2230000000000002,2.652575426918522e-09
0.2240000000000002,8.885078824854777e-08,0.2240000000000002,2.740357110257678e-09
0.2250000000000002,9.174759535840209e-08,0.2250000000000002,2.831001774016939e-09
0.2260000000000002,9.47366544803327e-08,0.2260000000000002,2.92460064266487e-09
0.2270000000000002,9.782079770387446e-08,0.2270000000000002,3.021247743575152e-09
0.2280000000000002,1.01002939043869e-07,0.2280000000000002,3.121039988218726e-09
0.2290000000000002,1.042860765766541e-07,0.2290000000000002,3.224077255476033e-09
0.2300000000000002,1.076732946212867e-07,0.2300000000000002,3.330462477118195e-09
0.2310000000000002,1.111677659662135e-07,0.2310000000000002,3.440301725499537e-09
0.2320000000000002,1.147727541418525e-07,0.2320000000000002,3.553704303508904e-09
0.2330000000000002,1.184916157394877e-07,0.2330000000000002,3.670782836825015e-09
0.2340000000000002,1.22327802776903e-07,0.2340000000000002,3.791653368524379e-09
0.2350000000000002,1.262848651110734e-07,0.2350000000000002,3.916435456085451e-09
0.2360000000000002,1.303664528983448e-07,0.2360000000000002,4.045252270841913e-09
0.2370000000000002,1.345763191023111e-07,0.2370000000000002,4.178230699925527e-09
0.2380000000000002,1.389183220497964e-07,0.2380000000000002,4.315501450754456e-09
0.2390000000000002,1.433964280351122e-07,0.2390000000000002,4.457199158109274e-09
0.2400000000000002,1.480147139728737e-07,0.2400000000000002,4.603462493848935e-09
0.2410000000000002,1.527773700995321e-07,0.2410000000000002,4.754434279313091e-09
0.2420000000000002,1.576887027238217e-07,0.2420000000000002,4.910261600462153e-09
0.2430000000000002,1.627531370262211e-07,0.2430000000000002,5.071095925802861e-09
0.2440000000000002,1.679752199074973e-07,0.2440000000000002,5.237093227147445e-09
