;Version, 1, 0
;inTran,;outTran
;X, Y,;X, Y
;Re, Re,;Re, Re
;time, V,;time, V
;s, V,;s, V
0,0,0,9.484599786113712e-09
3.042061548276262e-14,0.0009556912392645334,3.042061548276262e-14,0.0004662242586551124
5.712401760894935e-14,0.001794600087502429,5.712401760894935e-14,0.0008671274986143951
1.047115915959047e-13,0.003289587936631699,1.047115915959047e-13,0.001573452460299038
1.420033340420075e-13,0.004461107119582808,1.420033340420075e-13,0.002121588656369605
2.087430722258549e-13,0.006557669007644762,2.087430722258549e-13,0.003091640237723126
2.617841916986337e-13,0.008223822097939371,2.617841916986337e-13,0.003849443549843387
3.148430121826932e-13,0.009890439833651676,3.148430121826932e-13,0.004591958094183682
3.746043786495231e-13,0.01176745705174675,3.746043786495231e-13,0.005405719368759956
4.425823318604685e-13,0.01390234208249042,4.425823318604685e-13,0.006299255661356779
5.239950766804067e-13,0.01645881700209451,5.239950766804067e-13,0.007322855557078706
6.246205092254673e-13,0.01961799501113326,6.246205092254673e-13,0.008519332056752926
7.553199389252237e-13,0.02372016931025489,7.553199389252237e-13,0.009967783119733287
8.978930788178333e-13,0.02819318191531517,8.978930788178333e-13,0.01142559610614539
1.047787153336605e-12,0.0328934312639857,1.047787153336605e-12,0.01283845502315467
1.210426238214537e-12,0.0379900139906324,1.210426238214537e-12,0.0142535434729812
1.390195434719378e-12,0.04361876138102372,1.390195434719378e-12,0.01569914562887023
1.59273944108e-12,0.04995390668500388,1.59273944108e-12,0.01720694864952128
1.823747883632103e-12,0.05716942475549702,1.823747883632103e-12,0.01880307036329369
2.088193556292487e-12,0.06541447520155863,2.088193556292487e-12,0.02050629519117357
2.387919762016702e-12,0.07473756788807151,2.387919762016702e-12,0.02231805447321331
2.722754110313497e-12,0.0851212154622154,2.722754110313497e-12,0.02423492059368633
3.100861211049977e-12,0.09680127801671268,3.100861211049977e-12,0.02630529203623688
3.533993678939773e-12,0.1101135945097791,3.533993678939773e-12,0.02859441352965821
4.039139947381448e-12,0.1255355533830802,4.039139947381448e-12,0.03119065202358956
4.641659901430823e-12,0.1437636399557216,4.641659901430823e-12,0.0342179642327784
5.380456956351277e-12,0.1658306858185552,5.380456956351277e-12,0.03785472454455586
6.319140823857676e-12,0.1933466843489249,6.319140823857676e-12,0.04237213631160786
6.936260050587933e-12,0.2110760727962451,6.936260050587933e-12,0.04527485740330545
7.606920032463888e-12,0.2299829887652511,7.606920032463888e-12,0.04836577656215299
8.245284413730882e-12,0.247600640352712,8.245284413730882e-12,0.05124153390120435
8.901567526408424e-12,0.2652973350163528,8.901567526408424e-12,0.05412458732770087
9.559617665416724e-12,0.2825887893241981,9.559617665416724e-12,0.05693421650562691
1.02266083521306e-11,0.2996221241293247,1.02266083521306e-11,0.05969248097534396
1.089955538948582e-11,0.3162742626896107,1.089955538948582e-11,0.06237752970623175
1.157940333034955e-11,0.3325229837396564,1.157940333034955e-11,0.06498394443469804
1.226545087896638e-11,0.3483048154192956,1.226545087896638e-11,0.06749973523032818
1.295764134031319e-11,0.3635720720379048,1.295764134031319e-11,0.06991553771482517
1.365564633469217e-11,0.3782712137858377,1.365564633469217e-11,0.07222114368963875
1.435925224874319e-11,0.3923519888065399,1.435925224874319e-11,0.07440696445061765
1.506990655407713e-11,0.4057954727157302,1.506990655407713e-11,0.07646829459653068
1.578786272405658e-11,0.4185555560469412,1.578786272405658e-11,0.07839617732556867
1.651412348321306e-11,0.4305967068691476,1.651412348321306e-11,0.08018323411627859
1.724955183089872e-11,0.4418762265822846,1.724955183089872e-11,0.08182091706289504
1.799522531072983e-11,0.4523496384331509,1.799522531072983e-11,0.08330029711551351
1.875231022728083e-11,0.46196753576053,1.875231022728083e-11,0.08461156408414808
1.952214759447396e-11,0.4706756184114613,1.952214759447396e-11,0.08574399036475416
2.030626532250544e-11,0.4784132736266198,2.030626532250544e-11,0.08668567376744565
2.11064362547749e-11,0.4851123123644365,2.11064362547749e-11,0.08742328543578354
2.192473886909226e-11,0.490695091632732,2.192473886909226e-11,0.08794170892940559
2.276364769714492e-11,0.4950720589688222,2.276364769714492e-11,0.0882235631823784
2.362615737502191e-11,0.4981383243023563,2.362615737502191e-11,0.08824853828996002
2.451596348924877e-11,0.4997687815351259,2.451596348924877e-11,0.08799244851293683
2.543773270294171e-11,0.499810900510534,2.543773270294171e-11,0.08742583191145778
2.639752534597347e-11,0.4980736284146805,2.639752534597347e-11,0.0865117904749719
2.740349057484713e-11,0.4943093867958499,2.740349057484713e-11,0.08520248052816559
2.831499971399685e-11,0.4891932262565386,2.831499971399685e-11,0.08371010994183992
2.939062648372797e-11,0.4810941306219298,2.939062648372797e-11,0.08158197702541725
3.037430439433903e-11,0.4717633223223117,3.037430439433903e-11,0.07929652901623963
3.146382499819125e-11,0.4593274742520312,3.146382499819125e-11,0.07639855148860145
3.245956270901924e-11,0.4460785616854976,3.245956270901924e-11,0.07342562654329965
3.357583426407825e-11,0.4291533905231901,3.357583426407825e-11,0.06974052635690731
3.459186702303815e-11,0.4119111851020625,3.459186702303815e-11,0.0660796416647316
3.557179148772825e-11,0.3936911433316606,3.557179148772825e-11,0.06228842042221241
3.674271657926683e-11,0.3699695043941145,3.674271657926683e-11,0.05744471146199459
3.780169888692756e-11,0.3467882065202634,3.780169888692756e-11,0.05279515549223111
3.88276148997585e-11,0.3228660388992979,3.88276148997585e-11,0.04807103835620488
3.98917673828359e-11,0.2966366514571481,3.98917673828359e-11,0.04296664749033471
4.098306014750282e-11,0.2683625810656773,4.098306014750282e-11,0.03754410548484186
4.210269698218048e-11,0.2380445955325137,4.210269698218048e-11,0.03181510183465791
4.325772548869613e-11,0.2055359544103741,4.325772548869613e-11,0.02576580128928323
4.435339996757668e-11,0.1736950115616702,4.435339996757668e-11,0.01993317452007995
4.53776616701456e-11,0.1431821614223545,4.53776616701456e-11,0.01442953248442025
4.634663606032343e-11,0.113768519564925,4.634663606032343e-11,0.009204142909726293
4.733335205095953e-11,0.0833837935611963,4.733335205095953e-11,0.003889900792665907
4.829286874550915e-11,0.0535283299241418,4.829286874550915e-11,-0.001245691798061041
4.924007633152268e-11,0.02386463590202004,4.924007633152268e-11,-0.006259526173127875
5.017069865834932e-11,-0.00536255369791605,5.017069865834932e-11,-0.01110801533718504
5.108879999818809e-11,-0.03417898596189106,5.108879999818809e-11,-0.01579361904030493
5.199504288228202e-11,-0.06251210929578854,5.199504288228202e-11,-0.02030240099210303
5.289119111023055e-11,-0.09033070988061032,5.289119111023055e-11,-0.02462728462508815
5.377838134793159e-11,-0.1175894865148244,5.377838134793159e-11,-0.02875911011118105
5.465789296699857e-11,-0.1442520068159934,5.465789296699857e-11,-0.03269036793064858
5.553090916307655e-11,-0.1702822730047058,5.553090916307655e-11,-0.03641395364198013
5.639867260561115e-11,-0.1956484578510685,5.639867260561115e-11,-0.03992379546632985
5.726247847131725e-11,-0.22032156451045,5.726247847131725e-11,-0.04321471001127615
5.812373499267167e-11,-0.244275945783792,5.812373499267167e-11,-0.04628252233545047
5.898619064971383e-11,-0.2675469989188228,5.898619064971383e-11,-0.04913100039610849
5.985208485025558e-11,-0.2901205737803714,5.985208485025558e-11,-0.05175751956905805
6.072494267642025e-11,-0.3120065869049924,6.072494267642025e-11,-0.05416240589681996
6.160849679564737e-11,-0.3332050038332924,6.160849679564737e-11,-0.05634470185162509
6.250733351677944e-11,-0.3537162628377315,6.250733351677944e-11,-0.0583033284905984
6.342695160798919e-11,-0.3735339563973827,6.342695160798919e-11,-0.06003621121157836
6.437418842338246e-11,-0.3926426802434644,6.437418842338246e-11,-0.06153997951585736
6.535768640542633e-11,-0.4110107620430083,6.535768640542633e-11,-0.06280918369905257
6.638863365722648e-11,-0.428579520545983,6.638863365722648e-11,-0.06383526032032676
6.731701706468259e-11,-0.4428640755702391,6.731701706468259e-11,-0.06450773154839573
6.849770945132036e-11,-0.4588487294431141,6.849770945132036e-11,-0.06504858212946549
6.955631790758591e-11,-0.4710367599168248,6.955631790758591e-11,-0.06526011242841777
7.060745442396643e-11,-0.4810777049978443,7.060745442396643e-11,-0.06524202545356578
7.17561227424672e-11,-0.4896503755458188,7.17561227424672e-11,-0.06499306696117002
7.299990368565135e-11,-0.4960569714142933,7.299990368565135e-11,-0.06448583604687563
7.433349632044988e-11,-0.4995616294429659,7.433349632044988e-11,-0.06369874145466725
7.574732195850521e-11,-0.499448893624749,7.574732195850521e-11,-0.06261380831307854
7.723587395593593e-11,-0.4950741634096709,7.723587395593593e-11,-0.06120370625123046
7.878199106946003e-11,-0.4859493588012533,7.878199106946003e-11,-0.05944026836828695
8.03483998290712e-11,-0.4720323117976351,8.03483998290712e-11,-0.05731648564983851
8.188606799897358e-11,-0.4539259043454998,8.188606799897358e-11,-0.05486261375984869
8.335319772808952e-11,-0.432700335517513,8.335319772808952e-11,-0.05213892806842062
8.472963662547447e-11,-0.4094423743461129,8.472963662547447e-11,-0.04920727804761403
8.601626822478974e-11,-0.3849306446670804,8.601626822478974e-11,-0.04610837144591642
8.722570145689387e-11,-0.3595939630673892,8.722570145689387e-11,-0.04285860713699224
8.837405437565335e-11,-0.3336135119265651,8.837405437565335e-11,-0.03945764467460156
8.947678722372772e-11,-0.3070294219075134,8.947678722372772e-11,-0.03589631819953035
9.054734598028864e-11,-0.2798102327814954,9.054734598028864e-11,-0.03216166987839294
9.159710174429355e-11,-0.2518902580687992,9.159710174429355e-11,-0.02823947872656007
9.263578236978234e-11,-0.2231862426861088,9.263578236978234e-11,-0.024115097791135
9.367205280628383e-11,-0.1936017931474608,9.367205280628383e-11,-0.01977320273512941
9.471410868680025e-11,-0.1630250632975194,9.471410868680025e-11,-0.01519688196467309
9.577025092255463e-11,-0.1313227654731639,9.577025092255463e-11,-0.01036633483625919
9.68494769391346e-11,-0.09833145889601735,9.68494769391346e-11,-0.005257237739178661
9.796219269164694e-11,-0.06384482470504915,9.796219269164694e-11,0.0001614588543561724
9.910770501800283e-11,-0.02801759058054487,9.910770501800283e-11,0.005862851819008363
1.002002641511125e-10,0.00629131783753456,1.002002641511125e-10,0.0113793127511798
1.012296258713105e-10,0.03859141689274148,1.012296258713105e-10,0.01661395661001791
1.022100979979802e-10,0.06920934341886076,1.022100979979802e-10,0.02160577175622254
1.032094106565983e-10,0.1001446615379935,1.032094106565983e-10,0.02667280391974952
1.041718417353191e-10,0.1295665555192271,1.041718417353191e-10,0.03150749821822067
1.051177857113916e-10,0.158023473215577,1.051177857113916e-10,0.03619237395071502
1.0604315581232e-10,0.1853221703393944,1.0604315581232e-10,0.040689573427454
1.069547415479042e-10,0.2116022708903289,1.069547415479042e-10,0.04501701676201715
1.078544473211589e-10,0.236859756578188,1.078544473211589e-10,0.04916969779939678
1.087455611485019e-10,0.2611303709884851,1.087455611485019e-10,0.05314969613085735
1.096303046686052e-10,0.284418003504282,1.096303046686052e-10,0.05695425786136701
1.105109551010091e-10,0.306725397628693,1.105109551010091e-10,0.06058074814277506
1.113894915396015e-10,0.3280438030486541,1.113894915396015e-10,0.0640248794743635
1.122678241369758e-10,0.3483583032820379,1.122678241369758e-10,0.06728152093296622
1.131477729886278e-10,0.3676465161893214,1.131477729886278e-10,0.07034443513513289
1.140311411437403e-10,0.385879493175477,1.140311411437403e-10,0.07320637753571582
1.149197452959791e-10,0.4030213919110248,1.149197452959791e-10,0.07585900042042498
1.158154634753085e-10,0.4190292603699648,1.158154634753085e-10,0.07829277421130001
1.167202794689684e-10,0.4338523914447259,1.167202794689684e-10,0.08049683710862965
1.176363367764455e-10,0.4474314002564024,1.176363367764455e-10,0.08245879379244767
1.185660026678765e-10,0.4596968645953967,1.185660026678765e-10,0.08416443387485859
1.195119500824607e-10,0.4705674218318654,1.195119500824607e-10,0.08559734712454811
1.204772659239841e-10,0.4799470942484749,1.204772659239841e-10,0.08673839058982899
1.214656004304511e-10,0.4877214952114841,1.214656004304511e-10,0.08756493867401197
1.224813812510426e-10,0.493752329924728,1.224813812510426e-10,0.0880498005854701
1.234047303113436e-10,0.4974904009826249,1.234047303113436e-10,0.08816722051737058
1.244936513368205e-10,0.499746975573943,1.244936513368205e-10,0.08790928433115505
1.254862261890721e-10,0.4997666849999929,1.254862261890721e-10,0.08730075404736454
1.265634102626661e-10,0.4975895595510917,1.265634102626661e-10,0.08624004889982781
1.27555557830977e-10,0.4935681211074667,1.27555557830977e-10,0.08489856720386094
1.286294457570615e-10,0.4870551373662217,1.286294457570615e-10,0.08305912391738615
1.296165667754863e-10,0.4791122935950318,1.296165667754863e-10,0.08102062763071308
1.306994562694717e-10,0.4682809308573872,1.306994562694717e-10,0.07841148443066367
1.316918431753081e-10,0.4564504518080514,1.316918431753081e-10,0.07568903037151134
1.327952169533062e-10,0.4412163230769828,1.327952169533062e-10,0.07230435923948261
1.338032742042222e-10,0.425443211297224,1.338032742042222e-10,0.06889813270699066
1.347761910584038e-10,0.4086011812845913,1.347761910584038e-10,0.06534135208383623
1.35926937715939e-10,0.386715648431091,1.35926937715939e-10,0.06081278574385943
1.369704156983619e-10,0.3651199142191699,1.369704156983619e-10,0.05642758009178417
1.379813831751295e-10,0.3426996667985593,1.379813831751295e-10,0.05194775833928171
1.390259991283333e-10,0.318082224929696,1.390259991283333e-10,0.04710185707704595
1.400928959695008e-10,0.2915265876449624,1.400928959695008e-10,0.04195021654387134
1.411829389231193e-10,0.2630432881576819,1.411829389231193e-10,0.0365043645214569
1.423105191682817e-10,0.232282946384651,1.423105191682817e-10,0.03070970145499104
1.434870103860793e-10,0.1989483971408956,1.434870103860793e-10,0.02452706833534672
1.446288610498661e-10,0.1655544927858359,1.446288610498661e-10,0.01843322538636429
1.457105049352022e-10,0.1331329153352869,1.457105049352022e-10,0.01261283529195333
1.46741148912223e-10,0.1016659196963026,1.46741148912223e-10,0.007055619189069745
1.477260098958515e-10,0.07119668811763047,1.477260098958515e-10,0.001763188267985175
1.487358801862768e-10,0.03967175196741457,1.487358801862768e-10,-0.003617623674951984
1.496632545645668e-10,0.01057838053962734,1.496632545645668e-10,-0.008492386017258775
1.506226330105293e-10,-0.01955560382516142,1.506226330105293e-10,-0.01344416186551217
1.515467180102189e-10,-0.04851512775977951,1.515467180102189e-10,-0.01810294958137533
1.5246047707405e-10,-0.07699063003237727,1.5246047707405e-10,-0.02258099389338348
1.533561259921663e-10,-0.1046561435971081,1.533561259921663e-10,-0.02682611908204531
1.542402852340362e-10,-0.1316421190666555,1.542402852340362e-10,-0.03085835438728819
1.551137682507991e-10,-0.1579037251269884,1.551137682507991e-10,-0.03467039511248379
1.559796557412219e-10,-0.1834678746062332,1.559796557412219e-10,-0.03826557208745863
1.568400504083943e-10,-0.2083322474428895,1.568400504083943e-10,-0.04164279087992991
1.576974848384054e-10,-0.2325055885807851,1.576974848384054e-10,-0.04480243251546857
1.585544481687981e-10,-0.2559915489606515,1.585544481687981e-10,-0.04774411015171594
1.594136938559313e-10,-0.2787950317870452,1.594136938559313e-10,-0.05046755302565353
1.602782529016447e-10,-0.3009194322401361,1.602782529016447e-10,-0.05297224948270442
1.611515993428461e-10,-0.3223671534340273,1.611515993428461e-10,-0.05525749797376664
1.620377990737551e-10,-0.343138231931172,1.620377990737551e-10,-0.05732220861620024
1.629417294035335e-10,-0.3632287247091985,1.629417294035335e-10,-0.05916466720486241
1.638693639644606e-10,-0.3826276516324522,1.638693639644606e-10,-0.0607821402216755
1.648281735702677e-10,-0.4013120692029727,1.648281735702677e-10,-0.06217030589957338
1.658277001568877e-10,-0.4192388721447147,1.658277001568877e-10,-0.06332241834771742
1.668804025141033e-10,-0.4363309096346467,1.668804025141033e-10,-0.06422806036312835
1.678271622799356e-10,-0.4500749738896634,1.678271622799356e-10,-0.06479015966523854
1.690463970271909e-10,-0.465422847177945,1.690463970271909e-10,-0.06519569892022191
1.701384239917258e-10,-0.476854083309813,1.701384239917258e-10,-0.06528354159498787
1.712262029636074e-10,-0.4860098916498365,1.712262029636074e-10,-0.06514236218564938
1.724229624096667e-10,-0.4934597826674845,1.724229624096667e-10,-0.06475580886417494
1.737259078475787e-10,-0.4983987118842712,1.737259078475787e-10,-0.06409219320621024
1.751053012221264e-10,-0.4999890562797104,1.751053012221264e-10,-0.06314221835669157
1.765610647056494e-10,-0.4975967810135358,1.765610647056494e-10,-0.06188134284364595
1.780862607077272e-10,-0.4906286181870512,1.780862607077272e-10,-0.06027658470880935
1.796505358430686e-10,-0.4788059740230961,1.796505358430686e-10,-0.05831029988118792
1.812080050800098e-10,-0.4624430354066041,1.812080050800098e-10,-0.05599553076479126
1.827115589901629e-10,-0.4424466256660305,1.827115589901629e-10,-0.05338132372289318
1.841303873023354e-10,-0.4199549462331391,1.841303873023354e-10,-0.05053285512226834
1.854568357408784e-10,-0.3959071818507284,1.854568357408784e-10,-0.04750197557338535
1.866995658327991e-10,-0.370880034224951,1.866995658327991e-10,-0.04431528197111884
1.878739051067513e-10,-0.3451505079923464,1.878739051067513e-10,-0.04097878497337007
1.889959172966041e-10,-0.3188108118870876,1.889959172966041e-10,-0.03748644844715975
1.900800266501361e-10,-0.2918549606604238,1.900800266501361e-10,-0.03382653384918457
1.911385114745352e-10,-0.2642292333927344,1.911385114745352e-10,-0.02998516433453952
1.921817791391257e-10,-0.23585685749176,1.921817791391257e-10,-0.02594783235602195
1.932189092819525e-10,-0.2066469935616434,1.932189092819525e-10,-0.02169956154363557
1.942582518325814e-10,-0.1764948946018179,1.942582518325814e-10,-0.01722424262382127
1.953080109449113e-10,-0.1452772880661051,1.953080109449113e-10,-0.01250348019510262
1.963768226935721e-10,-0.1128448499603116,1.963768226935721e-10,-0.007515108136482845
1.974743986668325e-10,-0.0790115184453215,1.974743986668325e-10,-0.002231282130887316
1.98612390139232e-10,-0.04353784228375335,1.98612390139232e-10,0.003384317135036341
1.997287467512442e-10,-0.008521259585247076,1.997287467512442e-10,0.008990982502149122
2.007840963746587e-10,0.02462315055593844,2.007840963746587e-10,0.01434531332495757
2.017850698520362e-10,0.05596211982401544,2.017850698520362e-10,0.01944239684385407
2.027407980647086e-10,0.08567975316914,2.027407980647086e-10,0.02430038376393631
2.037239395489566e-10,0.1159264337031709,2.037239395489566e-10,0.02926395344963599
2.046728528873674e-10,0.1447019386270505,2.046728528873674e-10,0.03399797419625643
2.056085419576487e-10,0.1725733492855626,2.056085419576487e-10,0.03858886139909881
2.065256737750132e-10,0.1993139157867625,2.065256737750132e-10,0.04299375219774759
2.074309151251009e-10,0.225059307739327,2.074309151251009e-10,0.04723033833090497
2.083257801523228e-10,0.2497944725306767,2.083257801523228e-10,0.05129211409109367
2.092133973136194e-10,0.2735495828894501,2.092133973136194e-10,0.05518047765633634
2.100958218321853e-10,0.2963226943381916,2.100958218321853e-10,0.05889189600188088
2.109752335596278e-10,0.3181121031827443,2.109752335596278e-10,0.06242313595897925
2.118535379915176e-10,0.3389049481950484,2.118535379915176e-10,0.06576933302138904
2.127326041802031e-10,0.3586826140981916,2.127326041802031e-10,0.06892481703083711
2.136142338680617e-10,0.377419145061038,2.136142338680617e-10,0.07188280701450542
2.145002351189357e-10,0.3950820333699443,2.145002351189357e-10,0.07463549390623445
2.153924518120023e-10,0.4116317341411777,2.153924518120023e-10,0.07717391953386682
2.162928131304513e-10,0.4270213068192157,2.162928131304513e-10,0.07948787365667359
