;Version, 1, 0
;acGain (VCTRL=0.01),;acGain (VCTRL=0.02),;acGain (VCTRL=0.03),;acGain (VCTRL=0.04),;acGain (VCTRL=0.05),;acGain (VCTRL=0.06),;acGain (VCTRL=0.07),;acGain (VCTRL=0.08),;acGain (VCTRL=0.09),;acGain (VCTRL=0.1)
;X, Y, Y,;X, Y, Y,;X, Y, Y,;X, Y, Y,;X, Y, Y,;X, Y, Y,;X, Y, Y,;X, Y, Y,;X, Y, Y,;X, Y, Y
;Re, ComplexRe, ComplexIm,;Re, ComplexRe, ComplexIm,;Re, ComplexRe, ComplexIm,;Re, ComplexRe, ComplexIm,;Re, ComplexRe, ComplexIm,;Re, ComplexRe, ComplexIm,;Re, ComplexRe, ComplexIm,;Re, ComplexRe, ComplexIm,;Re, ComplexRe, ComplexIm,;Re, ComplexRe, ComplexIm
;freq, Y,;freq, Y,;freq, Y,;freq, Y,;freq, Y,;freq, Y,;freq, Y,;freq, Y,;freq, Y,;freq, Y
;Hz, yunit,;Hz, yunit,;Hz, yunit,;Hz, yunit,;Hz, yunit,;Hz, yunit,;Hz, yunit,;Hz, yunit,;Hz, yunit,;Hz, yunit
1,1376.083017232904,-1.26251940657431e-05,1,2823.466193369071,-2.576924882584311e-05,1,4402.660850361735,-3.976140266767982e-05,1,6135.253441408863,-5.442924770174815e-05,1,7950.777166546088,-6.874854113125574e-05,1,9653.80467273318,-8.102568210380537e-05,1,11012.16861021633,-9.003063773040991e-05,1,11926.39869480243,-9.587882704829007e-05,1,12465.52200454335,-9.952306012476494e-05,1,12760.43579936191,-0.0001018918653176795
1.023292992280754,1376.083017232905,-1.291927261365946e-05,1.023292992280754,2823.466193369072,-2.636949173982429e-05,1.023292992280754,4402.660850361735,-4.068756471309002e-05,1.023292992280754,6135.253441408864,-5.569706774831213e-05,1.023292992280754,7950.77716654609,-7.034990036913912e-05,1.023292992280754,9653.804672733178,-8.291301269159208e-05,1.023292992280754,11012.16861021633,-9.21277206800956e-05,1.023292992280754,11926.39869480243,-9.811213182661352e-05,1.023292992280754,12465.52200454335,-0.0001018412499960082,1.023292992280754,12760.43579936191,-0.0001042652317499957
1.047128548050899,1376.083017232905,-1.322020113092235e-05,1.047128548050899,2823.466193369071,-2.698371610736737e-05,1.047128548050899,4402.660850361737,-4.163529984387468e-05,1.047128548050899,6135.253441408862,-5.699441911743407e-05,1.047128548050899,7950.77716654609,-7.198856005538915e-05,1.047128548050899,9653.80467273318,-8.484430485619128e-05,1.047128548050899,11012.16861021633,-9.427365096674042e-05,1.047128548050899,11926.39869480242,-0.000100397456955899,1.047128548050899,12465.52200454335,-0.0001042134374460273,1.047128548050899,12760.43579936191,-0.0001066938809882994
1.071519305237606,1376.083017232905,-1.352813917381492e-05,1.071519305237606,2823.466193369072,-2.761224759836234e-05,1.071519305237606,4402.660850361737,-4.260511056174489e-05,1.071519305237606,6135.253441408865,-5.832198968198258e-05,1.071519305237606,7950.77716654609,-7.366538902906187e-05,1.071519305237606,9653.804672733182,-8.682058259427253e-05,1.071519305237606,11012.16861021633,-9.646956639098721e-05,1.071519305237606,11926.39869480242,-0.0001027360141457799,1.071519305237606,12465.52200454335,-0.0001066408802400084,1.071519305237606,12760.43579936191,-0.0001091791007345633
1.096478196143185,1376.083017232905,-1.384325001516354e-05,1.096478196143185,2823.466193369071,-2.82554194685252e-05,1.096478196143185,4402.660850361737,-4.359751107318023e-05,1.096478196143185,6135.253441408866,-5.968048333744311e-05,1.096478196143185,7950.777166546088,-7.538127636707445e-05,1.096478196143185,9653.804672733182,-8.884289375445133e-05,1.096478196143185,11012.16861021633,-9.871663125625993e-05,1.096478196143185,11926.39869480243,-0.000105129043330233,1.096478196143185,12465.52200454335,-0.0001091248654402514,1.096478196143185,12760.43579936191,-0.0001117222086851931
1.122018454301963,1376.083017232906,-1.416570073090729e-05,1.122018454301963,2823.466193369081,-2.891357273609513e-05,1.122018454301963,4402.660850361737,-4.461302756206781e-05,1.122018454301963,6135.253441408865,-6.107062037513379e-05,1.122018454301963,7950.777166546091,-7.713713185560609e-05,1.122018454301963,9653.80467273318,-9.09123105928734e-05,1.122018454301963,11012.16861021633,-0.000101016036986094,1.122018454301963,11926.39869480243,-0.000107577813325007,1.122018454301963,12465.52200454335,-0.0001116667100885895,1.122018454301963,12760.43579936191,-0.000114324553229686
1.148153621496882,1376.083017232905,-1.449566228868376e-05,1.148153621496882,2823.466193369081,-2.958705636264595e-05,1.148153621496882,4402.660850361735,-4.565219846869205e-05,1.148153621496882,6135.253441408865,-6.249313786411254e-05,1.148153621496882,7950.777166546093,-7.893388647247805e-05,1.148153621496882,9653.80467273318,-9.302993034173856e-05,1.148153621496882,11012.16861021633,-0.0001033690027558434,1.148153621496882,11926.39869480243,-0.0001100836225003666,1.148153621496882,12465.52200454335,-0.0001142677619047,1.148153621496882,12760.43579936191,-0.0001169875141655654
1.174897554939529,1376.083017232906,-1.483330963847846e-05,1.174897554939529,2823.466193369081,-3.027622743811128e-05,1.174897554939529,4402.660850361737,-4.671557477522278e-05,1.174897554939529,6135.253441408865,-6.394879004198138e-05,1.174897554939529,7950.777166546089,-8.07724928807713e-05,1.174897554939529,9653.804672733182,-9.519687579106775e-05,1.174897554939529,11012.16861021633,-0.0001057767761391043,1.174897554939529,11926.39869480243,-0.0001126477994695049,1.174897554939529,12465.52200454335,-0.000116929400000685,1.174897554939529,12760.43579936186,-0.0001197125034299678
1.202264434617413,1376.083017232906,-1.517882180538558e-05,1.202264434617413,2823.46619336908,-3.098145137011749e-05,1.202264434617413,4402.660850361737,-4.780372029785291e-05,1.202264434617413,6135.253441408864,-6.543834871479255e-05,1.202264434617413,7950.777166546091,-8.265392593394026e-05,1.202264434617413,9653.80467273318,-9.741429588402075e-05,1.202264434617413,11012.16861021633,-0.0001082406337691952,1.202264434617413,11926.39869480242,-0.0001152717037929917,1.202264434617413,12465.52200454336,-0.0001196530356122941,1.202264434617413,12760.43579936187,-0.0001225009658482716
1.230268770812381,1376.083017232905,-1.553238198452935e-05,1.230268770812381,2823.466193369081,-3.170310207772815e-05,1.230268770812381,4402.660850361738,-4.891721198574208e-05,1.230268770812381,6135.253441408864,-6.696260366627155e-05,1.230268770812381,7950.77716654609,-8.457918319269337e-05,1.230268770812381,9653.804672733178,-9.968336632608222e-05,1.230268770812381,11012.16861021632,-0.0001107618820160448,1.230268770812381,11926.39869480243,-0.0001179567266996312,1.230268770812381,12465.52200454335,-0.0001224401128471797,1.230268770812381,12760.43579936187,-0.00012535437990016
1.258925411794167,1376.083017232906,-1.589417763819668e-05,1.258925411794167,2823.466193369082,-3.244156218970059e-05,1.258925411794167,4402.660850361737,-5.005664022692188e-05,1.258925411794167,6135.253441408871,-6.852236307656914e-05,1.258925411794167,7950.777166546093,-8.654928545391317e-05,1.258925411794167,9653.804672733178,-0.0001020052902084349,1.258925411794167,11012.16861021633,-0.0001133418576788461,1.258925411794167,11926.39869480243,-0.0001207042918241084,1.258925411794167,12465.52200454338,-0.000125292109450584,1.258925411794167,12760.43579936186,-0.0001282742585035328
1.288249551693134,1376.083017232905,-1.62644005952321e-05,1.288249551693134,2823.466193369081,-3.319722324736089e-05,1.288249551693134,4402.660850361737,-5.122260916132798e-05,1.288249551693134,6135.25344140887,-7.011845395077054e-05,1.288249551693134,7950.777166546095,-8.856527729189583e-05,1.288249551693134,9653.804672733178,-0.0001043812986458559,1.288249551693134,11012.16861021633,-0.0001159819286948457,1.288249551693134,11926.39869480243,-0.0001235158559618211,1.288249551693134,12465.52200454339,-0.0001282105375888556,1.288249551693134,12760.43579936185,-0.0001312621498166749
1.318256738556407,1376.083017232906,-1.664324715274789e-05,1.318256738556407,2823.46619336908,-3.397048591220406e-05,1.318256738556407,4402.660850361735,-5.241573700112277e-05,1.318256738556407,6135.253441408864,-7.175172255738407e-05,1.318256738556407,7950.777166546091,-9.062822761219861e-05,1.318256738556407,9653.804672733175,-0.0001068126514294688,1.318256738556407,11012.16861021632,-0.0001186834948646413,1.318256738556407,11926.39869480242,-0.0001263929098412901,1.318256738556407,12465.52200454339,-0.000131196944651224,1.318256738556407,12760.43579936185,-0.0001343196380591094
1.348962882591653,1376.083017232906,-1.703091818020349e-05,1.348962882591653,2823.46619336908,-3.476176017833043e-05,1.348962882591653,4402.660850361737,-5.363665635847993e-05,1.348962882591653,6135.253441408868,-7.342303487704395e-05,1.348962882591653,7950.777166546093,-9.273923021838789e-05,1.348962882591653,9653.804672733178,-0.000109300637694702,1.348962882591653,11012.16861021633,-0.0001214479885943761,1.348962882591653,11926.39869480243,-0.0001293369789145653,1.348962882591653,12465.52200454339,-0.000134252914070243,1.348962882591653,12760.43579936185,-0.0001374483443515739
1.380384264602885,1376.083017232906,-1.742761922590914e-05,1.380384264602885,2823.466193369079,-3.55714655898296e-05,1.380384264602885,4402.66085036175,-5.488601458100352e-05,1.380384264602885,6135.253441408867,-7.513327706166437e-05,1.380384264602885,7950.777166546097,-9.489940439198768e-05,1.380384264602885,9653.804672733175,-0.0001118465766048061,1.380384264602885,11012.16861021633,-0.0001242768756552178,1.380384264602885,11926.39869480243,-0.0001323496241660381,1.380384264602885,12465.52200454339,-0.0001373800661613497,1.380384264602885,12760.43579936185,-0.000140649927575557
1.412537544622754,1376.083017232906,-1.78335606260101e-05,1.412537544622754,2823.466193369077,-3.640003146322852e-05,1.412537544622754,4402.66085036175,-5.616447409496011e-05,1.412537544622754,6135.253441408844,-7.688335590428903e-05,1.412537544622754,7950.777166546093,-9.71098954859382e-05,1.412537544622754,9653.804672733175,-0.0001144518180502904,1.412537544622754,11012.16861021632,-0.0001271716559605307,1.412537544622754,11926.39869480243,-0.0001354324429400981,1.412537544622754,12465.52200454338,-0.0001405800589819752,1.412537544622754,12760.43579936185,-0.000143926085252863
1.445439770745927,1376.083017232901,-1.824895761601003e-05,1.445439770745927,2823.466193369077,-3.724789711512063e-05,1.445439770745927,4402.660850361752,-5.747271275650648e-05,1.445439770745927,6135.253441408848,-7.867419931988589e-05,1.445439770745927,7950.777166546093,-9.937187553187672e-05,1.445439770745927,9653.804672733178,-0.0001171177433646538,1.445439770745927,11012.16861021633,-0.0001301338643611498,1.445439770745927,11926.39869480243,-0.0001385870697880648,1.445439770745927,12465.52200454339,-0.00014385458921067,1.445439770745927,12760.43579936186,-0.0001472785544456568
1.479108388168207,1376.083017232902,-1.867403044489152e-05,1.479108388168207,2823.466193369079,-3.811551209509738e-05,1.479108388168207,4402.66085036175,-5.881142421109761e-05,1.479108388168207,6135.253441408844,-8.050675683733834e-05,1.479108388168207,7950.777166546096,-0.0001016865438615646,1.479108388168207,9653.804672733177,-0.0001198457660567856,1.479108388168207,11012.16861021633,-0.0001331650714591785,1.479108388168207,11926.39869480242,-0.0001418151773348503,1.479108388168207,12465.52200454339,-0.0001472053930467045,1.479108388168207,12760.43579936185,-0.0001507091126774793
1.513561248436208,1376.083017232901,-1.910900449189485e-05,1.513561248436208,2823.466193369079,-3.900333642410541e-05,1.513561248436208,4402.66085036175,-6.018131826126673e-05,1.513561248436208,6135.253441408844,-8.238200010289882e-05,1.513561248436208,7950.777166546089,-0.0001040551277427883,1.513561248436208,9653.80467273318,-0.0001226373325604272,1.513561248436208,11012.16861021633,-0.0001362668844407427,1.513561248436208,11926.39869480242,-0.0001451184771658043,1.513561248436208,12465.52200454339,-0.0001506342471306265,1.513561248436208,12760.43579936185,-0.0001542195788757149
1.548816618912481,1376.083017232902,-1.955411038601748e-05,1.548816618912481,2823.46619336908,-3.991184083835559e-05,1.548816618912481,4402.66085036175,-6.158312124297181e-05,1.548816618912481,6135.253441408847,-8.430092339536865e-05,1.548816618912481,7950.777166546097,-0.0001064788830300737,1.548816618912481,9653.804672733102,-0.0001254939230010878,1.548816618912481,11012.16861021633,-0.0001394409479281432,1.548816618912481,11926.39869480244,-0.0001484987207342218,1.548816618912481,12465.52200454339,-0.0001541429694862569,1.548816618912481,12760.43579936185,-0.0001578118143360077
1.584893192461113,1376.083017232901,-2.00095841282959e-05,1.584893192461113,2823.466193369078,-4.084150703891399e-05,1.584893192461113,4402.660850361749,-6.301757641070895e-05,1.584893192461113,6135.253441408844,-8.6264544153277e-05,1.584893192461113,7950.777166546091,-0.0001089590948305561,1.584893192461113,9653.804672733102,-0.0001284170519808332,1.584893192461113,11012.16861021634,-0.0001426889448518542,1.584893192461113,11926.39869480243,-0.0001519577002899855,1.584893192461113,12465.52200454339,-0.0001577334204846325,1.584893192461113,12760.43579936186,-0.0001614877237091478
1.621810097358929,1376.083017232902,-2.047566721693734e-05,1.621810097358929,2823.466193369077,-4.179282794710565e-05,1.621810097358929,4402.660850361749,-6.448544433159526e-05,1.621810097358929,6135.25344140884,-8.827390351434183e-05,1.621810097358929,7950.77716654606,-0.0001114970781853616,1.621810097358929,9653.804672733095,-0.0001314082693813396,1.621810097358929,11012.16861021633,-0.0001460125973428368,1.621810097358929,11926.39869480242,-0.0001554972498298409,1.621810097358929,12465.52200454339,-0.0001614075038303976,1.621810097358929,12760.43579936185,-0.0001652492560109408
1.65958690743756,1376.0830172329,-2.09526067753647e-05,1.65958690743756,2823.466193369077,-4.27663079658684e-05,1.65958690743756,4402.660850361748,-6.598750328863195e-05,1.65958690743756,6135.253441408845,-9.033006686749324e-05,1.65958690743756,7950.777166546062,-0.0001140941787668594,1.65958690743756,9653.804672733095,-0.0001344691611856662,1.65958690743756,11012.1686102163,-0.0001494136676456356,1.65958690743756,11926.39869480243,-0.0001591192460698055,1.65958690743756,12465.52200454338,-0.0001651671675711742,1.65958690743756,12760.43579936186,-0.0001690984056556038
1.698243652461743,1376.0830172329,-2.144065568324491e-05,1.698243652461743,2823.466193369077,-4.376246324719362e-05,1.698243652461743,4402.660850361759,-6.752454969336025e-05,1.698243652461743,6135.25344140884,-9.243412441775742e-05,1.698243652461743,7950.777166546053,-0.0001167517735921543,1.698243652461743,9653.804672733088,-0.0001376013503191627,1.698243652461743,11012.1686102163,-0.0001528939590527438,1.698243652461743,11926.39869480242,-0.0001628256094402283,1.698243652461743,12465.52200454325,-0.0001690144051304409,1.698243652461743,12760.43579936189,-0.0001730372135132272
1.737800828749374,1376.083017232899,-2.194007271056899e-05,1.737800828749374,2823.466193369077,-4.478182196579715e-05,1.737800828749374,4402.660850361759,-6.90973985081289e-05,1.737800828749374,6135.253441408848,-9.458719176429832e-05,1.737800828749374,7950.777166545966,-0.0001194712717531989,1.737800828749374,9653.804672733091,-0.0001408064975099678,1.737800828749374,11012.1686102163,-0.0001564553168607328,1.737800828749374,11926.39869480242,-0.0001666183051040278,1.737800828749374,12465.52200454326,-0.0001729512563644803,1.737800828749374,12760.43579936189,-0.0001770677679918736
1.778279410038922,1376.0830172329,-2.245112265485533e-05,1.778279410038922,2823.466193369077,-4.582492459916441e-05,1.778279410038922,4402.660850361757,-7.070688367819865e-05,1.778279410038922,6135.253441408846,-9.679041049192193e-05,1.778279410038922,7950.777166545967,-0.0001222541151639178,1.778279410038922,9653.804672733088,-0.0001440863021695472,1.778279410038922,11012.16861021629,-0.0001600996293486522,1.778279410038922,11926.39869480242,-0.0001704993439986476,1.778279410038922,12465.5220045432,-0.0001769798086439232,1.778279410038922,12760.43579936184,-0.0001811922061448773
1.819700858609982,1376.083017232899,-2.297407648154914e-05,1.819700858609982,2823.466193369075,-4.68923242141187e-05,1.819700858609982,4402.660850361759,-7.23538585739109e-05,1.819700858609982,6135.253441408846,-9.90449487763609e-05,1.819700858609982,7950.777166545966,-0.0001251017793247209,1.819700858609982,9653.804672733095,-0.0001474425032937445,1.819700858609982,11012.16861021629,-0.0001638288287792214,1.819700858609982,11926.39869480243,-0.000174470783902281,1.819700858609982,12465.52200454321,-0.0001811021979605147,1.819700858609982,12760.43579936184,-0.0001854127148039421
1.862087136662866,1376.083017232899,-2.350921146769121e-05,1.862087136662866,2823.466193369075,-4.798458676006466e-05,1.862087136662866,4402.660850361763,-7.403919644315551e-05,1.862087136662866,6135.253441408843,-0.0001013520020036561,1.862087136662866,7950.777166545942,-0.0001280157741048392,1.862087136662866,9653.804672733153,-0.000150876880384821,1.862087136662866,11012.16861021629,-0.0001676448924233401,1.862087136662866,11926.39869480242,-0.0001785347305249332,1.862087136662866,12465.5220045432,-0.0001853206100596358,1.862087136662866,12760.43579936184,-0.0001897315317386232
1.905460717963246,1376.083017232901,-2.40568113489347e-05,1.905460717963246,2823.466193369075,-4.910229136906184e-05,1.905460717963246,4402.66085036176,-7.576379087437894e-05,1.905460717963246,6135.253441408842,-0.0001037127934039659,1.905460717963246,7950.777166545939,-0.0001309976445428776,1.905460717963246,9653.804672733157,-0.0001543912543949684,1.905460717963246,11012.1686102163,-0.000171549843608464,1.905460717963246,11926.39869480242,-0.0001826933386248962,1.905460717963246,12465.5220045432,-0.0001896372815992188,1.905460717963246,12760.43579936184,-0.0001941509468428257
1.949844599758044,1376.083017232901,-2.46171664699849e-05,1.949844599758044,2823.466193369076,-5.024603066288856e-05,1.949844599758044,4402.660850361761,-7.752855627037633e-05,1.949844599758044,6135.253441408843,-0.0001061285747001395,1.949844599758044,7950.777166545939,-0.0001340489716660113,1.949844599758044,9653.804672733157,-0.0001579874886918057,1.949844599758044,11012.1686102163,-0.0001755457527913999,1.949844599758044,11926.39869480242,-0.0001869488131512303,1.949844599758044,12465.52200454321,-0.0001940545013356519,1.949844599758044,12760.4357993618,-0.000198673303348935
1.995262314968878,1376.083017232899,-2.519057393854414e-05,1.995262314968878,2823.466193369078,-5.141641106725758e-05,1.995262314968878,4402.660850361761,-7.933442833311986e-05,1.995262314968878,6135.253441408842,-0.0001086006267713967,1.995262314968878,7950.777166545959,-0.0001371713733282706,1.995262314968878,9653.804672733153,-0.0001616674900463589,1.995262314968878,11012.1686102163,-0.0001796347386560884,1.995262314968878,11926.39869480242,-0.0001913034104128573,1.995262314968878,12465.52200454321,-0.0001985746113373077,1.995262314968878,12760.4357993618,-0.0002033009990702328
2.041737944669527,1376.083017232901,-2.577733778284231e-05,2.041737944669527,2823.46619336908,-5.2614053133351e-05,2.041737944669527,4402.660850361759,-8.118236455988083e-05,2.041737944669527,6135.253441408844,-0.0001111302603324674,2.041737944669527,7950.777166545963,-0.0001403665050683457,2.041737944669527,9653.804672733149,-0.0001654332096440568,2.041737944669527,11012.16861021629,-0.0001838189692369589,2.041737944669527,11926.39869480241,-0.000195759439274885,2.041737944669527,12465.5220045432,-0.0002032000082263401,2.041737944669527,12760.4357993618,-0.0002080364876722444
2.089296130854037,1376.083017232901,-2.637776911283634e-05,2.089296130854037,2823.466193369076,-5.383959186684515e-05,2.089296130854037,4402.66085036176,-8.307334475090715e-05,2.089296130854037,6135.253441408842,-0.0001137188166285494,2.089296130854037,7950.77716654596,-0.0001436360609873783,2.089296130854037,9653.804672733149,-0.0001692866441192754,2.089296130854037,11012.1686102163,-0.000188100663068451,2.089296130854037,11926.39869480242,-0.0002003192623827989,2.089296130854037,12465.52200454321,-0.0002079331444494047,2.089296130854037,12760.43579936181,-0.0002128822799737082
