;Version, 1, 0
;dcOut (VCTRL=0.01),;dcOut (VCTRL=0.02),;dcOut (VCTRL=0.03),;dcOut (VCTRL=0.04),;dcOut (VCTRL=0.05),;dcOut (VCTRL=0.06),;dcOut (VCTRL=0.07),;dcOut (VCTRL=0.08),;dcOut (VCTRL=0.09),;dcOut (VCTRL=0.1)
;X, Y,;X, Y,;X, Y,;X, Y,;X, Y,;X, Y,;X, Y,;X, Y,;X, Y,;X, Y
;Re, Re,;Re, Re,;Re, Re,;Re, Re,;Re, Re,;Re, Re,;Re, Re,;Re, Re,;Re, Re,;Re, Re
;iin, V,;iin, V,;iin, V,;iin, V,;iin, V,;iin, V,;iin, V,;iin, V,;iin, V,;iin, V
;xunit, V,;xunit, V,;xunit, V,;xunit, V,;xunit, V,;xunit, V,;xunit, V,;xunit, V,;xunit, V,;xunit, V
-1e-05,-0.01339873511215854,-1e-05,-0.02734258639269389,-1e-05,-0.04213677964908863,-1e-05,-0.0575707579367111,-1e-05,-0.07279242346742816,-1e-05,-0.08657071674271746,-1e-05,-0.09781157568628934,-1e-05,-0.1059913646882519,-1e-05,-0.1113084150117187,-1e-05,-0.1144629139596124
-9.990000000000001e-06,-0.01338639531096891,-9.990000000000001e-06,-0.0273177472447549,-9.990000000000001e-06,-0.04209953187825757,-9.990000000000001e-06,-0.05752193648873402,-9.990000000000001e-06,-0.07273354380338991,-9.990000000000001e-06,-0.0865033241045909,-9.990000000000001e-06,-0.09773688576450304,-9.990000000000001e-06,-0.1059105433499883,-9.990000000000001e-06,-0.1112228851320135,-9.990000000000001e-06,-0.1143741828026632
-9.980000000000001e-06,-0.01337405105185926,-9.980000000000001e-06,-0.02729289793296624,-9.980000000000001e-06,-0.04206226566879304,-9.980000000000001e-06,-0.05747308536427144,-9.980000000000001e-06,-0.07267462182907607,-9.980000000000001e-06,-0.08643587743638897,-9.980000000000001e-06,-0.09766213248647104,-9.980000000000001e-06,-0.1058296524308317,-9.980000000000001e-06,-0.1111372824164611,-9.980000000000001e-06,-0.1142853775590866
-9.970000000000001e-06,-0.01336170234515641,-9.970000000000001e-06,-0.02726803847898156,-9.970000000000001e-06,-0.0420249810534614,-9.970000000000001e-06,-0.05742420460239027,-9.970000000000001e-06,-0.07261565758217146,-9.970000000000001e-06,-0.08636837677114192,-9.970000000000001e-06,-0.09758731588380624,-9.970000000000001e-06,-0.1057486919672409,-9.970000000000001e-06,-0.1110516069100689,-9.970000000000001e-06,-0.114196498282142
-9.960000000000001e-06,-0.01334934920117632,-9.960000000000001e-06,-0.02724316890442532,-9.960000000000001e-06,-0.0419876780650197,-9.960000000000001e-06,-0.05737529424216151,-9.960000000000001e-06,-0.07255665110042007,-9.960000000000001e-06,-0.08630082214197426,-9.960000000000001e-06,-0.09751243598830195,-9.960000000000001e-06,-0.1056676619958084,-9.960000000000001e-06,-0.1109658586579712,-9.960000000000001e-06,-0.114107545025197
-9.950000000000001e-06,-0.01333699163022055,-9.950000000000001e-06,-0.02721828923090726,-9.950000000000001e-06,-0.04195035673621206,-9.950000000000001e-06,-0.05732635432268995,-9.950000000000001e-06,-0.07249760242161842,-9.950000000000001e-06,-0.08623321358206809,-9.950000000000001e-06,-0.09743749283184255,-9.950000000000001e-06,-0.105586562553219,-9.950000000000001e-06,-0.1108800377053809,-9.950000000000001e-06,-0.1140185178416713
-9.940000000000001e-06,-0.0133246296425811,-9.940000000000001e-06,-0.02719339948001891,-9.940000000000001e-06,-0.04191301709977849,-9.940000000000001e-06,-0.05727738488308377,-9.940000000000001e-06,-0.0724385115836155,-9.940000000000001e-06,-0.08616555112471605,-9.940000000000001e-06,-0.09736248644640677,-9.940000000000001e-06,-0.105505393676296,-9.940000000000001e-06,-0.1107941440976471,-9.940000000000001e-06,-0.113929416785093
-9.930000000000001e-06,-0.01331226324853499,-9.930000000000001e-06,-0.02716849967333011,-9.930000000000001e-06,-0.04187565918844888,-9.930000000000001e-06,-0.05722838596249513,-9.930000000000001e-06,-0.072379378624323,-9.930000000000001e-06,-0.08609783480328059,-9.930000000000001e-06,-0.09728741686407961,-9.930000000000001e-06,-0.1054241554019652,-9.930000000000001e-06,-0.1107081778802048,-9.930000000000001e-06,-0.1138402419090538
-9.920000000000002e-06,-0.01329989245834783,-9.920000000000002e-06,-0.02714358983239143,-9.920000000000002e-06,-0.04183828303493622,-9.920000000000002e-06,-0.05717935760007554,-9.920000000000002e-06,-0.07232020358170428,-9.920000000000002e-06,-0.08603006465120276,-9.920000000000002e-06,-0.09721228411704863,-9.920000000000002e-06,-0.1053428477672727,-9.920000000000002e-06,-0.1106221390986288,-9.920000000000002e-06,-0.1137509932672478
-9.910000000000002e-06,-0.01328751728227262,-9.910000000000002e-06,-0.02711866997873846,-9.910000000000002e-06,-0.04180088867195658,-9.910000000000002e-06,-0.05713029983500982,-9.910000000000002e-06,-0.07226098649378038,-9.910000000000002e-06,-0.08596224070201018,-9.910000000000002e-06,-0.0971370882376062,-9.910000000000002e-06,-0.105261470809391,-9.910000000000002e-06,-0.1105360277985652,-9.910000000000002e-06,-0.1136616709134406
-9.900000000000002e-06,-0.01327513773055138,-9.900000000000002e-06,-0.02709374013388258,-9.900000000000002e-06,-0.04176347613220363,-9.900000000000002e-06,-0.05708121270649738,-9.900000000000002e-06,-0.07220172739862038,-9.900000000000002e-06,-0.08589436298931435,-9.900000000000002e-06,-0.09706182925815166,-9.900000000000002e-06,-0.1051800245655876,-9.900000000000002e-06,-0.1104498440257946,-9.900000000000002e-06,-0.1135722749014752
-9.890000000000002e-06,-0.01326275381341205,-9.890000000000002e-06,-0.0270688003193188,-9.890000000000002e-06,-0.04172604544836553,-9.890000000000002e-06,-0.05703209625376621,-9.890000000000002e-06,-0.07214242633435967,-9.890000000000002e-06,-0.08582643154680591,-9.890000000000002e-06,-0.0969865072111835,-9.890000000000002e-06,-0.1050985090732711,-9.890000000000002e-06,-0.1103635878261984,-9.890000000000002e-06,-0.113482805285288
-9.880000000000002e-06,-0.01325036554106765,-9.880000000000002e-06,-0.02704385055651926,-9.880000000000002e-06,-0.04168859665312326,-9.880000000000002e-06,-0.05698295051604875,-9.880000000000002e-06,-0.07208308333918111,-9.880000000000002e-06,-0.08575844640825225,-9.880000000000002e-06,-0.09691112212929809,-9.880000000000002e-06,-0.1050169243699405,-9.880000000000002e-06,-0.1102772592457652,-9.880000000000002e-06,-0.1133932621188919
-9.870000000000002e-06,-0.01323797292372567,-9.870000000000002e-06,-0.02701889086694514,-9.870000000000002e-06,-0.04165112977914293,-9.870000000000002e-06,-0.05693377553261585,-9.870000000000002e-06,-0.07202369845132739,-9.870000000000002e-06,-0.08569040760751556,-9.870000000000002e-06,-0.09683567404520842,-9.870000000000002e-06,-0.1049352704932323,-9.870000000000002e-06,-0.1101908583305979,-9.870000000000002e-06,-0.1133036454563771
-9.860000000000002e-06,-0.01322557597157253,-9.860000000000002e-06,-0.02699392127202448,-9.860000000000002e-06,-0.04161364485908407,-9.860000000000002e-06,-0.05688457134273789,-9.860000000000002e-06,-0.07196427170908704,-9.860000000000002e-06,-0.08562231517853131,-9.860000000000002e-06,-0.09676016299171988,-9.860000000000002e-06,-0.1048535474808877,-9.860000000000002e-06,-0.110104385126888,-9.860000000000002e-06,-0.1132139553519392
-9.850000000000002e-06,-0.01321317469479034,-9.850000000000002e-06,-0.02696894179317716,-9.850000000000002e-06,-0.04157614192559161,-9.850000000000002e-06,-0.05683533798572543,-9.850000000000002e-06,-0.07190480315082165,-9.850000000000002e-06,-0.08555416915531812,-9.850000000000002e-06,-0.0966845890017419,-9.850000000000002e-06,-0.1047717553707692,-9.850000000000002e-06,-0.1100178396809636,-9.850000000000002e-06,-0.1131241918598291
-9.840000000000002e-06,-0.01320076910354077,-9.840000000000002e-06,-0.02694395245179639,-9.840000000000002e-06,-0.04153862101130229,-9.840000000000002e-06,-0.05678607550089133,-9.840000000000002e-06,-0.07184529281491965,-9.840000000000002e-06,-0.08548596957196514,-9.840000000000002e-06,-0.0966089521082977,-9.840000000000002e-06,-0.1046898942008487,-9.840000000000002e-06,-0.1099312220392332,-9.840000000000002e-06,-0.1130343550343927
-9.830000000000002e-06,-0.01318835920797949,-9.830000000000002e-06,-0.02691895326925865,-9.830000000000002e-06,-0.04150108214883497,-9.830000000000002e-06,-0.05673678392757384,-9.830000000000002e-06,-0.07178574073984954,-9.830000000000002e-06,-0.08541771646266083,-9.830000000000002e-06,-0.09653325234450429,-9.830000000000002e-06,-0.1046079640092148,-9.830000000000002e-06,-0.1098445322482291,-9.830000000000002e-06,-0.1129444449300661
-9.820000000000003e-06,-0.01317594501824465,-9.820000000000003e-06,-0.02689394426692207,-9.820000000000003e-06,-0.04146352537080961,-9.820000000000003e-06,-0.05668746330512957,-9.820000000000003e-06,-0.07172614696411367,-9.820000000000003e-06,-0.08534940986166309,-9.820000000000003e-06,-0.09645748974357289,-9.820000000000003e-06,-0.1045259648340821,-9.820000000000003e-06,-0.1097577703545944,-9.820000000000003e-06,-0.1128544616013492
-9.810000000000003e-06,-0.01316352654446278,-9.810000000000003e-06,-0.02686892546612001,-9.810000000000003e-06,-0.04142595070982213,-9.810000000000003e-06,-0.05663811367293148,-9.810000000000003e-06,-0.07166651152628162,-9.810000000000003e-06,-0.08528104980330821,-9.810000000000003e-06,-0.09638166433882955,-9.810000000000003e-06,-0.1044438967137563,-9.810000000000003e-06,-0.1096709364050607,-9.810000000000003e-06,-0.1127644051028327
-9.800000000000003e-06,-0.01315110379675026,-9.800000000000003e-06,-0.0268438968881676,-9.800000000000003e-06,-0.04138835819846781,-9.800000000000003e-06,-0.05658873507037437,-9.800000000000003e-06,-0.07160683446497257,-9.800000000000003e-06,-0.0852126363220241,-9.800000000000003e-06,-0.09630577616370503,-9.800000000000003e-06,-0.1043617596866812,-9.800000000000003e-06,-0.1095840304464834,-9.800000000000003e-06,-0.1126742754891976
-9.790000000000003e-06,-0.01313867678520819,-9.790000000000003e-06,-0.02681885855436163,-9.790000000000003e-06,-0.04135074786931797,-9.790000000000003e-06,-0.05653932753686754,-9.790000000000003e-06,-0.07154711581885514,-9.790000000000003e-06,-0.08514416945231468,-9.790000000000003e-06,-0.09622982525172261,-9.790000000000003e-06,-0.1042795537913994,-9.790000000000003e-06,-0.1094970525258199,-9.790000000000003e-06,-0.1125840728152008
-9.780000000000003e-06,-0.01312624551992445,-9.780000000000003e-06,-0.02679381048597598,-9.780000000000003e-06,-0.04131311975494256,-9.780000000000003e-06,-0.05648989111183793,-9.780000000000003e-06,-0.07148735562665459,-9.780000000000003e-06,-0.08507564922875235,-9.780000000000003e-06,-0.09615381163651214,-9.780000000000003e-06,-0.1041972790665835,-9.780000000000003e-06,-0.1094100026901259,-9.780000000000003e-06,-0.1124937971356869
-9.770000000000003e-06,-0.01311381001097706,-9.770000000000003e-06,-0.02676875270426422,-9.770000000000003e-06,-0.0412754738878942,-9.770000000000003e-06,-0.05644042583472934,-9.770000000000003e-06,-0.07142755392714258,-9.770000000000003e-06,-0.08500707568600893,-9.770000000000003e-06,-0.09607773535180261,-9.770000000000003e-06,-0.1041149355510061,-9.770000000000003e-06,-0.1093228809865796,-9.770000000000003e-06,-0.1124034485055571
-9.760000000000003e-06,-0.01310137026842798,-9.760000000000003e-06,-0.02674368523046265,-9.760000000000003e-06,-0.04123781030071443,-9.760000000000003e-06,-0.05639093174500791,-9.760000000000003e-06,-0.07136771075916086,-9.760000000000003e-06,-0.08493844885882257,-9.760000000000003e-06,-0.09600159643143112,-9.760000000000003e-06,-0.1040325232835607,-9.760000000000003e-06,-0.1092356874624583,-9.760000000000003e-06,-0.112313026979837
-9.750000000000003e-06,-0.01308892630232709,-9.750000000000003e-06,-0.02671860808578554,-9.750000000000003e-06,-0.04120012902593213,-9.750000000000003e-06,-0.05634140888215218,-9.750000000000003e-06,-0.07130782616158111,-9.750000000000003e-06,-0.08486976878201216,-9.750000000000003e-06,-0.09592539490932389,-9.750000000000003e-06,-0.1039500423032548,-9.750000000000003e-06,-0.1091484221651338,-9.750000000000003e-06,-0.1122225326136021
-9.740000000000003e-06,-0.01307647812271423,-9.740000000000003e-06,-0.02669352129142209,-9.740000000000003e-06,-0.04116243009606202,-9.740000000000003e-06,-0.05629185728565608,-9.740000000000003e-06,-0.07124790017334172,-9.740000000000003e-06,-0.08480103549048854,-9.740000000000003e-06,-0.09584913081953018,-9.740000000000003e-06,-0.1038674926492054,-9.740000000000003e-06,-0.1090610851421087,-9.740000000000003e-06,-0.112131965462021
-9.730000000000003e-06,-0.01306402573960988,-9.730000000000003e-06,-0.02666842486854669,-9.730000000000003e-06,-0.04112471354360847,-9.730000000000003e-06,-0.05624227699503113,-9.730000000000003e-06,-0.07118793283342814,-9.730000000000003e-06,-0.0847322490192283,-9.730000000000003e-06,-0.09577280419617448,-9.730000000000003e-06,-0.1037848743606466,-9.730000000000003e-06,-0.1089736764409672,-9.730000000000003e-06,-0.112041325580341
-9.720000000000003e-06,-0.01305156916303005,-9.720000000000003e-06,-0.02664331883831125,-9.720000000000003e-06,-0.04108697940106124,-9.720000000000003e-06,-0.05619266804980982,-9.720000000000003e-06,-0.07112792418087953,-9.720000000000003e-06,-0.08466340940329017,-9.720000000000003e-06,-0.09569641507350198,-9.720000000000003e-06,-0.1037021874769326,-9.720000000000003e-06,-0.1088861961094166,-9.720000000000003e-06,-0.1119506130238997
-9.710000000000004e-06,-0.01303910840296967,-9.710000000000004e-06,-0.02661820322184455,-9.710000000000004e-06,-0.04104922770089922,-9.710000000000004e-06,-0.05614303048953649,-9.710000000000004e-06,-0.07106787425479234,-9.710000000000004e-06,-0.08459451667781569,-9.710000000000004e-06,-0.09561996348585639,-9.710000000000004e-06,-0.1036194320375154,-9.710000000000004e-06,-0.108798644195263,-9.710000000000004e-06,-0.111859827848111
-9.700000000000004e-06,-0.01302664346941716,-9.700000000000004e-06,-0.02659307804025822,-9.700000000000004e-06,-0.04101145847558506,-9.700000000000004e-06,-0.05609336435377484,-9.700000000000004e-06,-0.07100778309429491,-9.700000000000004e-06,-0.08452557087802676,-9.700000000000004e-06,-0.09554344946766616,-9.700000000000004e-06,-0.1035366080819786,-9.700000000000004e-06,-0.1087110207464139,-9.700000000000004e-06,-0.1117689701084691
-9.690000000000004e-06,-0.01301417437234334,-9.690000000000004e-06,-0.02656794331463877,-9.690000000000004e-06,-0.04097367175756669,-9.690000000000004e-06,-0.05604366968209243,-9.690000000000004e-06,-0.07094765073858876,-9.690000000000004e-06,-0.08445657203922,-9.690000000000004e-06,-0.09546687305348896,-9.690000000000004e-06,-0.1034537156500005,-9.690000000000004e-06,-0.1086233258108914,-9.690000000000004e-06,-0.1116780398605423
-9.680000000000004e-06,-0.01300170112170644,-9.680000000000004e-06,-0.02654279906605418,-9.680000000000004e-06,-0.04093586757928196,-9.680000000000004e-06,-0.05599394651408668,-9.680000000000004e-06,-0.07088747722691349,-9.680000000000004e-06,-0.08438752019677195,-9.680000000000004e-06,-0.09539023427795687,-9.680000000000004e-06,-0.1033707547813842,-9.680000000000004e-06,-0.108535559436814,-9.680000000000004e-06,-0.1115870371600076
-9.670000000000004e-06,-0.0129892237274562,-9.670000000000004e-06,-0.02651764531555031,-9.670000000000004e-06,-0.04089804597315533,-9.670000000000004e-06,-0.05594419488936861,-9.670000000000004e-06,-0.07082726259856749,-9.670000000000004e-06,-0.08431841538613696,-9.670000000000004e-06,-0.09531353317581334,-9.670000000000004e-06,-0.1032877255160458,-9.670000000000004e-06,-0.1084477216724223,-9.670000000000004e-06,-0.1114959620625883
-9.660000000000004e-06,-0.01297674219952423,-9.660000000000004e-06,-0.02649248208415197,-9.660000000000004e-06,-0.04086020697159638,-9.660000000000004e-06,-0.05589441484755216,-9.660000000000004e-06,-0.07076700689289395,-9.660000000000004e-06,-0.08424925764285612,-9.660000000000004e-06,-0.09523676978190357,-9.660000000000004e-06,-0.1032046278940039,-9.660000000000004e-06,-0.1083598125660359,-9.660000000000004e-06,-0.1114048146241167
-9.650000000000004e-06,-0.01296425654782878,-9.650000000000004e-06,-0.02646730939286615,-9.650000000000004e-06,-0.04082235060699466,-9.650000000000004e-06,-0.05584460642827649,-9.650000000000004e-06,-0.07070671014929449,-9.650000000000004e-06,-0.08418004700254383,-9.650000000000004e-06,-0.09515994413120113,-9.650000000000004e-06,-0.1031214619554017,-9.650000000000004e-06,-0.1082718321660959,-9.650000000000004e-06,-0.1113135949004993
-9.640000000000004e-06,-0.0129517667822794,-9.640000000000004e-06,-0.02644212726266952,-9.640000000000004e-06,-0.0407844769117353,-9.640000000000004e-06,-0.05579476967119623,-9.640000000000004e-06,-0.07064637240720209,-9.640000000000004e-06,-0.08411078350088566,-9.640000000000004e-06,-0.09508305625886276,-9.640000000000004e-06,-0.1030382277404864,-9.640000000000004e-06,-0.1081837805211465,-9.640000000000004e-06,-0.1112223029477141
-9.630000000000004e-06,-0.01293927291276854,-9.630000000000004e-06,-0.02641693571452564,-9.630000000000004e-06,-0.04074658591818427,-9.630000000000004e-06,-0.05574490461597456,-9.630000000000004e-06,-0.07058599370612596,-9.630000000000004e-06,-0.08404146717365141,-9.630000000000004e-06,-0.09500610620017394,-9.630000000000004e-06,-0.1029549252896248,-9.630000000000004e-06,-0.1080956576798399,-9.630000000000004e-06,-0.1111309388218345
-9.620000000000004e-06,-0.01292677494917767,-9.620000000000004e-06,-0.02639173476937504,-9.620000000000004e-06,-0.04070867765868742,-9.620000000000004e-06,-0.05569501130228989,-9.620000000000004e-06,-0.07052557408560579,-9.620000000000004e-06,-0.08397209805669656,-9.620000000000004e-06,-0.09492909399051165,-9.620000000000004e-06,-0.1028715546432858,-9.620000000000004e-06,-0.1080074636909181,-9.620000000000004e-06,-0.1110395025790097
-9.610000000000005e-06,-0.01291427290137279,-9.610000000000005e-06,-0.02636652444813177,-9.610000000000005e-06,-0.04067075216558952,-9.610000000000005e-06,-0.0556450897698372,-9.610000000000005e-06,-0.07046511358524217,-9.610000000000005e-06,-0.08390267618594634,-9.610000000000005e-06,-0.09485201966534698,-9.610000000000005e-06,-0.1027881158420592,-9.610000000000005e-06,-0.1079191986032441,-9.610000000000005e-06,-0.1109479942754615
-9.600000000000005e-06,-0.01290176677921033,-9.600000000000005e-06,-0.026341304771694,-9.600000000000005e-06,-0.04063280947120446,-9.600000000000005e-06,-0.05559514005832306,-9.600000000000005e-06,-0.07040461224467318,-9.600000000000005e-06,-0.08383320159739413,-9.600000000000005e-06,-0.09477488326026924,-9.600000000000005e-06,-0.1027046089266421,-9.600000000000005e-06,-0.1078308624657784,-9.600000000000005e-06,-0.1108564139675105
-9.590000000000005e-06,-0.01288925659252881,-9.590000000000005e-06,-0.02631607576093629,-9.590000000000005e-06,-0.04059484960784474,-9.590000000000005e-06,-0.05554516220746974,-9.590000000000005e-06,-0.07034407010359683,-9.590000000000005e-06,-0.08376367432713311,-9.590000000000005e-06,-0.0946976848109385,-9.590000000000005e-06,-0.1026210339378438,-9.590000000000005e-06,-0.107742455327581,-9.590000000000005e-06,-0.1107647617115436
-9.580000000000005e-06,-0.01287674235115714,-9.580000000000005e-06,-0.0262908374367103,-9.580000000000005e-06,-0.04055687260779796,-9.580000000000005e-06,-0.05549515625700673,-9.580000000000005e-06,-0.07028348720175956,-9.580000000000005e-06,-0.08369409441131889,-9.580000000000005e-06,-0.0946204243531429,-9.580000000000005e-06,-0.1025373909165824,-9.580000000000005e-06,-0.1076539772378192,-9.580000000000005e-06,-0.110673037564039
-9.570000000000005e-06,-0.01286422406490753,-9.570000000000005e-06,-0.02626558981984614,-9.570000000000005e-06,-0.04051887850333995,-9.570000000000005e-06,-0.05544512224668935,-9.570000000000005e-06,-0.07022286357894993,-9.570000000000005e-06,-0.08362446188617892,-9.570000000000005e-06,-0.09454310192274892,-9.570000000000005e-06,-0.1024536799038931,-9.570000000000005e-06,-0.1075654282457721,-9.570000000000005e-06,-0.1105812415815533
-9.560000000000005e-06,-0.01285170174358398,-9.560000000000005e-06,-0.02624033293115045,-9.560000000000005e-06,-0.04048086732673445,-9.560000000000005e-06,-0.05539506021627029,-9.560000000000005e-06,-0.07016219927501578,-9.560000000000005e-06,-0.08355477678803537,-9.560000000000005e-06,-0.0944657175557285,-9.560000000000005e-06,-0.1023699009409172,-9.560000000000005e-06,-0.1074768084008105,-9.560000000000005e-06,-0.1104893738207148
