;Version, 1, 0
;/M0/D (L=5e-07),;/M0/D (L=1e-06),;/M0/D (L=1.5e-06),;/M0/D (L=2e-06),;/M0/D (L=2.5e-06),;/M0/D (L=3e-06),;/M0/D (L=3.5e-06),;/M0/D (L=4e-06),;/M0/D (L=4.5e-06),;/M0/D (L=5e-06)
;X, Y,;X, Y,;X, Y,;X, Y,;X, Y,;X, Y,;X, Y,;X, Y,;X, Y,;X, Y
;Re, Re,;Re, Re,;Re, Re,;Re, Re,;Re, Re,;Re, Re,;Re, Re,;Re, Re,;Re, Re,;Re, Re
;vds, I,;vds, I,;vds, I,;vds, I,;vds, I,;vds, I,;vds, I,;vds, I,;vds, I,;vds, I
;xunit, A,;xunit, A,;xunit, A,;xunit, A,;xunit, A,;xunit, A,;xunit, A,;xunit, A,;xunit, A,;xunit, A
0,0,0,0,0,0,0,0,0,0,0,0,0,0,0,0,0,0,0,0
0.036,0.000894479447525754,0.036,0.0004888494864318476,0.036,0.0003363901721152605,0.036,0.0002564326882588583,0.036,0.0002071901814527394,0.036,0.0001738146501190509,0.036,0.0001497007390984548,0.036,0.0001314628616570489,0.036,0.0001171863998006257,0.036,0.0001057070704627664
0.07200000000000001,0.001755011920982893,0.07200000000000001,0.0009613927311776536,0.07200000000000001,0.0006622418517399783,0.07200000000000001,0.0005051281707167948,0.07200000000000001,0.0004082839209652658,0.07200000000000001,0.0003426060082905371,0.07200000000000001,0.0002951331234222629,0.07200000000000001,0.0002592166118608342,0.07200000000000001,0.0002310942410813226,0.07200000000000001,0.0002084770954912334
0.108,0.002581983330784639,0.108,0.001417733250289638,0.108,0.0009776018208860027,0.108,0.0007461129062849041,0.108,0.0006032981851859538,0.108,0.0005063858641139938,0.108,0.0004363058151656305,0.108,0.0003832678813204204,0.108,0.0003417287613561696,0.108,0.0003083143160388832
0.144,0.003375773760143359,0.144,0.001857973685474757,0.144,0.001282516585075955,0.144,0.0009794132333681544,0.144,0.0007922498778615307,0.144,0.0006651659703229229,0.144,0.0005732274530983835,0.144,0.0005036232849479942,0.144,0.0004490951869877449,0.144,0.0004052229648966475
0.18,0.004136757574645925,0.18,0.00228221581330814,0.18,0.001577032375384324,0.18,0.001205055370552146,0.18,0.0009751558401297938,0.18,0.0008189580429302746,0.18,0.0007059066526465885,0.18,0.0006202894219073759,0.18,0.0005531987332182829,0.18,0.000499207266714035
0.216,0.004865303529364319,0.216,0.0026905605543288,0.216,0.001861195150459015,0.216,0.001423065417283697,0.216,0.001152032850809216,0.216,0.0009677737613717455,0.216,0.0008343520059713501,0.216,0.0007332728756608563,0.216,0.0006540446041992411,0.216,0.0005902714380186936
0.252,0.005561774873567396,0.252,0.003083107982020826,0.252,0.002135050598525064,0.252,0.001633469354546787,0.252,0.001322897626686933,0.252,0.001111624768648413,0.252,0.0009585720820472859,0.252,0.0008425802140158668,0.252,0.0007516379930207588,0.252,0.0006784196872359218
0.288,0.006226529453096207,0.288,0.003459957331681742,0.288,0.0023986441393707,0.288,0.001836293045533911,0.288,0.001487766822805143,0.288,0.001250522671468699,0.288,0.001078575426740688,0.288,0.000948217989171487,0.288,0.0008459840817410347,0.288,0.0007636562147081182
0.3240000000000001,0.006859919810463493,0.3240000000000001,0.003821207009179681,0.3240000000000001,0.002652020926315908,0.3240000000000001,0.002031562236312874,0.3240000000000001,0.001646657032745919,0.3240000000000001,0.001384479040389666,0.3240000000000001,0.001194370562887369,0.3240000000000001,0.001050192737764781,0.3240000000000001,0.0009370880414156056,0.3240000000000001,0.0008459852127141798
0.3600000000000001,0.007462293282736159,0.3600000000000001,0.004166954599600997,0.3600000000000001,0.002895225848163727,0.3600000000000001,0.002219302556489053,0.3600000000000001,0.001799584788914446,0.3600000000000001,0.001513505409957662,0.3600000000000001,0.001305965990370187,0.3600000000000001,0.001148510980916973,0.3600000000000001,0.00102495503212653,0.3600000000000001,0.00092541086548884
0.3960000000000001,0.00803399209725782,0.3960000000000001,0.004497296875789908,0.3960000000000001,0.003128303531134388,0.3960000000000001,0.002399539519863185,0.3960000000000001,0.0019465665628207,0.3960000000000001,0.001637613278848309,0.3960000000000001,0.001413370186196268,0.3960000000000001,0.001243179224279454,0.3960000000000001,0.001109590203011485,0.3960000000000001,0.001001937349241956
0.4320000000000002,0.0085753534652668,0.4320000000000002,0.004812329806781743,0.4320000000000002,0.003351298340782536,0.4320000000000002,0.002572298525084683,0.4320000000000002,0.002087618765359554,0.4320000000000002,0.001756814110005826,0.4320000000000002,0.001516591604573905,0.4320000000000002,0.001334203958079631,0.4320000000000002,0.001190998692292762,0.4320000000000002,0.001075568832177736
0.4680000000000002,0.009086709673463356,0.4680000000000002,0.005112148566131338,0.4680000000000002,0.003564254383897665,0.4680000000000002,0.002737604856300548,0.4680000000000002,0.002222757747089358,0.4680000000000002,0.001871119330781723,0.4680000000000002,0.001615638676989157,0.4680000000000002,0.00142159165716661,0.4680000000000002,0.001269185627306178,0.4680000000000002,0.001146309474513915
0.5040000000000002,0.009568388173578388,0.5040000000000002,0.005396847540138086,0.5040000000000002,0.003767215510387956,0.5040000000000002,0.002895483683799892,0.5040000000000002,0.002351999798508976,0.5040000000000002,0.00198054033307283,0.5040000000000002,0.001710519812282136,0.5040000000000002,0.001505348781056714,0.5040000000000002,0.001344156124529893,0.5040000000000002,0.001214163428500872
0.5400000000000003,0.01002071166999431,0.5400000000000003,0.005666520335969165,0.5400000000000003,0.00396022531514767,0.5400000000000003,0.003045960064654122,0.5400000000000003,0.002475361150333303,0.5400000000000003,0.002085088473458699,0.5400000000000003,0.00180124339672298,0.5400000000000003,0.001585481773978843,0.5400000000000003,0.001415915289613132,0.5400000000000003,0.001279134838440694
0.5760000000000003,0.01044399820546732,0.5760000000000003,0.005921259789682358,0.5760000000000003,0.004143327139908289,0.5760000000000003,0.003189058943352785,0.5760000000000003,0.002592857973767251,0.5760000000000003,0.002184775073338361,0.5760000000000003,0.001887817794087537,0.5760000000000003,0.001661997064919677,0.5760000000000003,0.001484468217404823,0.5760000000000003,0.001341227840706187
0.6120000000000003,0.01083856124499894,0.6120000000000003,0.006161157974149973,0.6120000000000003,0.004316564075073553,0.6120000000000003,0.003324805152435165,0.6120000000000003,0.002704506380778255,0.6120000000000003,0.002279611419066447,0.6120000000000003,0.001970251345732726,0.6120000000000003,0.001734901067668706,0.6120000000000003,0.001549819991982134,0.6120000000000003,0.001400446563759829
0.6480000000000004,0.01120470975790317,0.6480000000000004,0.006386306206885242,0.6480000000000004,0.004479978961538553,0.6480000000000004,0.003453223413117608,0.6480000000000004,0.002810322424367261,0.6480000000000004,0.00236960876208868,0.6480000000000004,0.002048552370671606,0.6480000000000004,0.001804200180863113,0.6480000000000004,0.001611975686678933,0.6480000000000004,0.001456795128172673
0.6840000000000004,0.01154274829811451,0.6840000000000004,0.006596795057772597,0.6840000000000004,0.004633614392493043,0.6840000000000004,0.003574338335916646,0.6840000000000004,0.002910322098838238,0.6840000000000004,0.002454778319076738,0.6840000000000004,0.002122729165648141,0.6840000000000004,0.001869900788032497,0.6840000000000004,0.001670940364114143,0.6840000000000004,0.00151027764664319
0.7200000000000004,0.01185297708278061,0.7200000000000004,0.006792714356703218,0.7200000000000004,0.004777512715209148,0.7200000000000004,0.003688174421267927,0.7200000000000004,0.00300452134006621,0.7200000000000004,0.002535131272062494,0.7200000000000004,0.002192790005211667,0.7200000000000004,0.001932009257643425,0.7200000000000004,0.001726719076220024,0.7200000000000004,0.001560898224016061
0.7560000000000004,0.01213569206918214,0.7560000000000004,0.006974153201117181,0.7560000000000004,0.004911716032813602,0.7560000000000004,0.003794756060141028,0.7560000000000004,0.003092936025763821,0.7560000000000004,0.00261067876857163,0.7560000000000004,0.002258743141791056,0.7560000000000004,0.001990531943143843,0.7560000000000004,0.001779316864270345,0.7560000000000004,0.001608660957300921
0.7920000000000005,0.01239118503002131,0.7920000000000005,0.007141199963453576,0.7920000000000005,0.005036266206044694,0.7920000000000005,0.003894107534650101,0.7920000000000005,0.00317558197574645,0.7920000000000005,0.002681431921756637,0.7920000000000005,0.002320596805768586,0.7920000000000005,0.00204547518300732,0.7920000000000005,0.001828738758908485,0.7920000000000005,0.001653569935691037
0.8280000000000005,0.01261974362711912,0.8280000000000005,0.00729394229850983,0.8280000000000005,0.00515120485499403,0.8280000000000005,0.003986253018660491,0.8280000000000005,0.00325247495219586,0.8280000000000005,0.002747401810529204,0.8280000000000005,0.002378359205553514,0.8280000000000005,0.002096845300777139,0.8280000000000005,0.00187498978017544,0.8280000000000005,0.001695629240581946
0.8640000000000005,0.01281818213046854,0.8640000000000005,0.007432467150711623,0.8640000000000005,0.005256573360833358,0.8640000000000005,0.004071216578391262,0.8640000000000005,0.003323630659922423,0.8640000000000005,0.002808599479691981,0.8640000000000005,0.002432038527655357,0.8640000000000005,0.002144648605110228,0.8640000000000005,0.001918074937537732,0.8640000000000005,0.001734842945590025
0.9000000000000006,0.01296706941919505,0.9000000000000006,0.007556860761294549,0.9000000000000006,0.005352412867526471,0.9000000000000006,0.004149022173013716,0.9000000000000006,0.003389064746625907,0.9000000000000006,0.002865035940069754,0.9000000000000006,0.002481642936756877,0.9000000000000006,0.002188891389820946,0.9000000000000006,0.001957999229915249,0.9000000000000006,0.001771215116571024
0.9360000000000006,0.01307942576330256,0.9360000000000006,0.007667208675398879,0.9360000000000006,0.005438764283526476,0.9360000000000006,0.004219693655245938,0.9360000000000006,0.003448792803154847,0.9360000000000006,0.00291672216864,0.9360000000000006,0.002527180575786774,0.9360000000000006,0.002229579933924706,0.9360000000000006,0.001994767645708973,0.9360000000000006,0.001804749811638533
0.9720000000000006,0.01316723278890356,0.9720000000000006,0.007763595749078552,0.9720000000000006,0.005515668283458468,0.9720000000000006,0.004283254771943358,0.9720000000000006,0.003502830363764496,0.9720000000000006,0.002963669108662846,0.9720000000000006,0.002568659565992091,0.9720000000000006,0.002266720501681435,0.9720000000000006,0.00202838516282864,0.9720000000000006,0.001835451081182404
1.008000000000001,0.01323774878255346,1.008000000000001,0.007846106156225621,1.008000000000001,0.005583165309787823,1.008000000000001,0.00433972916468539,1.008000000000001,0.00355119290637338,1.008000000000001,0.003005887669810427,1.008000000000001,0.002606088007010328,1.008000000000001,0.002300319342638913,1.008000000000001,0.002058856748720308,1.008000000000001,0.00186332296788712
1.044000000000001,0.01329562739995638,1.044000000000001,0.007913899330049446,1.044000000000001,0.005641295574474222,1.044000000000001,0.004389140370358197,1.044000000000001,0.003593895852818458,1.044000000000001,0.003043388728295663,1.044000000000001,0.002639473976941274,1.044000000000001,0.002330382691675925,1.044000000000001,0.002086187360393832,1.044000000000001,0.0018883695067501
1.080000000000001,0.01334398981807246,1.080000000000001,0.007963932433362594,1.080000000000001,0.005690099060611517,1.080000000000001,0.004431511821733574,1.080000000000001,0.003630954569108889,1.080000000000001,0.003076183127000406,1.080000000000001,0.002668825532418536,1.080000000000001,0.002356916769045269,1.080000000000001,0.002110381944450257,1.080000000000001,0.001910594725099971
1.116000000000001,0.01338500757108896,1.116000000000001,0.008001634350657681,1.116000000000001,0.005729615524044854,1.116000000000001,0.004466866848043967,1.116000000000001,0.003662384365678435,1.116000000000001,0.00310428167560306,1.116000000000001,0.002694150708680815,1.116000000000001,0.00237992778041664,1.116000000000001,0.002131445437109129,1.116000000000001,0.001930002642614778
1.152000000000001,0.01342023819053491,1.152000000000001,0.008031063934028365,1.152000000000001,0.005759438336621411,1.152000000000001,0.004495228675553729,1.152000000000001,0.003688200497636479,1.152000000000001,0.003127695150705551,1.152000000000001,0.002715457519642857,1.152000000000001,0.002399421916919318,1.152000000000001,0.002149382764235709,1.152000000000001,0.001946597271340135
1.188000000000001,0.01345082789001946,1.188000000000001,0.008054674840622729,1.188000000000001,0.005781356059910946,1.188000000000001,0.004516682142696654,1.188000000000001,0.003708418165017694,1.188000000000001,0.003146434295959748,1.188000000000001,0.002732753957966154,1.188000000000001,0.002415405355184745,1.188000000000001,0.002164198841368113,1.188000000000001,0.001960382615707336
1.224000000000001,0.01347763893394126,1.224000000000001,0.008074037663718987,1.224000000000001,0.005798143555591281,1.224000000000001,0.004532220286922693,1.224000000000001,0.003723155061113137,1.224000000000001,0.003160509822193302,1.224000000000001,0.002746047995129354,1.224000000000001,0.00242788425738893,1.224000000000001,0.002175898573744357,1.224000000000001,0.001971362672551415
1.260000000000001,0.01350133243724799,1.260000000000001,0.008090204404690328,1.260000000000001,0.00581141351637756,1.260000000000001,0.004543860372482438,1.260000000000001,0.003733696426278622,1.260000000000001,0.003170250691954578,1.260000000000001,0.002755353042738922,1.260000000000001,0.002436864771294706,1.260000000000001,0.002184486856329321,1.260000000000001,0.001979541431129134
1.296000000000001,0.01352242378845909,1.296000000000001,0.0081039061931544,1.296000000000001,0.005822166808753859,1.296000000000001,0.004552905935335025,1.296000000000001,0.003741572214189217,1.296000000000001,0.003177248631213166,1.296000000000001,0.002761654906790339,1.296000000000001,0.002442667439918915,1.296000000000001,0.002190021838927177,1.296000000000001,0.001984922873136852
1.332000000000001,0.01354132070481726,1.332000000000001,0.008115666956076985,1.332000000000001,0.005831057482665902,1.332000000000001,0.004560137586788771,1.332000000000001,0.00374768013916617,1.332000000000001,0.003182527627997615,1.332000000000001,0.002766289959128089,1.332000000000001,0.00244678479894884,1.332000000000001,0.002193712755950236,1.332000000000001,0.001988256350823773
1.368000000000001,0.01355834995404848,1.368000000000001,0.00812587196304991,1.368000000000001,0.005838531017384378,1.368000000000001,0.004566051332244491,1.368000000000001,0.003752555491161729,1.368000000000001,0.003186651866990195,1.368000000000001,0.002769842367476457,1.368000000000001,0.002449886529614353,1.368000000000001,0.002196450260138545,1.368000000000001,0.00199069379101137
1.404000000000001,0.01357377649431405,1.404000000000001,0.008134810849399009,1.404000000000001,0.005844901321967692,1.404000000000001,0.004570977443086802,1.404000000000001,0.003756537265363285,1.404000000000001,0.003189962981793135,1.404000000000001,0.002772651876141747,1.404000000000001,0.002452307248579452,1.404000000000001,0.002198561601227937,1.404000000000001,0.001992553875658702
1.440000000000001,0.01358781742877616,1.440000000000001,0.008142705556069947,1.440000000000001,0.005850395968697284,1.440000000000001,0.004575144342466961,1.440000000000001,0.003759850584404132,1.440000000000001,0.003192679940353559,1.440000000000001,0.002774929537558606,1.440000000000001,0.002454249124477804,1.440000000000001,0.002200239638008725,1.440000000000001,0.001994020086347654
1.476000000000001,0.01360065234292842,1.476000000000001,0.008149729014980372,1.476000000000001,0.005855183965763824,1.476000000000001,0.00457871505486517,1.476000000000001,0.00376265080806661,1.476000000000001,0.003194949564914798,1.476000000000001,0.002776813375198746,1.476000000000001,0.002455841509109926,1.476000000000001,0.002201605402593258,1.476000000000001,0.001995205605221358
1.512000000000001,0.01361243107338155,1.512000000000001,0.008156017969016374,1.512000000000001,0.005859393457330877,1.512000000000001,0.004581809047701685,1.512000000000001,0.003765048613613983,1.512000000000001,0.003196873984055067,1.512000000000001,0.00277839745577112,1.512000000000001,0.002457171013127323,1.512000000000001,0.002202738690390633,1.512000000000001,0.001996184040256219
1.548000000000001,0.01362327962316867,1.548000000000001,0.008161681967883276,1.548000000000001,0.005863123370042023,1.548000000000001,0.00458451586753236,1.548000000000001,0.003767124981998378,1.548000000000001,0.00319852643631546,1.548000000000001,0.002779748097550808,1.548000000000001,0.002458297812478946,1.548000000000001,0.002203694243761872,1.548000000000001,0.001997005331274082
1.584000000000001,0.01363330471996677,1.584000000000001,0.008166809807626458,1.584000000000001,0.005866451291136892,1.584000000000001,0.00458690395527901,1.584000000000001,0.003768940531697406,1.584000000000001,0.003199960810962907,1.584000000000001,0.002780913399419624,1.584000000000001,0.002459265018698452,1.584000000000001,0.002204510868695939,1.584000000000001,0.001997704555057521
1.620000000000001,0.0136425973674545,1.620000000000001,0.008171474222999568,1.620000000000001,0.005869438927923072,1.620000000000001,0.004589026518327369,1.620000000000001,0.003770541540307061,1.620000000000001,0.003201217642071006,1.620000000000001,0.002781929095453071,1.620000000000001,0.002460104327278537,1.620000000000001,0.002205216840549757,1.620000000000001,0.001998307071830623
1.656000000000001,0.01365123564063794,1.656000000000001,0.008175735361792377,1.656000000000001,0.005872135972734867,1.656000000000001,0.004590925545455311,1.656000000000001,0.003771963948611816,1.656000000000001,0.003202328004361774,1.656000000000001,0.002782822288271246,1.656000000000001,0.002460839561792798,1.656000000000001,0.002205833249180686,1.656000000000001,0.001998831671812368
1.692000000000001,0.01365928690729884,1.692000000000001,0.008179643394717698,1.692000000000001,0.005874582891476315,1.692000000000001,0.004592634615540746,1.692000000000001,0.003773236094051121,1.692000000000001,0.003203316120478462,1.692000000000001,0.00278361390675226,1.692000000000001,0.002461488974873088,1.692000000000001,0.002206376145123394,1.692000000000001,0.001999292573393042
1.728000000000001,0.01366680960955079,1.728000000000001,0.008183240501820345,1.728000000000001,0.00587681296998759,1.728000000000001,0.004594180902676477,1.728000000000001,0.003774380620351408,1.728000000000001,0.003204201150945033,1.728000000000001,0.002784320369223266,1.728000000000001,0.002462066786667817,1.728000000000001,0.002206857959899002,1.728000000000001,0.001999700733864737
1.764000000000001,0.01367385470522137,1.764000000000001,0.008186562402586743,1.764000000000001,0.005878853838905298,1.764000000000001,0.004595586633717784,1.764000000000001,0.003775415839145004,1.764000000000001,0.003204998450879012,1.764000000000001,0.002784954736468376,1.764000000000001,0.002462584240156536,1.764000000000001,0.002207288471588407,1.764000000000001,0.002000064733666938
1.8,0.01368046684406897,1.8,0.008189639547640315,1.8,0.005880728625763706,1.8,0.004596870165122652,1.8,0.003776356718677729,1.8,0.003205720470026884,1.8,0.002785527528254542,1.8,0.00246305034153299,1.8,0.002207675476921719,1.8,0.002000391387716847
