;Version, 1, 0
;/M0/D (L=5e-07),;/M0/D (L=1e-06),;/M0/D (L=1.5e-06),;/M0/D (L=2e-06),;/M0/D (L=2.5e-06),;/M0/D (L=3e-06),;/M0/D (L=3.5e-06),;/M0/D (L=4e-06),;/M0/D (L=4.5e-06),;/M0/D (L=5e-06)
;X, Y,;X, Y,;X, Y,;X, Y,;X, Y,;X, Y,;X, Y,;X, Y,;X, Y,;X, Y
;Re, Re,;Re, Re,;Re, Re,;Re, Re,;Re, Re,;Re, Re,;Re, Re,;Re, Re,;Re, Re,;Re, Re
;vds, I,;vds, I,;vds, I,;vds, I,;vds, I,;vds, I,;vds, I,;vds, I,;vds, I,;vds, I
;xunit, A,;xunit, A,;xunit, A,;xunit, A,;xunit, A,;xunit, A,;xunit, A,;xunit, A,;xunit, A,;xunit, A
0,0,0,0,0,0,0,0,0,0,0,0,0,0,0,0,0,0,0,0
0.036,5.646348712144718e-05,0.036,3.148735898612717e-05,0.036,2.169937382044958e-05,0.036,1.653705425044486e-05,0.036,1.335485368972366e-05,0.036,1.119831690742102e-05,0.036,9.640844656289426e-06,0.036,8.463429756432882e-06,0.036,7.542160706231139e-06,0.036,6.801686931078599e-06
0.07200000000000001,8.026480910020685e-05,0.07200000000000001,4.561752629451392e-05,0.07200000000000001,3.158890589439981e-05,0.07200000000000001,2.412491620782794e-05,0.07200000000000001,1.950555983263573e-05,0.07200000000000001,1.636802005536535e-05,0.07200000000000001,1.409878378002912e-05,0.07200000000000001,1.238157147864097e-05,0.07200000000000001,1.103695004056658e-05,0.07200000000000001,9.955598175514711e-06
0.108,8.305196128506155e-05,0.108,4.69804510245156e-05,0.108,3.248940981338529e-05,0.108,2.479569768343677e-05,0.108,2.003942070586945e-05,0.108,1.681114237721111e-05,0.108,1.447742055447902e-05,0.108,1.271205010157372e-05,0.108,1.133010709431703e-05,0.108,1.021898938823934e-05
0.144,8.453376483540689e-05,0.144,4.741670322350008e-05,0.144,3.269309544614032e-05,0.144,2.491298684771149e-05,0.144,2.011551840136567e-05,0.144,1.686446303364341e-05,0.144,1.451684325541746e-05,0.144,1.274237543505924e-05,0.144,1.135415527728991e-05,0.144,1.023852510856912e-05
0.18,8.553208128785855e-05,0.18,4.770577863503007e-05,0.18,3.28274172760227e-05,0.18,2.499015494856432e-05,0.18,2.016551876035736e-05,0.18,1.689946810938689e-05,0.18,1.454270967514875e-05,0.18,1.276226498121466e-05,0.18,1.136992342402355e-05,0.18,1.025133193797943e-05
0.216,8.625126248825407e-05,0.216,4.791144341977411e-05,0.216,3.292267799437311e-05,0.216,2.50448013479009e-05,0.216,2.020089765940081e-05,0.216,1.692422485856607e-05,0.216,1.456099791561932e-05,0.216,1.277632494395929e-05,0.216,1.138106886512497e-05,0.216,1.0260383821908e-05
0.252,8.679471917884581e-05,0.252,4.806527572157472e-05,0.252,3.299377297997468e-05,0.252,2.508554507101775e-05,0.252,2.022726269638374e-05,0.252,1.694266935220056e-05,0.252,1.457462155204646e-05,0.252,1.278679839628862e-05,0.252,1.138937141974951e-05,0.252,1.026712722472243e-05
0.288,8.722039616125904e-05,0.288,4.818469976379049e-05,0.288,3.304887821517137e-05,0.288,2.511710471947691e-05,0.288,2.024767900733885e-05,0.288,1.695695078868035e-05,0.288,1.458517025397893e-05,0.288,1.279490845953837e-05,0.288,1.13958011501069e-05,0.288,1.027235021738201e-05
0.3240000000000001,8.756328494777896e-05,0.3240000000000001,4.828011685458842e-05,0.3240000000000001,3.309285523818588e-05,0.3240000000000001,2.514228058195875e-05,0.3240000000000001,2.026396349425569e-05,0.3240000000000001,1.696834213356203e-05,0.3240000000000001,1.459358504278114e-05,0.3240000000000001,1.280137885783927e-05,0.3240000000000001,1.140093184584458e-05,0.3240000000000001,1.027651880968811e-05
0.3600000000000001,8.78457650703745e-05,0.3600000000000001,4.835811976786282e-05,0.3600000000000001,3.312877613422368e-05,0.3600000000000001,2.516283954120684e-05,0.3600000000000001,2.027726151980703e-05,0.3600000000000001,1.697764536702956e-05,0.3600000000000001,1.460045850917999e-05,0.3600000000000001,1.280666518944592e-05,0.3600000000000001,1.140512462180028e-05,0.3600000000000001,1.027992622070724e-05
0.3960000000000001,8.808281656273276e-05,0.3960000000000001,4.842308971858889e-05,0.3960000000000001,3.315867749137959e-05,0.3960000000000001,2.517995151300601e-05,0.3960000000000001,2.028833092088223e-05,0.3960000000000001,1.698539086668996e-05,0.3960000000000001,1.460618241622411e-05,0.3960000000000001,1.281106857039206e-05,0.3960000000000001,1.140861809658945e-05,0.3960000000000001,1.028276617069757e-05
0.4320000000000002,8.828484465670521e-05,0.4320000000000002,4.847805195040567e-05,0.4320000000000002,3.318396278254589e-05,0.4320000000000002,2.519442192686998e-05,0.4320000000000002,2.0297693122437e-05,0.4320000000000002,1.699194341054146e-05,0.4320000000000002,1.461102612940221e-05,0.4320000000000002,1.281479599428495e-05,0.4320000000000002,1.141157627310905e-05,0.4320000000000002,1.028517178478226e-05
0.4680000000000002,8.845930229819353e-05,0.4680000000000002,4.852516264698135e-05,0.4680000000000002,3.320563064512067e-05,0.4680000000000002,2.520682341349836e-05,0.4680000000000002,2.030571865572461e-05,0.4680000000000002,1.699756212868106e-05,0.4680000000000002,1.461518095404531e-05,0.4680000000000002,1.281799444258883e-05,0.4680000000000002,1.141411558915749e-05,0.4680000000000002,1.028723756706754e-05
0.5040000000000002,8.861166786354864e-05,0.5040000000000002,4.856600008977082e-05,0.5040000000000002,3.322441103253579e-05,0.5040000000000002,2.521757424597399e-05,0.5040000000000002,2.031267805916183e-05,0.5040000000000002,1.700243616845389e-05,0.5040000000000002,1.461878650171191e-05,0.5040000000000002,1.282077116340749e-05,0.5040000000000002,1.141632099555821e-05,0.5040000000000002,1.028903245901053e-05
0.5400000000000003,8.874605846127458e-05,0.5400000000000003,4.860174611196846e-05,0.5400000000000003,3.324084988129749e-05,0.5400000000000003,2.522698706663258e-05,0.5400000000000003,2.031877347700965e-05,0.5400000000000003,1.700670682536886e-05,0.5400000000000003,1.46219470459031e-05,0.5400000000000003,1.282320624789424e-05,0.5400000000000003,1.141825592552309e-05,0.5400000000000003,1.029060793509455e-05
0.5760000000000003,8.886562801327571e-05,0.5760000000000003,4.863330322309861e-05,0.5760000000000003,3.325536366007871e-05,0.5760000000000003,2.523530025185151e-05,0.5760000000000003,2.032415898777875e-05,0.5760000000000003,1.701048177532716e-05,0.5760000000000003,1.462474203748307e-05,0.5760000000000003,1.28253607142263e-05,0.5760000000000003,1.141996870180461e-05,0.5760000000000003,1.029200320509794e-05
0.6120000000000003,8.897283335989809e-05,0.6120000000000003,4.866137252699706e-05,0.6120000000000003,3.326827560052355e-05,0.6120000000000003,2.524269872759028e-05,0.6120000000000003,2.032895408894206e-05,0.6120000000000003,1.701384451245559e-05,0.6120000000000003,1.4627233076167e-05,0.6120000000000003,1.28272818661513e-05,0.6120000000000003,1.142149678314687e-05,0.6120000000000003,1.029324866159063e-05
0.6480000000000004,8.906961676245213e-05,0.6480000000000004,4.868650693557757e-05,0.6480000000000004,3.327984040615115e-05,0.6480000000000004,2.524932815545062e-05,0.6480000000000004,2.033325288311786e-05,0.6480000000000004,1.701686077664077e-05,0.6480000000000004,1.462946865741776e-05,0.6480000000000004,1.282900694106671e-05,0.6480000000000004,1.14228696548999e-05,0.6480000000000004,1.029436822645401e-05
0.6840000000000004,8.915753392165048e-05,0.6840000000000004,4.870914835776484e-05,0.6840000000000004,3.329026149900856e-05,0.6840000000000004,2.52553048284007e-05,0.6840000000000004,2.033713048369787e-05,0.6840000000000004,1.701958303441777e-05,0.6840000000000004,1.463148748110659e-05,0.6840000000000004,1.283056565244248e-05,0.6840000000000004,1.142411084333176e-05,0.6840000000000004,1.029538098589823e-05
0.7200000000000004,8.923784558920361e-05,0.7200000000000004,4.872965422456693e-05,0.7200000000000004,3.329970330733814e-05,0.7200000000000004,2.526072271732255e-05,0.7200000000000004,2.034064757468294e-05,0.7200000000000004,1.702205366798658e-05,0.7200000000000004,1.463332080589106e-05,0.7200000000000004,1.283198199874076e-05,0.7200000000000004,1.142523934866293e-05,0.7200000000000004,1.029630235356518e-05
0.7560000000000004,8.931158430575027e-05,0.7560000000000004,4.874831675519428e-05,0.7560000000000004,3.330830018176676e-05,0.7560000000000004,2.526565858165248e-05,0.7560000000000004,2.034385371682696e-05,0.7560000000000004,1.702430728698135e-05,0.7560000000000004,1.463499415570039e-05,0.7560000000000004,1.283327557440437e-05,0.7560000000000004,1.142627068354858e-05,0.7560000000000004,1.029714491333918e-05
0.7920000000000005,8.937960380397948e-05,0.7920000000000005,4.876537718093211e-05,0.7920000000000005,3.331616297215112e-05,0.7920000000000005,2.527017573749294e-05,0.7920000000000005,2.034678978464226e-05,0.7920000000000005,1.702637243220873e-05,0.7920000000000005,1.463652857722895e-05,0.7920000000000005,1.283446253581844e-05,0.7920000000000005,1.142721763819323e-05,0.7920000000000005,1.029791904025906e-05
0.8280000000000005,8.944261611384409e-05,0.8280000000000005,4.878103640244056e-05,0.8280000000000005,3.332338395134592e-05,0.8280000000000005,2.52743268774994e-05,0.8280000000000005,2.034948978971267e-05,0.8280000000000005,1.702827285014393e-05,0.8280000000000005,1.463794158050675e-05,0.8280000000000005,1.283555632375966e-05,0.8280000000000005,1.14280908525454e-05,0.8280000000000005,1.029863336484362e-05
0.8640000000000005,8.950121980208621e-05,0.8640000000000005,4.879546308271334e-05,0.8640000000000005,3.333004055147589e-05,0.8640000000000005,2.527815620990276e-05,0.8640000000000005,2.035198226346665e-05,0.8640000000000005,1.703002845934868e-05,0.8640000000000005,1.463924785203504e-05,0.8640000000000005,1.283656821110962e-05,0.8640000000000005,1.142889925006995e-05,0.8640000000000005,1.029929512507159e-05
0.9000000000000006,8.955592172728104e-05,0.9000000000000006,4.880879986892852e-05,0.9000000000000006,3.33361982344274e-05,0.9000000000000006,2.528170110132302e-05,0.9000000000000006,2.03542913189632e-05,0.9000000000000006,1.703165609245242e-05,0.9000000000000006,1.464045980225347e-05,0.9000000000000006,1.283750772329783e-05,0.9000000000000006,1.142965037070709e-05,0.9000000000000006,1.029991043654457e-05
0.9360000000000006,8.960715398979125e-05,0.9360000000000006,4.882116823075052e-05,0.9360000000000006,3.334191272261663e-05,0.9360000000000006,2.528499335306463e-05,0.9360000000000006,2.03564374756359e-05,0.9360000000000006,1.703317007241572e-05,0.9360000000000006,1.464158799069491e-05,0.9360000000000006,1.283838296478918e-05,0.9360000000000006,1.143035062941119e-05,0.9360000000000006,1.030048450225638e-05
0.9720000000000006,8.965528727900458e-05,0.9720000000000006,4.883267226325851e-05,0.9720000000000006,3.334723175133124e-05,0.9720000000000006,2.528806020339303e-05,0.9720000000000006,2.035843830685152e-05,0.9720000000000006,1.703458266493762e-05,0.9720000000000006,1.464264145973353e-05,0.9720000000000006,1.283920087536117e-05,0.9720000000000006,1.143100551908152e-05,0.9720000000000006,1.030102177723681e-05
1.008000000000001,8.970064149059923e-05,1.008000000000001,4.884340170663275e-05,1.008000000000001,3.335219645935648e-05,1.008000000000001,2.529092512269669e-05,1.008000000000001,2.03603089535673e-05,1.008000000000001,1.703590443727429e-05,1.008000000000001,1.464362799926954e-05,1.008000000000001,1.283996743333649e-05,1.008000000000001,1.143161977148202e-05,1.008000000000001,1.030152609910553e-05
1.044000000000001,8.974349425525241e-05,1.044000000000001,4.885343436749958e-05,1.044000000000001,3.335684250341478e-05,1.044000000000001,2.529360845054735e-05,1.044000000000001,2.036206253578984e-05,1.044000000000001,1.703714454563443e-05,1.044000000000001,1.464455435871122e-05,1.044000000000001,1.284068781833918e-05,1.044000000000001,1.143219748610578e-05,1.044000000000001,1.030200079261562e-05
1.080000000000001,8.97840878554537e-05,1.080000000000001,4.886283807907995e-05,1.080000000000001,3.336120095981867e-05,1.080000000000001,2.529612791097822e-05,1.080000000000001,2.036371048532285e-05,1.080000000000001,1.703831096757104e-05,1.080000000000001,1.464542641837292e-05,1.080000000000001,1.284136654288325e-05,1.080000000000001,1.143274223435725e-05,1.080000000000001,1.030244875416998e-05
1.116000000000001,8.982263488811986e-05,1.116000000000001,4.887167230288827e-05,1.116000000000001,3.336529906080679e-05,1.116000000000001,2.529849903316636e-05,1.116000000000001,2.036526281738289e-05,1.116000000000001,1.703941069165728e-05,1.116000000000001,1.464624932935731e-05,1.116000000000001,1.284200755975903e-05,1.116000000000001,1.143325714456907e-05,1.116000000000001,1.030287252078741e-05
1.152000000000001,8.985932294369163e-05,1.152000000000001,4.887998944962497e-05,1.152000000000001,3.33691608014191e-05,1.152000000000001,2.53007354980502e-05,1.152000000000001,2.036672835435581e-05,1.152000000000001,1.704044987372303e-05,1.152000000000001,1.464702762876751e-05,1.152000000000001,1.28426143504752e-05,1.152000000000001,1.143374497201734e-05,1.152000000000001,1.03032743268974e-05
1.188000000000001,8.989431850797925e-05,1.188000000000001,4.888783597836923e-05,1.188000000000001,3.337280744419701e-05,1.188000000000001,2.530284942650171e-05,1.188000000000001,2.036811491179108e-05,1.188000000000001,1.704143396670932e-05,1.188000000000001,1.464776533545639e-05,1.188000000000001,1.284318999875571e-05,1.188000000000001,1.143420815710299e-05,1.188000000000001,1.030365615153357e-05
1.224000000000001,8.992777024485236e-05,1.224000000000001,4.889525331934248e-05,1.224000000000001,3.337625794260014e-05,1.224000000000001,2.530485162101236e-05,1.224000000000001,2.036942945436391e-05,1.224000000000001,1.704236782954199e-05,1.224000000000001,1.464846603029893e-05,1.224000000000001,1.284373725215273e-05,1.224000000000001,1.143464887412319e-05,1.224000000000001,1.030401975789295e-05
1.260000000000001,8.995981178151439e-05,1.260000000000001,4.890227865509004e-05,1.260000000000001,3.337952929922014e-05,1.260000000000001,2.530675177009553e-05,1.260000000000001,2.03706782277534e-05,1.260000000000001,1.704325581918169e-05,1.260000000000001,1.464913292405447e-05,1.260000000000001,1.284425857413113e-05,1.260000000000001,1.143506907249825e-05,1.260000000000001,1.030436672677427e-05
1.296000000000001,8.99905640904591e-05,1.296000000000001,4.890894558701885e-05,1.296000000000001,3.338263687122028e-05,1.296000000000001,2.530855862251911e-05,1.296000000000001,2.037186687103397e-05,1.296000000000001,1.70441018690628e-05,1.296000000000001,1.464976891518965e-05,1.296000000000001,1.284475618844468e-05,1.296000000000001,1.143547051189543e-05,1.296000000000001,1.030469848506549e-05
1.332000000000001,9.002013754109347e-05,1.332000000000001,4.891528470818991e-05,1.332000000000001,3.338559463264347e-05,1.332000000000001,2.531028013688695e-05,1.332000000000001,2.037300051314751e-05,1.332000000000001,1.704490955641374e-05,1.332000000000001,1.465037663950076e-05,1.332000000000001,1.28452321172166e-05,1.332000000000001,1.143585479236839e-05,1.332000000000001,1.030501633018738e-05
1.368000000000001,9.004863367780695e-05,1.368000000000001,4.892132409863449e-05,1.368000000000001,3.338841540109706e-05,1.368000000000001,2.531192361086617e-05,1.368000000000001,2.03740838562332e-05,1.368000000000001,1.704568216039968e-05,1.368000000000001,1.465095851296768e-05,1.368000000000001,1.2845688213824e-05,1.368000000000001,1.143622338038276e-05,1.368000000000001,1.030532145120037e-05
1.404000000000001,9.007614676881979e-05,1.404000000000001,4.892708975590992e-05,1.404000000000001,3.339111103468246e-05,1.404000000000001,2.531349579341983e-05,1.404000000000001,2.037512124798633e-05,1.404000000000001,1.70464227126047e-05,1.404000000000001,1.465151676895889e-05,1.404000000000001,1.284612619144582e-05,1.404000000000001,1.143657763140909e-05,1.404000000000001,1.030561494712659e-05
1.440000000000001,9.010276516057741e-05,1.440000000000001,4.893260597087267e-05,1.440000000000001,3.339369260377617e-05,1.440000000000001,2.531500298268134e-05,1.440000000000001,2.037611674475047e-05,1.440000000000001,1.704713404104477e-05,1.440000000000001,1.465205349066648e-05,1.440000000000001,1.284654764794959e-05,1.440000000000001,1.143691880961724e-05,1.440000000000001,1.03058978429211e-05
1.476000000000001,9.012857246511668e-05,1.476000000000001,4.893789565654919e-05,1.476000000000001,3.339617054130026e-05,1.476000000000001,2.531645111155352e-05,1.476000000000001,2.03770741666894e-05,1.476000000000001,1.704781880865188e-05,1.476000000000001,1.465257063946503e-05,1.476000000000001,1.284695408764975e-05,1.476000000000001,1.143724810509468e-05,1.476000000000001,1.030617110343463e-05
1.512000000000001,9.015364860220178e-05,1.512000000000001,4.894298063637002e-05,1.512000000000001,3.339855477437514e-05,1.512000000000001,2.531784582268872e-05,1.512000000000001,2.03779971461093e-05,1.512000000000001,1.704847954697831e-05,1.512000000000001,1.465307007974692e-05,1.512000000000001,1.284734694036161e-05,1.512000000000001,1.143756664892435e-05,1.512000000000001,1.030643564564037e-05
1.548000000000001,9.01780707137396e-05,1.548000000000001,4.894788189680078e-05,1.548000000000001,3.340085483967902e-05,1.548000000000001,2.531919253418006e-05,1.548000000000001,2.037888916979124e-05,1.548000000000001,1.704911868572128e-05,1.548000000000001,1.465355360067714e-05,1.548000000000001,1.284772757809171e-05,1.548000000000001,1.143787552639166e-05,1.548000000000001,1.030669234934353e-05
1.584000000000001,9.020191396471764e-05,1.584000000000001,4.895261980846134e-05,1.584000000000001,3.340307998440186e-05,1.584000000000001,2.532049649704521e-05,1.584000000000001,2.037975361603271e-05,1.584000000000001,1.704973857855662e-05,1.584000000000001,1.465402293522798e-05,1.584000000000001,1.284809732964092e-05,1.584000000000001,1.143817578853995e-05,1.584000000000001,1.030694206655152e-05
1.620000000000001,9.022525224243539e-05,1.620000000000001,4.895721431910895e-05,1.620000000000001,3.340523925435149e-05,1.620000000000001,2.532176284539298e-05,1.620000000000001,2.038059378697375e-05,1.620000000000001,1.705034152568365e-05,1.620000000000001,1.465447977679029e-05,1.620000000000001,1.28484574933482e-05,1.620000000000001,1.143846846225449e-05,1.620000000000001,1.030718562965095e-05
1.656000000000001,9.024815876392861e-05,1.656000000000001,4.896168512131638e-05,1.656000000000001,3.340734157051631e-05,1.656000000000001,2.532299664002001e-05,1.656000000000001,2.038141293669017e-05,1.656000000000001,1.70509297934182e-05,1.656000000000001,1.465492579361e-05,1.656000000000001,1.284880934816619e-05,1.656000000000001,1.143875455902644e-05,1.656000000000001,1.030742385851425e-05
1.692000000000001,9.027070660008114e-05,1.692000000000001,4.896605179726392e-05,1.692000000000001,3.34093957951979e-05,1.692000000000001,2.532420290607314e-05,1.692000000000001,2.038221429546474e-05,1.692000000000001,1.705150563112094e-05,1.692000000000001,1.465536264126165e-05,1.692000000000001,1.284915416323082e-05,1.692000000000001,1.143903508252547e-05,1.692000000000001,1.030765756664021e-05
1.728000000000001,9.029296912384898e-05,1.728000000000001,4.897033394275028e-05,1.728000000000001,3.341141078868187e-05,1.728000000000001,2.532538666533104e-05,1.728000000000001,2.038300109059357e-05,1.728000000000001,1.705207128571005e-05,1.728000000000001,1.465579197334248e-05,1.728000000000001,1.284949320606622e-05,1.728000000000001,1.143931103509236e-05,1.728000000000001,1.030788756641905e-05
1.764000000000001,9.031502038921575e-05,1.764000000000001,4.897455127228877e-05,1.764000000000001,3.341339545730202e-05,1.764000000000001,2.532655296359316e-05,1.764000000000001,2.038377656404262e-05,1.764000000000001,1.705262901397876e-05,1.764000000000001,1.465621545054979e-05,1.764000000000001,1.28498277495495e-05,1.764000000000001,1.143958342325084e-05,1.764000000000001,1.030811467360206e-05
1.8,9.033693544687842e-05,1.8,4.89787237069669e-05,1.8,3.341535879366837e-05,1.8,2.532770689361559e-05,1.8,2.038454398723776e-05,1.8,1.70531810929149e-05,1.8,1.465663474828685e-05,1.8,1.285015907774726e-05,1.8,1.143985326232651e-05,1.8,1.03083397110475e-05
