;Version, 1, 0
;/M0/D (M=1),;/M0/D (M=2),;/M0/D (M=3),;/M0/D (M=4),;/M0/D (M=5),;/M0/D (M=6),;/M0/D (M=7),;/M0/D (M=8),;/M0/D (M=9),;/M0/D (M=10),;/M0/D (M=11),;/M0/D (M=12),;/M0/D (M=13),;/M0/D (M=14),;/M0/D (M=15),;/M0/D (M=16),;/M0/D (M=17),;/M0/D (M=18),;/M0/D (M=19),;/M0/D (M=20)
;X, Y,;X, Y,;X, Y,;X, Y,;X, Y,;X, Y,;X, Y,;X, Y,;X, Y,;X, Y,;X, Y,;X, Y,;X, Y,;X, Y,;X, Y,;X, Y,;X, Y,;X, Y,;X, Y,;X, Y
;Re, Re,;Re, Re,;Re, Re,;Re, Re,;Re, Re,;Re, Re,;Re, Re,;Re, Re,;Re, Re,;Re, Re,;Re, Re,;Re, Re,;Re, Re,;Re, Re,;Re, Re,;Re, Re,;Re, Re,;Re, Re,;Re, Re,;Re, Re
;vin, I,;vin, I,;vin, I,;vin, I,;vin, I,;vin, I,;vin, I,;vin, I,;vin, I,;vin, I,;vin, I,;vin, I,;vin, I,;vin, I,;vin, I,;vin, I,;vin, I,;vin, I,;vin, I,;vin, I
;xunit, A,;xunit, A,;xunit, A,;xunit, A,;xunit, A,;xunit, A,;xunit, A,;xunit, A,;xunit, A,;xunit, A,;xunit, A,;xunit, A,;xunit, A,;xunit, A,;xunit, A,;xunit, A,;xunit, A,;xunit, A,;xunit, A,;xunit, A
0,2.793537572615993e-11,0,5.537075145231986e-11,0,8.280612717847981e-11,0,1.102415029046397e-10,0,1.376768786307997e-10,0,1.651122543569596e-10,0,1.925476300831195e-10,0,2.199830058092795e-10,0,2.474183815354394e-10,0,2.748537572615994e-10,0,3.022891329877593e-10,0,3.297245087139192e-10,0,3.571598844400791e-10,0,3.845952601662391e-10,0,4.12030635892399e-10,0,4.394660116185589e-10,0,4.669013873447188e-10,0,4.943367630708789e-10,0,5.217721387970388e-10,0,5.492075145231988e-10
0.001,2.884921836703581e-11,0.001,5.719843673407161e-11,0.001,8.554765510110741e-11,0.001,1.138968734681432e-10,0.001,1.42246091835179e-10,0.001,1.705953102022148e-10,0.001,1.989445285692507e-10,0.001,2.272937469362864e-10,0.001,2.556429653033223e-10,0.001,2.839921836703581e-10,0.001,3.123414020373938e-10,0.001,3.406906204044297e-10,0.001,3.690398387714655e-10,0.001,3.973890571385013e-10,0.001,4.257382755055371e-10,0.001,4.540874938725729e-10,0.001,4.824367122396087e-10,0.001,5.107859306066446e-10,0.001,5.391351489736804e-10,0.001,5.674843673407162e-10
0.002,2.979346221893893e-11,0.002,5.908692443787786e-11,0.002,8.838038665681679e-11,0.002,1.176738488757557e-10,0.002,1.469673110946947e-10,0.002,1.762607733136336e-10,0.002,2.055542355325726e-10,0.002,2.348476977515115e-10,0.002,2.641411599704504e-10,0.002,2.934346221893893e-10,0.002,3.227280844083282e-10,0.002,3.520215466272672e-10,0.002,3.813150088462061e-10,0.002,4.106084710651451e-10,0.002,4.39901933284084e-10,0.002,4.69195395503023e-10,0.002,4.984888577219619e-10,0.002,5.277823199409008e-10,0.002,5.570757821598397e-10,0.002,5.863692443787787e-10
0.003,3.076911672229324e-11,0.003,6.103823344458648e-11,0.003,9.130735016687972e-11,0.003,1.21576466889173e-10,0.003,1.518455836114662e-10,0.003,1.821147003337594e-10,0.003,2.123838170560527e-10,0.003,2.426529337783459e-10,0.003,2.729220505006392e-10,0.003,3.031911672229324e-10,0.003,3.334602839452256e-10,0.003,3.637294006675189e-10,0.003,3.939985173898121e-10,0.003,4.242676341121054e-10,0.003,4.545367508343986e-10,0.003,4.848058675566919e-10,0.003,5.150749842789852e-10,0.003,5.453441010012784e-10,0.003,5.756132177235717e-10,0.003,6.058823344458648e-10
0.004,3.177722473799507e-11,0.004,6.305444947599014e-11,0.004,9.433167421398522e-11,0.004,1.256088989519803e-10,0.004,1.568861236899754e-10,0.004,1.881633484279704e-10,0.004,2.194405731659656e-10,0.004,2.507177979039606e-10,0.004,2.819950226419557e-10,0.004,3.132722473799507e-10,0.004,3.445494721179458e-10,0.004,3.758266968559409e-10,0.004,4.07103921593936e-10,0.004,4.383811463319311e-10,0.004,4.696583710699263e-10,0.004,5.009355958079212e-10,0.004,5.322128205459163e-10,0.004,5.634900452839114e-10,0.004,5.947672700219065e-10,0.004,6.260444947599015e-10
0.005,3.281886364909163e-11,0.005,6.513772729818326e-11,0.005,9.74565909472749e-11,0.005,1.297754545963665e-10,0.005,1.620943182454581e-10,0.005,1.944131818945498e-10,0.005,2.267320455436414e-10,0.005,2.590509091927331e-10,0.005,2.913697728418247e-10,0.005,3.236886364909163e-10,0.005,3.560075001400079e-10,0.005,3.883263637890996e-10,0.005,4.206452274381912e-10,0.005,4.529640910872829e-10,0.005,4.852829547363746e-10,0.005,5.176018183854662e-10,0.005,5.499206820345578e-10,0.005,5.822395456836495e-10,0.005,6.14558409332741e-10,0.005,6.468772729818326e-10
0.006,3.389514649841879e-11,0.006,6.729029299683759e-11,0.006,1.006854394952564e-10,0.006,1.340805859936752e-10,0.006,1.67475732492094e-10,0.006,2.008708789905128e-10,0.006,2.342660254889316e-10,0.006,2.676611719873504e-10,0.006,3.010563184857692e-10,0.006,3.34451464984188e-10,0.006,3.678466114826067e-10,0.006,4.012417579810255e-10,0.006,4.346369044794444e-10,0.006,4.680320509778632e-10,0.006,5.01427197476282e-10,0.006,5.348223439747008e-10,0.006,5.682174904731195e-10,0.006,6.016126369715384e-10,0.006,6.350077834699572e-10,0.006,6.68402929968376e-10
0.007,3.500722316357693e-11,0.007,6.951444632715386e-11,0.007,1.040216694907308e-10,0.007,1.385288926543077e-10,0.007,1.730361158178847e-10,0.007,2.075433389814616e-10,0.007,2.420505621450385e-10,0.007,2.765577853086154e-10,0.007,3.110650084721923e-10,0.007,3.455722316357693e-10,0.007,3.800794547993462e-10,0.007,4.145866779629231e-10,0.007,4.490939011265001e-10,0.007,4.836011242900771e-10,0.007,5.181083474536541e-10,0.007,5.526155706172309e-10,0.007,5.871227937808078e-10,0.007,6.216300169443847e-10,0.007,6.561372401079617e-10,0.007,6.906444632715387e-10
0.008,3.615628157024838e-11,0.008,7.181256314049676e-11,0.008,1.074688447107452e-10,0.008,1.431251262809935e-10,0.008,1.787814078512419e-10,0.008,2.144376894214903e-10,0.008,2.500939709917386e-10,0.008,2.857502525619871e-10,0.008,3.214065341322355e-10,0.008,3.570628157024839e-10,0.008,3.927190972727322e-10,0.008,4.283753788429806e-10,0.008,4.64031660413229e-10,0.008,4.996879419834773e-10,0.008,5.353442235537259e-10,0.008,5.710005051239742e-10,0.008,6.066567866942225e-10,0.008,6.42313068264471e-10,0.008,6.779693498347194e-10,0.008,7.136256314049678e-10
0.009000000000000001,3.734354894533639e-11,0.009000000000000001,7.418709789067278e-11,0.009000000000000001,1.110306468360092e-10,0.009000000000000001,1.478741957813456e-10,0.009000000000000001,1.84717744726682e-10,0.009000000000000001,2.215612936720184e-10,0.009000000000000001,2.584048426173547e-10,0.009000000000000001,2.952483915626911e-10,0.009000000000000001,3.320919405080275e-10,0.009000000000000001,3.689354894533639e-10,0.009000000000000001,4.057790383987003e-10,0.009000000000000001,4.426225873440367e-10,0.009000000000000001,4.794661362893731e-10,0.009000000000000001,5.163096852347095e-10,0.009000000000000001,5.53153234180046e-10,0.009000000000000001,5.899967831253823e-10,0.009000000000000001,6.268403320707187e-10,0.009000000000000001,6.636838810160551e-10,0.009000000000000001,7.005274299613914e-10,0.009000000000000001,7.373709789067279e-10
0.01,3.857029311098567e-11,0.01,7.664058622197134e-11,0.01,1.14710879332957e-10,0.01,1.527811724439427e-10,0.01,1.908514655549284e-10,0.01,2.289217586659141e-10,0.01,2.669920517768997e-10,0.01,3.050623448878854e-10,0.01,3.431326379988711e-10,0.01,3.812029311098568e-10,0.01,4.192732242208424e-10,0.01,4.573435173318281e-10,0.01,4.954138104428138e-10,0.01,5.334841035537995e-10,0.01,5.715543966647851e-10,0.01,6.096246897757708e-10,0.01,6.476949828867565e-10,0.01,6.857652759977422e-10,0.01,7.238355691087279e-10,0.01,7.619058622197136e-10
0.011,3.983782382082313e-11,0.011,7.917564764164626e-11,0.011,1.185134714624694e-10,0.011,1.578512952832925e-10,0.011,1.971891191041157e-10,0.011,2.365269429249387e-10,0.011,2.758647667457619e-10,0.011,3.15202590566585e-10,0.011,3.545404143874081e-10,0.011,3.938782382082313e-10,0.011,4.332160620290543e-10,0.011,4.725538858498775e-10,0.011,5.118917096707007e-10,0.011,5.512295334915238e-10,0.011,5.90567357312347e-10,0.011,6.299051811331701e-10,0.011,6.692430049539931e-10,0.011,7.085808287748163e-10,0.011,7.479186525956394e-10,0.011,7.872564764164627e-10
0.012,4.114749414010703e-11,0.012,8.179498828021407e-11,0.012,1.224424824203211e-10,0.012,1.630899765604281e-10,0.012,2.037374707005352e-10,0.012,2.443849648406422e-10,0.012,2.850324589807492e-10,0.012,3.256799531208563e-10,0.012,3.663274472609633e-10,0.012,4.069749414010703e-10,0.012,4.476224355411774e-10,0.012,4.882699296812845e-10,0.012,5.289174238213916e-10,0.012,5.695649179614985e-10,0.012,6.102124121016056e-10,0.012,6.508599062417126e-10,0.012,6.915074003818196e-10,0.012,7.321548945219266e-10,0.012,7.728023886620337e-10,0.012,8.134498828021407e-10
0.013,4.250070187069757e-11,0.013,8.450140374139514e-11,0.013,1.265021056120927e-10,0.013,1.685028074827903e-10,0.013,2.105035093534879e-10,0.013,2.525042112241855e-10,0.013,2.94504913094883e-10,0.013,3.365056149655806e-10,0.013,3.785063168362781e-10,0.013,4.205070187069757e-10,0.013,4.625077205776733e-10,0.013,5.04508422448371e-10,0.013,5.465091243190685e-10,0.013,5.88509826189766e-10,0.013,6.305105280604636e-10,0.013,6.725112299311612e-10,0.013,7.145119318018587e-10,0.013,7.565126336725563e-10,0.013,7.985133355432538e-10,0.013,8.405140374139515e-10
0.01400000000000001,4.389889102263324e-11,0.01400000000000001,8.729778204526649e-11,0.01400000000000001,1.306966730678998e-10,0.01400000000000001,1.74095564090533e-10,0.01400000000000001,2.174944551131663e-10,0.01400000000000001,2.608933461357995e-10,0.01400000000000001,3.042922371584327e-10,0.01400000000000001,3.47691128181066e-10,0.01400000000000001,3.910900192036993e-10,0.01400000000000001,4.344889102263325e-10,0.01400000000000001,4.778878012489658e-10,0.01400000000000001,5.212866922715991e-10,0.01400000000000001,5.646855832942322e-10,0.01400000000000001,6.080844743168655e-10,0.01400000000000001,6.514833653394988e-10,0.01400000000000001,6.94882256362132e-10,0.01400000000000001,7.382811473847652e-10,0.01400000000000001,7.816800384073986e-10,0.01400000000000001,8.250789294300318e-10,0.01400000000000001,8.684778204526651e-10
0.01500000000000001,4.53435533339253e-11,0.01500000000000001,9.018710666785061e-11,0.01500000000000001,1.350306600017759e-10,0.01500000000000001,1.798742133357012e-10,0.01500000000000001,2.247177666696265e-10,0.01500000000000001,2.695613200035518e-10,0.01500000000000001,3.144048733374771e-10,0.01500000000000001,3.592484266714024e-10,0.01500000000000001,4.040919800053277e-10,0.01500000000000001,4.489355333392531e-10,0.01500000000000001,4.937790866731784e-10,0.01500000000000001,5.386226400071037e-10,0.01500000000000001,5.83466193341029e-10,0.01500000000000001,6.283097466749543e-10,0.01500000000000001,6.731533000088797e-10,0.01500000000000001,7.179968533428049e-10,0.01500000000000001,7.628404066767301e-10,0.01500000000000001,8.076839600106555e-10,0.01500000000000001,8.525275133445809e-10,0.01500000000000001,8.973710666785062e-10
0.01600000000000001,4.683622983956541e-11,0.01600000000000001,9.317245967913082e-11,0.01600000000000001,1.395086895186962e-10,0.01600000000000001,1.858449193582616e-10,0.01600000000000001,2.321811491978271e-10,0.01600000000000001,2.785173790373924e-10,0.01600000000000001,3.248536088769578e-10,0.01600000000000001,3.711898387165233e-10,0.01600000000000001,4.175260685560887e-10,0.01600000000000001,4.638622983956541e-10,0.01600000000000001,5.101985282352196e-10,0.01600000000000001,5.565347580747849e-10,0.01600000000000001,6.028709879143504e-10,0.01600000000000001,6.492072177539157e-10,0.01600000000000001,6.955434475934812e-10,0.01600000000000001,7.418796774330466e-10,0.01600000000000001,7.88215907272612e-10,0.01600000000000001,8.345521371121775e-10,0.01600000000000001,8.808883669517429e-10,0.01600000000000001,9.272245967913083e-10
0.01700000000000001,4.837851249207289e-11,0.01700000000000001,9.625702498414579e-11,0.01700000000000001,1.441355374762187e-10,0.01700000000000001,1.920140499682916e-10,0.01700000000000001,2.398925624603645e-10,0.01700000000000001,2.877710749524374e-10,0.01700000000000001,3.356495874445102e-10,0.01700000000000001,3.835280999365831e-10,0.01700000000000001,4.31406612428656e-10,0.01700000000000001,4.79285124920729e-10,0.01700000000000001,5.271636374128019e-10,0.01700000000000001,5.750421499048748e-10,0.01700000000000001,6.229206623969476e-10,0.01700000000000001,6.707991748890205e-10,0.01700000000000001,7.186776873810934e-10,0.01700000000000001,7.665561998731663e-10,0.01700000000000001,8.144347123652393e-10,0.01700000000000001,8.623132248573121e-10,0.01700000000000001,9.10191737349385e-10,0.01700000000000001,9.580702498414579e-10
0.01800000000000001,4.997204583467867e-11,0.01800000000000001,9.944409166935734e-11,0.01800000000000001,1.48916137504036e-10,0.01800000000000001,1.983881833387147e-10,0.01800000000000001,2.478602291733933e-10,0.01800000000000001,2.973322750080721e-10,0.01800000000000001,3.468043208427507e-10,0.01800000000000001,3.962763666774294e-10,0.01800000000000001,4.457484125121081e-10,0.01800000000000001,4.952204583467868e-10,0.01800000000000001,5.446925041814655e-10,0.01800000000000001,5.941645500161442e-10,0.01800000000000001,6.436365958508228e-10,0.01800000000000001,6.931086416855015e-10,0.01800000000000001,7.425806875201802e-10,0.01800000000000001,7.920527333548588e-10,0.01800000000000001,8.415247791895375e-10,0.01800000000000001,8.909968250242162e-10,0.01800000000000001,9.404688708588948e-10,0.01800000000000001,9.899409166935733e-10
0.01900000000000001,5.161852872903083e-11,0.01900000000000001,1.027370574580617e-10,0.01900000000000001,1.538555861870925e-10,0.01900000000000001,2.049741149161233e-10,0.01900000000000001,2.560926436451541e-10,0.01900000000000001,3.07211172374185e-10,0.01900000000000001,3.583297011032158e-10,0.01900000000000001,4.094482298322466e-10,0.01900000000000001,4.605667585612775e-10,0.01900000000000001,5.116852872903083e-10,0.01900000000000001,5.628038160193391e-10,0.01900000000000001,6.1392234474837e-10,0.01900000000000001,6.650408734774008e-10,0.01900000000000001,7.161594022064316e-10,0.01900000000000001,7.672779309354625e-10,0.01900000000000001,8.183964596644933e-10,0.01900000000000001,8.695149883935241e-10,0.01900000000000001,9.20633517122555e-10,0.01900000000000001,9.717520458515857e-10,0.01900000000000001,1.022870574580617e-09
0.02000000000000001,5.331971613926351e-11,0.02000000000000001,1.06139432278527e-10,0.02000000000000001,1.589591484177906e-10,0.02000000000000001,2.11778864557054e-10,0.02000000000000001,2.645985806963176e-10,0.02000000000000001,3.174182968355811e-10,0.02000000000000001,3.702380129748446e-10,0.02000000000000001,4.230577291141081e-10,0.02000000000000001,4.758774452533716e-10,0.02000000000000001,5.286971613926352e-10,0.02000000000000001,5.815168775318986e-10,0.02000000000000001,6.343365936711623e-10,0.02000000000000001,6.871563098104256e-10,0.02000000000000001,7.399760259496892e-10,0.02000000000000001,7.927957420889527e-10,0.02000000000000001,8.456154582282162e-10,0.02000000000000001,8.984351743674798e-10,0.02000000000000001,9.512548905067431e-10,0.02000000000000001,1.004074606646007e-09,0.02000000000000001,1.05689432278527e-09
0.02100000000000001,5.507742097416751e-11,0.02100000000000001,1.09654841948335e-10,0.02100000000000001,1.642322629225026e-10,0.02100000000000001,2.188096838966701e-10,0.02100000000000001,2.733871048708376e-10,0.02100000000000001,3.279645258450051e-10,0.02100000000000001,3.825419468191726e-10,0.02100000000000001,4.371193677933401e-10,0.02100000000000001,4.916967887675076e-10,0.02100000000000001,5.462742097416752e-10,0.02100000000000001,6.008516307158427e-10,0.02100000000000001,6.554290516900103e-10,0.02100000000000001,7.100064726641777e-10,0.02100000000000001,7.645838936383453e-10,0.02100000000000001,8.191613146125128e-10,0.02100000000000001,8.737387355866803e-10,0.02100000000000001,9.283161565608477e-10,0.02100000000000001,9.828935775350151e-10,0.02100000000000001,1.037470998509183e-09,0.02100000000000001,1.09204841948335e-09
0.02200000000000001,5.689351598910117e-11,0.02200000000000001,1.132870319782023e-10,0.02200000000000001,1.696805479673035e-10,0.02200000000000001,2.260740639564047e-10,0.02200000000000001,2.824675799455058e-10,0.02200000000000001,3.38861095934607e-10,0.02200000000000001,3.952546119237082e-10,0.02200000000000001,4.516481279128094e-10,0.02200000000000001,5.080416439019105e-10,0.02200000000000001,5.644351598910117e-10,0.02200000000000001,6.208286758801128e-10,0.02200000000000001,6.77222191869214e-10,0.02200000000000001,7.336157078583153e-10,0.02200000000000001,7.900092238474164e-10,0.02200000000000001,8.464027398365176e-10,0.02200000000000001,9.027962558256188e-10,0.02200000000000001,9.591897718147198e-10,0.02200000000000001,1.015583287803821e-09,0.02200000000000001,1.071976803792922e-09,0.02200000000000001,1.128370319782023e-09
0.02300000000000001,5.876993575019382e-11,0.02300000000000001,1.170398715003876e-10,0.02300000000000001,1.753098072505815e-10,0.02300000000000001,2.335797430007753e-10,0.02300000000000001,2.918496787509691e-10,0.02300000000000001,3.50119614501163e-10,0.02300000000000001,4.083895502513568e-10,0.02300000000000001,4.666594860015506e-10,0.02300000000000001,5.249294217517443e-10,0.02300000000000001,5.831993575019383e-10,0.02300000000000001,6.41469293252132e-10,0.02300000000000001,6.99739229002326e-10,0.02300000000000001,7.580091647525197e-10,0.02300000000000001,8.162791005027136e-10,0.02300000000000001,8.745490362529074e-10,0.02300000000000001,9.32818972003101e-10,0.02300000000000001,9.910889077532948e-10,0.02300000000000001,1.049358843503489e-09,0.02300000000000001,1.107628779253682e-09,0.02300000000000001,1.165898715003876e-09
0.02400000000000001,6.070867866197737e-11,0.02400000000000001,1.209173573239547e-10,0.02400000000000001,1.811260359859321e-10,0.02400000000000001,2.413347146479095e-10,0.02400000000000001,3.015433933098868e-10,0.02400000000000001,3.617520719718642e-10,0.02400000000000001,4.219607506338416e-10,0.02400000000000001,4.82169429295819e-10,0.02400000000000001,5.423781079577963e-10,0.02400000000000001,6.025867866197737e-10,0.02400000000000001,6.627954652817511e-10,0.02400000000000001,7.230041439437285e-10,0.02400000000000001,7.832128226057058e-10,0.02400000000000001,8.434215012676832e-10,0.02400000000000001,9.036301799296606e-10,0.02400000000000001,9.638388585916379e-10,0.02400000000000001,1.024047537253615e-09,0.02400000000000001,1.084256215915592e-09,0.02400000000000001,1.14446489457757e-09,0.02400000000000001,1.204673573239547e-09
0.02500000000000002,6.271180906122903e-11,0.02500000000000002,1.249236181224581e-10,0.02500000000000002,1.871354271836871e-10,0.02500000000000002,2.493472362449161e-10,0.02500000000000002,3.115590453061452e-10,0.02500000000000002,3.737708543673743e-10,0.02500000000000002,4.359826634286032e-10,0.02500000000000002,4.981944724898323e-10,0.02500000000000002,5.604062815510613e-10,0.02500000000000002,6.226180906122904e-10,0.02500000000000002,6.848298996735193e-10,0.02500000000000002,7.470417087347486e-10,0.02500000000000002,8.092535177959775e-10,0.02500000000000002,8.714653268572065e-10,0.02500000000000002,9.336771359184356e-10,0.02500000000000002,9.958889449796645e-10,0.02500000000000002,1.058100754040893e-09,0.02500000000000002,1.120312563102122e-09,0.02500000000000002,1.182524372163352e-09,0.02500000000000002,1.244736181224581e-09
0.02600000000000002,6.478145937869694e-11,0.02600000000000002,1.290629187573939e-10,0.02600000000000002,1.933443781360908e-10,0.02600000000000002,2.576258375147878e-10,0.02600000000000002,3.219072968934847e-10,0.02600000000000002,3.861887562721816e-10,0.02600000000000002,4.504702156508786e-10,0.02600000000000002,5.147516750295756e-10,0.02600000000000002,5.790331344082724e-10,0.02600000000000002,6.433145937869695e-10,0.02600000000000002,7.075960531656664e-10,0.02600000000000002,7.718775125443633e-10,0.02600000000000002,8.361589719230603e-10,0.02600000000000002,9.004404313017572e-10,0.02600000000000002,9.64721890680454e-10,0.02600000000000002,1.029003350059151e-09,0.02600000000000002,1.093284809437848e-09,0.02600000000000002,1.157566268816545e-09,0.02600000000000002,1.221847728195242e-09,0.02600000000000002,1.286129187573939e-09
