;Version, 1, 0
;/M0/D (vsb=0),;/M0/D (vsb=0.2),;/M0/D (vsb=0.7)
;X, Y,;X, Y,;X, Y
;Re, Re,;Re, Re,;Re, Re
;vin, I,;vin, I,;vin, I
;xunit, A,;xunit, A,;xunit, A
0,9.319897350841619e-11,0,2.237397572271414e-11,0,1.481829740496396e-12
0.0001,9.350199615201717e-11,0.0001,2.244668851429111e-11,0.0001,1.485179152637788e-12
0.0002,9.380600822169479e-11,0.0002,2.251964287920977e-11,0.0002,1.488539993369115e-12
0.0003,9.411101294271239e-11,0.0003,2.259283961931247e-11,0.0003,1.491912301694109e-12
0.0004,9.441701355064723e-11,0.0004,2.266627953915753e-11,0.0004,1.495296116721856e-12
0.0005,9.472401329169999e-11,0.0005,2.273996344594319e-11,0.0005,1.498691477705794e-12
0.0006000000000000001,9.503201542250602e-11,0.0006000000000000001,2.281389214954439e-11,0.0006000000000000001,1.502098424037753e-12
0.0007000000000000001,9.534102321044526e-11,0.0007000000000000001,2.288806646252144e-11,0.0007000000000000001,1.505516995241963e-12
0.0008000000000000001,9.565103993345452e-11,0.0008000000000000001,2.296248720018528e-11,0.0008000000000000001,1.508947230975474e-12
0.0009000000000000002,9.596206888000389e-11,0.0009000000000000002,2.303715518043581e-11,0.0009000000000000002,1.512389171022087e-12
0.001,9.627411334946459e-11,0.001,2.311207122396932e-11,0.001,1.515842855325305e-12
0.0011,9.658717665180845e-11,0.0011,2.318723615420207e-11,0.0011,1.519308323930236e-12
0.0012,9.690126210780876e-11,0.0012,2.326265079719318e-11,0.0012,1.522785617055678e-12
0.0013,9.721637304896169e-11,0.0013,2.333831598188212e-11,0.0013,1.526274775029387e-12
0.0014,9.753251281768834e-11,0.0014,2.341423253983999e-11,0.0014,1.529775838334214e-12
0.0015,9.784968476720088e-11,0.0015,2.349040130542133e-11,0.0015,1.533288847575847e-12
0.001600000000000001,9.816789226176088e-11,0.001600000000000001,2.356682311577305e-11,0.001600000000000001,1.536813843509478e-12
0.001700000000000001,9.848713867632006e-11,0.001700000000000001,2.364349881081496e-11,0.001700000000000001,1.54035086703375e-12
0.001800000000000001,9.880742739700459e-11,0.001800000000000001,2.372042923321918e-11,0.001800000000000001,1.543899959164833e-12
0.001900000000000001,9.912876182086775e-11,0.001900000000000001,2.379761522844831e-11,0.001900000000000001,1.547461161083023e-12
0.002,9.945114535598099e-11,0.002,2.387505764482202e-11,0.002,1.551034514100266e-12
0.0021,9.977458142158179e-11,0.0021,2.395275733343948e-11,0.0021,1.554620059667181e-12
0.0022,1.00099073447938e-10,0.0022,2.403071514821714e-11,0.0022,1.558217839373508e-12
0.0023,1.004246248764966e-10,0.0023,2.410893194589772e-11,0.0023,1.561827894955226e-12
0.0024,1.007512391598612e-10,0.0024,2.41874085860592e-11,0.0024,1.565450268295051e-12
0.0025,1.010789197619985e-10,0.0025,2.426614593115322e-11,0.0025,1.569085001402885e-12
0.002599999999999999,1.014076701579314e-10,0.002599999999999999,2.43451448464851e-11,0.002599999999999999,1.572732136449651e-12
0.002699999999999999,1.017374938340591e-10,0.002699999999999999,2.442440620022291e-11,0.002699999999999999,1.576391715747775e-12
0.002799999999999999,1.020683942881929e-10,0.002799999999999999,2.45039308633772e-11,0.002799999999999999,1.580063781738216e-12
0.002899999999999999,1.024003750293626e-10,0.002899999999999999,2.458371970989833e-11,0.002899999999999999,1.583748377017724e-12
0.002999999999999999,1.027334395781966e-10,0.002999999999999999,2.466377361662708e-11,0.002999999999999999,1.587445544339424e-12
0.003099999999999999,1.030675914664971e-10,0.003099999999999999,2.474409346330395e-11,0.003099999999999999,1.591155326579599e-12
0.003199999999999998,1.034028342378523e-10,0.003199999999999998,2.482468013251915e-11,0.003199999999999998,1.594877766771828e-12
0.003299999999999998,1.037391714471538e-10,0.003299999999999998,2.490553450989937e-11,0.003299999999999998,1.598612908107547e-12
0.003399999999999998,1.040766066609201e-10,0.003399999999999998,2.498665748393973e-11,0.003399999999999998,1.602360793902698e-12
0.003499999999999998,1.0441514345716e-10,0.003499999999999998,2.506804994610201e-11,0.003499999999999998,1.606121467638809e-12
0.003599999999999998,1.04754785425757e-10,0.003599999999999998,2.514971279079444e-11,0.003599999999999998,1.609894972936401e-12
0.003699999999999998,1.050955361679828e-10,0.003699999999999998,2.523164691538105e-11,0.003699999999999998,1.613681353569028e-12
0.003799999999999997,1.05437399296999e-10,0.003799999999999997,2.531385322019099e-11,0.003799999999999997,1.617480653456989e-12
0.003899999999999997,1.057803784376615e-10,0.003899999999999997,2.539633260858814e-11,0.003899999999999997,1.621292916674629e-12
0.003999999999999997,1.061244772264972e-10,0.003999999999999997,2.547908598689086e-11,0.003999999999999997,1.625118187444026e-12
0.004099999999999998,1.064696993120353e-10,0.004099999999999998,2.556211426441144e-11,0.004099999999999998,1.628956510135448e-12
0.004199999999999998,1.068160483544912e-10,0.004199999999999998,2.564541835352571e-11,0.004199999999999998,1.632807929274729e-12
0.004299999999999998,1.071635280260983e-10,0.004299999999999998,2.572899916959275e-11,0.004299999999999998,1.636672489536897e-12
0.004399999999999999,1.075121420109677e-10,0.004399999999999999,2.581285763096417e-11,0.004399999999999999,1.640550235746662e-12
0.004499999999999999,1.078618940052447e-10,0.004499999999999999,2.589699465914485e-11,0.004499999999999999,1.644441212885806e-12
0.004599999999999999,1.082127877169684e-10,0.004599999999999999,2.598141117859128e-11,0.004599999999999999,1.648345466100662e-12
0.004699999999999999,1.085648268662865e-10,0.004699999999999999,2.606610811690278e-11,0.004699999999999999,1.652263040661051e-12
0.0048,1.089180151854342e-10,0.0048,2.615108640467992e-11,0.0048,1.656193982023133e-12
0.0049,1.092723564188313e-10,0.0049,2.623634697565552e-11,0.0049,1.66013833577445e-12
0.005,1.096278543230015e-10,0.005,2.632189076664396e-11,0.005,1.664096147676105e-12
0.0051,1.099845126666103e-10,0.0051,2.640771871755092e-11,0.0051,1.668067463635473e-12
0.005200000000000001,1.103423352307412e-10,0.005200000000000001,2.649383177144453e-11,0.005200000000000001,1.672052329720635e-12
0.005300000000000001,1.107013258086371e-10,0.005300000000000001,2.658023087447359e-11,0.005300000000000001,1.676050792146903e-12
0.005400000000000001,1.110614882058562e-10,0.005400000000000001,2.666691697590816e-11,0.005400000000000001,1.680062897298331e-12
0.005500000000000001,1.114228262404321e-10,0.005500000000000001,2.675389102817998e-11,0.005500000000000001,1.684088691721292e-12
0.005600000000000002,1.117853437426117e-10,0.005600000000000002,2.68411539869545e-11,0.005600000000000002,1.688128222103889e-12
0.005700000000000002,1.121490445553144e-10,0.005700000000000002,2.692870681089462e-11,0.005700000000000002,1.692181535297516e-12
0.005800000000000002,1.125139325338113e-10,0.005800000000000002,2.701655046204035e-11,0.005800000000000002,1.696248678331567e-12
0.005900000000000002,1.128800115458835e-10,0.005900000000000002,2.710468590544915e-11,0.005900000000000002,1.700329698378691e-12
0.006000000000000003,1.132472854719218e-10,0.006000000000000003,2.719311410948391e-11,0.006000000000000003,1.704424642776468e-12
0.006100000000000003,1.136157582049669e-10,0.006100000000000003,2.728183604566859e-11,0.006100000000000003,1.708533559020868e-12
0.006200000000000003,1.139854336506879e-10,0.006200000000000003,2.737085268876046e-11,0.006200000000000003,1.712656494773868e-12
0.006300000000000004,1.143563157273003e-10,0.006300000000000004,2.746016501672925e-11,0.006300000000000004,1.716793497864042e-12
0.006400000000000004,1.147284083659091e-10,0.006400000000000004,2.754977401082994e-11,0.006400000000000004,1.720944616265671e-12
0.006500000000000004,1.151017155104283e-10,0.006500000000000004,2.763968065551937e-11,0.006500000000000004,1.7251098981421e-12
0.006600000000000004,1.15476241117376e-10,0.006600000000000004,2.772988593852933e-11,0.006600000000000004,1.729289391803467e-12
0.006700000000000005,1.158519891562809e-10,0.006700000000000005,2.782039085087675e-11,0.006700000000000005,1.733483145721453e-12
0.006800000000000005,1.162289636096006e-10,0.006800000000000005,2.791119638687447e-11,0.006800000000000005,1.73769120855859e-12
0.006900000000000005,1.166071684726393e-10,0.006900000000000005,2.800230354411026e-11,0.006900000000000005,1.74191362910416e-12
0.007000000000000005,1.169866077536498e-10,0.007000000000000005,2.809371332348877e-11,0.007000000000000005,1.746150456346595e-12
0.007100000000000006,1.173672854739347e-10,0.007100000000000006,2.818542672917907e-11,0.007100000000000006,1.750401739430916e-12
0.007200000000000006,1.177492056680116e-10,0.007200000000000006,2.827744476875134e-11,0.007200000000000006,1.75466752766645e-12
0.007300000000000006,1.181323723832214e-10,0.007300000000000006,2.836976845309311e-11,0.007300000000000006,1.758947870527341e-12
0.007400000000000006,1.185167896803255e-10,0.007400000000000006,2.846239879638794e-11,0.007400000000000006,1.763242817667626e-12
0.007500000000000007,1.189024616331144e-10,0.007500000000000007,2.855533681631658e-11,0.007500000000000007,1.767552418900035e-12
0.007600000000000007,1.192893923286337e-10,0.007600000000000007,2.864858353375025e-11,0.007600000000000007,1.771876724218342e-12
0.007700000000000007,1.196775858672265e-10,0.007700000000000007,2.874213997304723e-11,0.007700000000000007,1.776215783783414e-12
0.007800000000000007,1.200670463625749e-10,0.007800000000000007,2.883600716196838e-11,0.007800000000000007,1.780569647909105e-12
0.007900000000000008,1.20457777941616e-10,0.007900000000000008,2.893018613168843e-11,0.007900000000000008,1.784938367113981e-12
0.008000000000000007,1.20849784744897e-10,0.008000000000000007,2.902467791667843e-11,0.008000000000000007,1.789321992056081e-12
0.008100000000000007,1.212430709261795e-10,0.008100000000000007,2.911948355500493e-11,0.008100000000000007,1.793720573592049e-12
0.008200000000000006,1.21637640652919e-10,0.008200000000000006,2.921460408805264e-11,0.008200000000000006,1.798134162733723e-12
0.008300000000000005,1.220334981059316e-10,0.008300000000000005,2.931004056072789e-11,0.008300000000000005,1.802562810678063e-12
0.008400000000000005,1.224306474796868e-10,0.008400000000000005,2.940579402134109e-11,0.008400000000000005,1.807006568785654e-12
0.008500000000000004,1.228290929823509e-10,0.008500000000000004,2.950186552168197e-11,0.008500000000000004,1.811465488610801e-12
0.008600000000000003,1.232288388355771e-10,0.008600000000000003,2.959825611712801e-11,0.008600000000000003,1.815939621857766e-12
0.008700000000000003,1.236298892749899e-10,0.008700000000000003,2.969496686639688e-11,0.008700000000000003,1.820429020433127e-12
0.008800000000000002,1.240322485497231e-10,0.008800000000000002,2.979199883181625e-11,0.008800000000000002,1.824933736409388e-12
0.008900000000000002,1.244359209227785e-10,0.008900000000000002,2.98893530792382e-11,0.008900000000000002,1.829453822025447e-12
0.009000000000000001,1.248409106711321e-10,0.009000000000000001,2.99870306779528e-11,0.009000000000000001,1.833989329709506e-12
0.0091,1.252472220854618e-10,0.0091,3.008503270089449e-11,0.0091,1.838540312079755e-12
0.0092,1.25654859470443e-10,0.0092,3.018336022449081e-11,0.0092,1.84310682191507e-12
0.009299999999999999,1.260638271448574e-10,0.009299999999999999,3.028201432877138e-11,0.009299999999999999,1.847688912177976e-12
0.009399999999999999,1.264741294413174e-10,0.009399999999999999,3.038099609734706e-11,0.009399999999999999,1.852286636015268e-12
0.009499999999999998,1.268857707066287e-10,0.009499999999999998,3.048030661735538e-11,0.009499999999999998,1.856900046758643e-12
0.009599999999999997,1.272987553016434e-10,0.009599999999999997,3.057994697963635e-11,0.009599999999999997,1.861529197917778e-12
0.009699999999999997,1.277130876014318e-10,0.009699999999999997,3.067991827854694e-11,0.009699999999999997,1.866174143180899e-12
0.009799999999999996,1.281287719952624e-10,0.009799999999999996,3.078022161210377e-11,0.009799999999999996,1.870834936422923e-12
0.009899999999999996,1.285458128865826e-10,0.009899999999999996,3.08808580820282e-11,0.009899999999999996,1.875511631698512e-12
0.009999999999999995,1.28964214693191e-10,0.009999999999999995,3.098182879355983e-11,0.009999999999999995,1.880204283257831e-12
0.01009999999999999,1.293839818473477e-10,0.01009999999999999,3.108313485573247e-11,0.01009999999999999,1.884912945532041e-12
0.01019999999999999,1.298051187954314e-10,0.01019999999999999,3.118477738115417e-11,0.01019999999999999,1.889637673126242e-12
0.01029999999999999,1.302276299985012e-10,0.01029999999999999,3.128675748615156e-11,0.01029999999999999,1.894378520835271e-12
0.01039999999999999,1.306515199320189e-10,0.01039999999999999,3.138907629081508e-11,0.01039999999999999,1.899135543659634e-12
0.01049999999999999,1.310767930859581e-10,0.01049999999999999,3.149173491881101e-11,0.01049999999999999,1.903908796760317e-12
0.01059999999999999,1.315034539649159e-10,0.01059999999999999,3.15947344976599e-11,0.01059999999999999,1.908698335512894e-12
0.01069999999999999,1.319315070880269e-10,0.01069999999999999,3.169807615851486e-11,0.01069999999999999,1.91350421545457e-12
0.01079999999999999,1.323609569891399e-10,0.01079999999999999,3.18017610363407e-11,0.01079999999999999,1.918326492338457e-12
0.01089999999999999,1.327918082169295e-10,0.01089999999999999,3.190579026985908e-11,0.01089999999999999,1.923165222080453e-12
0.01099999999999999,1.332240653346806e-10,0.01099999999999999,3.201016500156059e-11,0.01099999999999999,1.928020460813706e-12
0.01109999999999999,1.336577329205953e-10,0.01109999999999999,3.211488637764917e-11,0.01109999999999999,1.932892264850786e-12
0.01119999999999999,1.340928155676441e-10,0.01119999999999999,3.221995554822275e-11,0.01119999999999999,1.937780690684196e-12
0.01129999999999999,1.34529317883808e-10,0.01129999999999999,3.232537366715073e-11,0.01129999999999999,1.942685795025748e-12
0.01139999999999999,1.349672444919945e-10,0.01139999999999999,3.243114189211983e-11,0.01139999999999999,1.947607634752968e-12
0.01149999999999999,1.354066000300845e-10,0.01149999999999999,3.253726138464615e-11,0.01149999999999999,1.952546266964044e-12
0.01159999999999999,1.358473891510441e-10,0.01159999999999999,3.26437333101215e-11,0.01159999999999999,1.95750174892405e-12
0.01169999999999998,1.362896165229065e-10,0.01169999999999998,3.275055883775776e-11,0.01169999999999998,1.962474138112274e-12
0.01179999999999998,1.36733286829018e-10,0.01179999999999998,3.285773914070139e-11,0.01179999999999998,1.967463492207363e-12
0.01189999999999998,1.371784047676204e-10,0.01189999999999998,3.296527539587525e-11,0.01189999999999998,1.972469869064429e-12
0.01199999999999998,1.376249750525636e-10,0.01199999999999998,3.307316878422976e-11,0.01199999999999998,1.977493326747015e-12
0.01209999999999998,1.380730024126871e-10,0.01209999999999998,3.318142049055098e-11,0.01209999999999998,1.982533923527797e-12
0.01219999999999998,1.385224915923347e-10,0.01219999999999998,3.329003170354089e-11,0.01219999999999998,1.9875917178657e-12
0.01229999999999998,1.389734473513361e-10,0.01229999999999998,3.339900361589879e-11,0.01229999999999998,1.992666768414328e-12
0.01239999999999998,1.394258744647201e-10,0.01239999999999998,3.35083374242311e-11,0.01239999999999998,1.997759134046343e-12
0.01249999999999998,1.398797777232325e-10,0.01249999999999998,3.361803432909786e-11,0.01249999999999998,2.002868873806704e-12
0.01259999999999998,1.403351619331151e-10,0.01259999999999998,3.372809553509493e-11,0.01259999999999998,2.007996046968689e-12
0.01269999999999998,1.407920319161554e-10,0.01269999999999998,3.383852225069364e-11,0.01269999999999998,2.013140712987055e-12
0.01279999999999998,1.41250392509802e-10,0.01279999999999998,3.39493156884955e-11,0.01279999999999998,2.018302931538372e-12
0.01289999999999998,1.417102485672812e-10,0.01289999999999998,3.406047706503781e-11,0.01289999999999998,2.023482762489929e-12
0.01299999999999998,1.421716049575113e-10,0.01299999999999998,3.41720076009449e-11,0.01299999999999998,2.028680265924276e-12
0.01309999999999998,1.426344665651509e-10,0.01309999999999998,3.428390852083687e-11,0.01309999999999998,2.033895502107964e-12
0.01319999999999998,1.430988382908524e-10,0.01319999999999998,3.439618105337706e-11,0.01319999999999998,2.039128531524133e-12
0.01329999999999998,1.435647250511077e-10,0.01329999999999998,3.450882643135499e-11,0.01329999999999998,2.044379414881322e-12
0.01339999999999997,1.440321317782981e-10,0.01339999999999997,3.462184589159455e-11,0.01339999999999997,2.049648213066005e-12
0.01349999999999997,1.445010634208796e-10,0.01349999999999997,3.473524067503709e-11,0.01349999999999997,2.054934987183355e-12
0.01359999999999997,1.44971524943366e-10,0.01359999999999997,3.484901202675445e-11,0.01359999999999997,2.060239798558018e-12
0.01369999999999997,1.454435213263773e-10,0.01369999999999997,3.496316119592726e-11,0.01369999999999997,2.065562708702535e-12
0.01379999999999997,1.459170575666921e-10,0.01379999999999997,3.507768943578725e-11,0.01379999999999997,2.070903779350259e-12
0.01389999999999997,1.463921386772964e-10,0.01389999999999997,3.519259800387735e-11,0.01389999999999997,2.076263072448049e-12
0.01399999999999997,1.468687696875044e-10,0.01399999999999997,3.530788816181838e-11,0.01399999999999997,2.081640650156955e-12
0.01409999999999997,1.473469556428706e-10,0.01409999999999997,3.542356117535711e-11,0.01409999999999997,2.087036574828533e-12
0.01419999999999997,1.47826701605241e-10,0.01419999999999997,3.55396183145212e-11,0.01419999999999997,2.092450909054303e-12
0.01429999999999997,1.483080126532187e-10,0.01429999999999997,3.565606085349123e-11,0.01429999999999997,2.097883715625828e-12
0.01439999999999997,1.487908938814547e-10,0.01439999999999997,3.577289007072046e-11,0.01439999999999997,2.103335057551664e-12
0.01449999999999997,1.492753504014609e-10,0.01449999999999997,3.589010724887746e-11,0.01449999999999997,2.108804998041704e-12
0.01459999999999997,1.49761387341107e-10,0.01459999999999997,3.600771367478786e-11,0.01459999999999997,2.114293600548835e-12
0.01469999999999997,1.502490098451588e-10,0.01469999999999997,3.612571063969805e-11,0.01469999999999997,2.119800928712292e-12
0.01479999999999997,1.507382230747729e-10,0.01479999999999997,3.624409943900305e-11,0.01479999999999997,2.125327046407564e-12
0.01489999999999997,1.512290322081073e-10,0.01489999999999997,3.636288137240268e-11,0.01489999999999997,2.13087201773077e-12
0.01499999999999996,1.51721442439954e-10,0.01499999999999996,3.648205774402379e-11,0.01499999999999996,2.136435906982852e-12
0.01509999999999996,1.522154589821422e-10,0.01509999999999996,3.660162986211024e-11,0.01509999999999996,2.142018778686745e-12
0.01519999999999996,1.527110870630993e-10,0.01519999999999996,3.672159903943239e-11,0.01519999999999996,2.147620697588142e-12
0.01529999999999996,1.532083319285357e-10,0.01529999999999996,3.684196659297702e-11,0.01529999999999996,2.153241728664543e-12
0.01539999999999996,1.537071988410063e-10,0.01539999999999996,3.696273384410495e-11,0.01539999999999996,2.158881937092766e-12
0.01549999999999996,1.542076930802449e-10,0.01549999999999996,3.708390211867424e-11,0.01549999999999996,2.164541388291209e-12
0.01559999999999996,1.54709819943006e-10,0.01559999999999996,3.720547274676411e-11,0.01559999999999996,2.170220147887313e-12
0.01569999999999996,1.552135847432595e-10,0.01569999999999996,3.732744706297887e-11,0.01569999999999996,2.175918281734922e-12
0.01579999999999996,1.557189928122444e-10,0.01579999999999996,3.744982640628089e-11,0.01579999999999996,2.181635855931825e-12
0.01589999999999996,1.562260494985223e-10,0.01589999999999996,3.757261212007708e-11,0.01589999999999996,2.187372936770246e-12
0.01599999999999996,1.567347601679616e-10,0.01599999999999996,3.769580555226979e-11,0.01599999999999996,2.193129590787827e-12
0.01609999999999996,1.572451302037904e-10,0.01609999999999996,3.781940805512481e-11,0.01609999999999996,2.198905884751664e-12
0.01619999999999996,1.577571650067223e-10,0.01619999999999996,3.794342098550519e-11,0.01619999999999996,2.204701885642212e-12
