;Version, 1, 0
;tranIn,;tranMeasOut,;tranMeasOutRes,;tranMeasMOSBuffer
;X, Y,;X, Y,;X, Y,;X, Y
;Re, Re,;Re, Re,;Re, Re,;Re, Re
;time, V,;time, V,;time, V,;time, V
;s, V,;s, V,;s, V,;s, V
0,0,0,0,0,0,0,0
6.25e-13,0.0003926980723805151,6.25e-13,0,6.25e-13,0,6.25e-13,0
1.238234039700965e-12,0.0007779975438546582,1.238234039700965e-12,0,1.238234039700965e-12,0,1.238234039700965e-12,0
1.942751108636338e-12,0.001220636208591808,1.942751108636338e-12,1.110223024625157e-16,1.942751108636338e-12,2.220446049250313e-16,1.942751108636338e-12,1.665334536937735e-16
2.598380664981152e-12,0.001632538196139732,2.598380664981152e-12,0,2.598380664981152e-12,1.110223024625157e-16,2.598380664981152e-12,5.551115123125783e-17
3.602296530948287e-12,0.002263196415267954,3.602296530948287e-12,-1.110223024625157e-16,3.602296530948287e-12,0,3.602296530948287e-12,-5.551115123125783e-17
4.810906927247804e-12,0.003022321663042282,4.810906927247804e-12,-2.220446049250313e-16,4.810906927247804e-12,0,4.810906927247804e-12,-5.551115123125783e-17
6.425473910022547e-12,0.004036147675272383,6.425473910022547e-12,-2.220446049250313e-16,6.425473910022547e-12,1.110223024625157e-16,6.425473910022547e-12,5.551115123125783e-17
8.628672408128623e-12,0.005418899207365158,8.628672408128623e-12,-3.33066907387547e-16,8.628672408128623e-12,1.110223024625157e-16,8.628672408128623e-12,1.110223024625157e-16
1.111337717066987e-11,0.006977067712595098,1.111337717066987e-11,-3.33066907387547e-16,1.111337717066987e-11,1.110223024625157e-16,1.111337717066987e-11,2.775557561562891e-16
1.366108029225294e-11,0.008572973709566334,1.366108029225294e-11,-4.440892098500626e-16,1.366108029225294e-11,1.110223024625157e-16,1.366108029225294e-11,2.775557561562891e-16
1.585172605895272e-11,0.009943474258095497,1.585172605895272e-11,-4.440892098500626e-16,1.585172605895272e-11,1.110223024625157e-16,1.585172605895272e-11,2.220446049250313e-16
1.793686567818312e-11,0.01124622256561403,1.793686567818312e-11,-4.440892098500626e-16,1.793686567818312e-11,1.110223024625157e-16,1.793686567818312e-11,2.220446049250313e-16
2.00432863949507e-11,0.01256030607507386,2.00432863949507e-11,-3.33066907387547e-16,2.00432863949507e-11,2.220446049250313e-16,2.00432863949507e-11,2.775557561562891e-16
2.22852520690098e-11,0.01395652641239353,2.22852520690098e-11,-4.440892098500626e-16,2.22852520690098e-11,1.110223024625157e-16,2.22852520690098e-11,2.775557561562891e-16
2.482734700005034e-11,0.01553629182316918,2.482734700005034e-11,-5.551115123125783e-16,2.482734700005034e-11,1.110223024625157e-16,2.482734700005034e-11,2.220446049250313e-16
2.804652518648156e-11,0.0175310865608993,2.804652518648156e-11,-5.551115123125783e-16,2.804652518648156e-11,2.220446049250313e-16,2.804652518648156e-11,2.220446049250313e-16
3.373595582443762e-11,0.02103854934742544,3.373595582443762e-11,-4.440892098500626e-16,3.373595582443762e-11,3.33066907387547e-16,3.373595582443762e-11,2.220446049250313e-16
3.775268284391562e-11,0.0234988855141105,3.775268284391562e-11,-3.33066907387547e-16,3.775268284391562e-11,3.33066907387547e-16,3.775268284391562e-11,1.665334536937735e-16
4.13336955251041e-11,0.02567976480111001,4.13336955251041e-11,-3.33066907387547e-16,4.13336955251041e-11,4.440892098500626e-16,4.13336955251041e-11,1.665334536937735e-16
4.510479074238547e-11,0.02796233217551225,4.510479074238547e-11,-2.220446049250313e-16,4.510479074238547e-11,6.661338147750939e-16,4.510479074238547e-11,2.220446049250313e-16
4.930617294383651e-11,0.03048679935261456,4.930617294383651e-11,-2.220446049250313e-16,4.930617294383651e-11,8.881784197001252e-16,4.930617294383651e-11,2.775557561562891e-16
5.500568186029801e-11,0.03387715096433075,5.500568186029801e-11,0,5.500568186029801e-11,1.221245327087672e-15,5.500568186029801e-11,2.775557561562891e-16
6.253973117595737e-11,0.03829140561922029,6.253973117595737e-11,3.33066907387547e-16,6.253973117595737e-11,1.332267629550188e-15,6.253973117595737e-11,3.33066907387547e-16
6.822976230996213e-11,0.04156890133663671,6.822976230996213e-11,4.440892098500626e-16,6.822976230996213e-11,1.332267629550188e-15,6.822976230996213e-11,2.775557561562891e-16
7.38899321863599e-11,0.04477649492170266,7.38899321863599e-11,4.440892098500626e-16,7.38899321863599e-11,1.332267629550188e-15,7.38899321863599e-11,2.220446049250313e-16
8.024640624802389e-11,0.04831098083101582,8.024640624802389e-11,4.440892098500626e-16,8.024640624802389e-11,1.332267629550188e-15,8.024640624802389e-11,1.665334536937735e-16
8.864007248811618e-11,0.0528592813094424,8.864007248811618e-11,4.440892098500626e-16,8.864007248811618e-11,1.443289932012704e-15,8.864007248811618e-11,1.110223024625157e-16
9.864007248811619e-11,0.05808510904511199,9.864007248811619e-11,4.440892098500626e-16,9.864007248811619e-11,1.443289932012704e-15,9.864007248811619e-11,5.551115123125783e-17
1.076779229501477e-10,0.06261147264528599,1.076779229501477e-10,2.220446049250313e-16,1.076779229501477e-10,1.221245327087672e-15,1.076779229501477e-10,5.551115123125783e-17
1.176779229501477e-10,0.0673838943301992,1.176779229501477e-10,2.220446049250313e-16,1.176779229501477e-10,1.110223024625157e-15,1.176779229501477e-10,5.551115123125783e-17
1.276779229501477e-10,0.07189038256896452,1.276779229501477e-10,3.33066907387547e-16,1.276779229501477e-10,1.221245327087672e-15,1.276779229501477e-10,1.665334536937735e-16
1.376779229501477e-10,0.07611315231132165,1.376779229501477e-10,5.551115123125783e-16,1.376779229501477e-10,1.443289932012704e-15,1.376779229501477e-10,1.665334536937735e-16
1.476779229501477e-10,0.08003553821429743,1.476779229501477e-10,6.661338147750939e-16,1.476779229501477e-10,1.665334536937735e-15,1.476779229501477e-10,2.220446049250313e-16
1.576779229501477e-10,0.08364206041270106,1.576779229501477e-10,7.771561172376096e-16,1.576779229501477e-10,1.665334536937735e-15,1.576779229501477e-10,3.885780586188048e-16
1.676779229501477e-10,0.08691848561107807,1.676779229501477e-10,8.881784197001252e-16,1.676779229501477e-10,1.665334536937735e-15,1.676779229501477e-10,6.106226635438361e-16
1.776779229501477e-10,0.08985188325602711,1.776779229501477e-10,8.881784197001252e-16,1.776779229501477e-10,1.665334536937735e-15,1.776779229501477e-10,8.326672684688674e-16
1.876779229501476e-10,0.0924306765671854,1.876779229501476e-10,8.881784197001252e-16,1.876779229501476e-10,1.665334536937735e-15,1.876779229501476e-10,9.436895709313831e-16
1.976779229501476e-10,0.09464468822549232,1.976779229501476e-10,8.881784197001252e-16,1.976779229501476e-10,1.665334536937735e-15,1.976779229501476e-10,1.110223024625157e-15
2.076779229501476e-10,0.09648518053841837,2.076779229501476e-10,8.881784197001252e-16,2.076779229501476e-10,1.665334536937735e-15,2.076779229501476e-10,1.165734175856414e-15
2.176779229501476e-10,0.09794488992364547,2.176779229501476e-10,9.992007221626409e-16,2.176779229501476e-10,1.77635683940025e-15,2.176779229501476e-10,1.165734175856414e-15
2.276779229501476e-10,0.09901805557510746,2.276779229501476e-10,1.110223024625157e-15,2.276779229501476e-10,1.887379141862766e-15,2.276779229501476e-10,1.165734175856414e-15
2.376779229501476e-10,0.09970044219826124,2.376779229501476e-10,1.443289932012704e-15,2.376779229501476e-10,1.998401444325282e-15,2.376779229501476e-10,1.165734175856414e-15
2.476779229501476e-10,0.09998935672485798,2.476779229501476e-10,1.554312234475219e-15,2.476779229501476e-10,1.998401444325282e-15,2.476779229501476e-10,1.110223024625157e-15
2.576779229501476e-10,0.09988365894125351,2.576779229501476e-10,1.77635683940025e-15,2.576779229501476e-10,2.109423746787797e-15,2.576779229501476e-10,1.165734175856414e-15
2.676779229501477e-10,0.099383765988311,2.676779229501477e-10,1.998401444325282e-15,2.676779229501477e-10,2.331468351712829e-15,2.676779229501477e-10,1.165734175856414e-15
2.776779229501477e-10,0.09849165071513633,2.776779229501477e-10,2.220446049250313e-15,2.776779229501477e-10,2.55351295663786e-15,2.776779229501477e-10,1.221245327087672e-15
2.876779229501477e-10,0.09721083389314411,2.876779229501477e-10,2.442490654175344e-15,2.876779229501477e-10,2.886579864025407e-15,2.876779229501477e-10,1.27675647831893e-15
2.976779229501477e-10,0.09554637032118118,2.976779229501477e-10,2.664535259100376e-15,2.976779229501477e-10,3.441691376337985e-15,2.976779229501477e-10,1.387778780781446e-15
3.076779229501477e-10,0.09350482887654499,3.076779229501477e-10,2.664535259100376e-15,3.076779229501477e-10,3.885780586188048e-15,3.076779229501477e-10,1.443289932012704e-15
3.176779229501477e-10,0.09109426659062603,3.176779229501477e-10,2.664535259100376e-15,3.176779229501477e-10,3.996802888650564e-15,3.176779229501477e-10,1.443289932012704e-15
3.276779229501478e-10,0.08832419685148563,3.276779229501478e-10,2.664535259100376e-15,3.276779229501478e-10,4.107825191113079e-15,3.276779229501478e-10,1.498801083243961e-15
3.376779229501478e-10,0.08520555185885947,3.376779229501478e-10,2.775557561562891e-15,3.376779229501478e-10,4.218847493575595e-15,3.376779229501478e-10,1.554312234475219e-15
3.476779229501478e-10,0.08175063947976047,3.476779229501478e-10,2.997602166487923e-15,3.476779229501478e-10,4.218847493575595e-15,3.476779229501478e-10,1.665334536937735e-15
3.576779229501478e-10,0.07797309467494928,3.576779229501478e-10,3.108624468950438e-15,3.576779229501478e-10,4.218847493575595e-15,3.576779229501478e-10,1.77635683940025e-15
3.676779229501478e-10,0.0738878256879747,3.676779229501478e-10,3.33066907387547e-15,3.676779229501478e-10,4.218847493575595e-15,3.676779229501478e-10,1.831867990631508e-15
3.776779229501478e-10,0.06951095520914619,3.776779229501478e-10,3.663735981263017e-15,3.776779229501478e-10,4.218847493575595e-15,3.776779229501478e-10,1.942890293094024e-15
3.876779229501479e-10,0.06485975674664202,3.876779229501479e-10,3.996802888650564e-15,3.876779229501479e-10,4.218847493575595e-15,3.876779229501479e-10,1.942890293094024e-15
3.976779229501479e-10,0.05995258645586299,3.976779229501479e-10,4.440892098500626e-15,3.976779229501479e-10,4.218847493575595e-15,3.976779229501479e-10,1.998401444325282e-15
4.076779229501479e-10,0.05480881069607402,4.076779229501479e-10,4.773959005888173e-15,4.076779229501479e-10,4.218847493575595e-15,4.076779229501479e-10,2.05391259555654e-15
4.176779229501479e-10,0.0494487296002315,4.176779229501479e-10,4.884981308350689e-15,4.176779229501479e-10,4.218847493575595e-15,4.176779229501479e-10,2.164934898019055e-15
4.276779229501479e-10,0.04389349695963252,4.276779229501479e-10,4.884981308350689e-15,4.276779229501479e-10,4.218847493575595e-15,4.276779229501479e-10,2.331468351712829e-15
4.376779229501479e-10,0.03816503673956517,4.376779229501479e-10,4.773959005888173e-15,4.376779229501479e-10,4.329869796038111e-15,4.376779229501479e-10,2.442490654175344e-15
4.47677922950148e-10,0.03228595655543343,4.47677922950148e-10,4.662936703425657e-15,4.47677922950148e-10,4.440892098500626e-15,4.47677922950148e-10,2.55351295663786e-15
4.57677922950148e-10,0.02627945845082791,4.57677922950148e-10,4.773959005888173e-15,4.57677922950148e-10,4.662936703425657e-15,4.57677922950148e-10,2.609024107869118e-15
4.676779229501479e-10,0.02016924732965975,4.676779229501479e-10,4.884981308350689e-15,4.676779229501479e-10,4.773959005888173e-15,4.676779229501479e-10,2.664535259100376e-15
4.776779229501479e-10,0.01397943740373386,4.776779229501479e-10,4.884981308350689e-15,4.776779229501479e-10,4.884981308350689e-15,4.776779229501479e-10,2.664535259100376e-15
4.876779229501479e-10,0.007734457024972885,4.876779229501479e-10,4.996003610813204e-15,4.876779229501479e-10,4.996003610813204e-15,4.876779229501479e-10,2.664535259100376e-15
4.976779229501478e-10,0.001458952277871628,4.976779229501478e-10,5.10702591327572e-15,4.976779229501478e-10,5.10702591327572e-15,4.976779229501478e-10,2.664535259100376e-15
5.076779229501478e-10,-0.004822310287338372,5.076779229501478e-10,5.218048215738236e-15,5.076779229501478e-10,5.218048215738236e-15,5.076779229501478e-10,2.664535259100376e-15
5.176779229501478e-10,-0.01108454139694848,5.176779229501478e-10,5.329070518200751e-15,5.176779229501478e-10,5.218048215738236e-15,5.176779229501478e-10,2.720046410331634e-15
5.276779229501477e-10,-0.01730302688570995,5.276779229501477e-10,5.440092820663267e-15,5.276779229501477e-10,5.218048215738236e-15,5.276779229501477e-10,2.720046410331634e-15
5.376779229501477e-10,-0.02345322523235449,5.376779229501477e-10,5.440092820663267e-15,5.376779229501477e-10,5.218048215738236e-15,5.376779229501477e-10,2.664535259100376e-15
5.476779229501477e-10,-0.02951086441376649,5.476779229501477e-10,5.551115123125783e-15,5.476779229501477e-10,5.329070518200751e-15,5.476779229501477e-10,2.720046410331634e-15
5.576779229501476e-10,-0.03545203769556871,5.576779229501476e-10,5.773159728050814e-15,5.576779229501476e-10,5.551115123125783e-15,5.576779229501476e-10,2.720046410331634e-15
5.676779229501476e-10,-0.04125329798108202,5.676779229501476e-10,5.88418203051333e-15,5.676779229501476e-10,5.773159728050814e-15,5.676779229501476e-10,2.664535259100376e-15
5.776779229501476e-10,-0.04689175034630311,5.776779229501476e-10,5.995204332975845e-15,5.776779229501476e-10,5.88418203051333e-15,5.776779229501476e-10,2.720046410331634e-15
5.876779229501475e-10,-0.0523451423957102,5.876779229501475e-10,6.106226635438361e-15,5.876779229501475e-10,5.88418203051333e-15,5.876779229501475e-10,2.664535259100376e-15
5.976779229501475e-10,-0.05759195208230228,5.976779229501475e-10,6.106226635438361e-15,5.976779229501475e-10,5.773159728050814e-15,5.976779229501475e-10,2.720046410331634e-15
6.076779229501475e-10,-0.06261147264528577,6.076779229501475e-10,6.106226635438361e-15,6.076779229501475e-10,5.662137425588298e-15,6.076779229501475e-10,2.720046410331634e-15
6.176779229501474e-10,-0.0673838943301992,6.176779229501474e-10,5.995204332975845e-15,6.176779229501474e-10,5.662137425588298e-15,6.176779229501474e-10,2.720046410331634e-15
6.276779229501474e-10,-0.0718903825689643,6.276779229501474e-10,5.88418203051333e-15,6.276779229501474e-10,5.773159728050814e-15,6.276779229501474e-10,2.775557561562891e-15
6.376779229501474e-10,-0.07611315231132143,6.376779229501474e-10,5.662137425588298e-15,6.376779229501474e-10,5.662137425588298e-15,6.376779229501474e-10,2.886579864025407e-15
6.476779229501473e-10,-0.08003553821429743,6.476779229501473e-10,5.551115123125783e-15,6.476779229501473e-10,5.551115123125783e-15,6.476779229501473e-10,2.997602166487923e-15
6.576779229501473e-10,-0.08364206041270084,6.576779229501473e-10,5.551115123125783e-15,6.576779229501473e-10,5.440092820663267e-15,6.576779229501473e-10,2.997602166487923e-15
6.676779229501473e-10,-0.08691848561107784,6.676779229501473e-10,5.662137425588298e-15,6.676779229501473e-10,5.329070518200751e-15,6.676779229501473e-10,2.997602166487923e-15
6.776779229501472e-10,-0.08985188325602689,6.776779229501472e-10,5.773159728050814e-15,6.776779229501472e-10,5.329070518200751e-15,6.776779229501472e-10,2.997602166487923e-15
6.876779229501472e-10,-0.09243067656718518,6.876779229501472e-10,5.773159728050814e-15,6.876779229501472e-10,5.329070518200751e-15,6.876779229501472e-10,2.997602166487923e-15
6.976779229501472e-10,-0.09464468822549232,6.976779229501472e-10,5.773159728050814e-15,6.976779229501472e-10,5.329070518200751e-15,6.976779229501472e-10,2.942091015256665e-15
7.076779229501471e-10,-0.09648518053841837,7.076779229501471e-10,5.773159728050814e-15,7.076779229501471e-10,5.329070518200751e-15,7.076779229501471e-10,2.831068712794149e-15
7.176779229501471e-10,-0.09794488992364525,7.176779229501471e-10,5.773159728050814e-15,7.176779229501471e-10,5.440092820663267e-15,7.176779229501471e-10,2.831068712794149e-15
7.276779229501471e-10,-0.09901805557510746,7.276779229501471e-10,5.88418203051333e-15,7.276779229501471e-10,5.440092820663267e-15,7.276779229501471e-10,2.886579864025407e-15
7.37677922950147e-10,-0.09970044219826124,7.37677922950147e-10,5.995204332975845e-15,7.37677922950147e-10,5.440092820663267e-15,7.37677922950147e-10,2.942091015256665e-15
7.47677922950147e-10,-0.09998935672485798,7.47677922950147e-10,6.106226635438361e-15,7.47677922950147e-10,5.440092820663267e-15,7.47677922950147e-10,2.942091015256665e-15
7.576779229501469e-10,-0.09988365894125351,7.576779229501469e-10,6.217248937900877e-15,7.576779229501469e-10,5.440092820663267e-15,7.576779229501469e-10,2.942091015256665e-15
7.676779229501469e-10,-0.099383765988311,7.676779229501469e-10,6.217248937900877e-15,7.676779229501469e-10,5.440092820663267e-15,7.676779229501469e-10,2.942091015256665e-15
7.776779229501469e-10,-0.09849165071513633,7.776779229501469e-10,6.217248937900877e-15,7.776779229501469e-10,5.440092820663267e-15,7.776779229501469e-10,2.942091015256665e-15
7.876779229501468e-10,-0.09721083389314433,7.876779229501468e-10,6.217248937900877e-15,7.876779229501468e-10,5.551115123125783e-15,7.876779229501468e-10,2.997602166487923e-15
7.976779229501468e-10,-0.09554637032118141,7.976779229501468e-10,6.217248937900877e-15,7.976779229501468e-10,5.773159728050814e-15,7.976779229501468e-10,2.997602166487923e-15
8.076779229501468e-10,-0.09350482887654521,8.076779229501468e-10,6.217248937900877e-15,8.076779229501468e-10,5.88418203051333e-15,8.076779229501468e-10,2.997602166487923e-15
8.176779229501467e-10,-0.09109426659062625,8.176779229501467e-10,6.217248937900877e-15,8.176779229501467e-10,5.88418203051333e-15,8.176779229501467e-10,2.997602166487923e-15
8.276779229501467e-10,-0.08832419685148585,8.276779229501467e-10,6.217248937900877e-15,8.276779229501467e-10,5.773159728050814e-15,8.276779229501467e-10,2.997602166487923e-15
8.376779229501467e-10,-0.08520555185885992,8.376779229501467e-10,6.217248937900877e-15,8.376779229501467e-10,5.551115123125783e-15,8.376779229501467e-10,2.997602166487923e-15
8.476779229501466e-10,-0.08175063947976091,8.476779229501466e-10,6.217248937900877e-15,8.476779229501466e-10,5.551115123125783e-15,8.476779229501466e-10,3.05311331771918e-15
8.576779229501466e-10,-0.07797309467494995,8.576779229501466e-10,6.217248937900877e-15,8.576779229501466e-10,5.662137425588298e-15,8.576779229501466e-10,3.164135620181696e-15
8.676779229501466e-10,-0.07388782568797514,8.676779229501466e-10,6.217248937900877e-15,8.676779229501466e-10,5.773159728050814e-15,8.676779229501466e-10,3.386180225106727e-15
8.776779229501465e-10,-0.06951095520914685,8.776779229501465e-10,6.328271240363392e-15,8.776779229501465e-10,5.773159728050814e-15,8.776779229501465e-10,3.552713678800501e-15
8.876779229501465e-10,-0.06485975674664246,8.876779229501465e-10,6.550315845288424e-15,8.876779229501465e-10,5.773159728050814e-15,8.876779229501465e-10,3.663735981263017e-15
8.976779229501465e-10,-0.05995258645586365,8.976779229501465e-10,6.883382752675971e-15,8.976779229501465e-10,5.773159728050814e-15,8.976779229501465e-10,3.608224830031759e-15
9.076779229501464e-10,-0.05480881069607468,9.076779229501464e-10,7.216449660063518e-15,9.076779229501464e-10,5.773159728050814e-15,9.076779229501464e-10,3.552713678800501e-15
9.176779229501464e-10,-0.04944872960023217,9.176779229501464e-10,7.66053886991358e-15,9.176779229501464e-10,5.773159728050814e-15,9.176779229501464e-10,3.497202527569243e-15
9.276779229501464e-10,-0.0438934969596334,9.276779229501464e-10,7.993605777301127e-15,9.276779229501464e-10,5.773159728050814e-15,9.276779229501464e-10,3.441691376337985e-15
9.376779229501463e-10,-0.03816503673956606,9.376779229501463e-10,8.104628079763643e-15,9.376779229501463e-10,5.773159728050814e-15,9.376779229501463e-10,3.552713678800501e-15
9.476779229501463e-10,-0.03228595655543454,9.476779229501463e-10,8.104628079763643e-15,9.476779229501463e-10,5.773159728050814e-15,9.476779229501463e-10,3.608224830031759e-15
9.576779229501463e-10,-0.02627945845082902,9.576779229501463e-10,7.993605777301127e-15,9.576779229501463e-10,5.773159728050814e-15,9.576779229501463e-10,3.719247132494274e-15
9.676779229501462e-10,-0.02016924732966086,9.676779229501462e-10,7.882583474838611e-15,9.676779229501462e-10,5.773159728050814e-15,9.676779229501462e-10,3.885780586188048e-15
