;Version, 1, 0
;ACGainMeasBJT,;ACGainMeasBJTRes,;ACGainMeasNMOS
;X, Y,;X, Y,;X, Y
;Re, Re,;Re, Re,;Re, Re
;freq, V,;freq, V,;freq, V
;Hz, dB,;Hz, dB,;Hz, dB
1000000,78.13078029468802,1000000,75.95495727340662,1000000,78.1213025797975
1023292.992280754,78.13044733209342,1023292.992280754,75.95461009180157,1023292.992280754,78.12104614548284
1047128.5480509,78.13009922926341,1047128.5480509,75.954247103535,1047128.5480509,78.12077815676592
1071519.305237606,78.12973532375644,1071519.305237606,75.95386761515732,1071519.305237606,78.120498118217
1096478.196143185,78.12935492651505,1096478.196143185,75.95347090516688,1096478.196143185,78.12020551546752
1122018.454301963,78.12895732099844,1122018.454301963,75.95305622300049,1122018.454301963,78.11989981466358
1148153.621496883,78.12854176242615,1148153.621496883,75.95262278840295,1148153.621496883,78.11958046212554
1174897.554939529,78.12810747683213,1174897.554939529,75.95216979023471,1174897.554939529,78.11924688372243
1202264.434617413,78.12765366014742,1202264.434617413,75.95169638553691,1202264.434617413,78.11889848436165
1230268.770812381,78.12717947752542,1230268.770812381,75.95120169889702,1230268.770812381,78.11853464774973
1258925.411794167,78.12668406228136,1258925.411794167,75.95068482108336,1258925.411794167,78.11815473568865
1288249.551693134,78.12616651514226,1288249.551693134,75.95014480847571,1288249.551693134,78.11775808784593
1318256.738556407,78.12562590339664,1318256.738556407,75.94958068188026,1318256.738556407,78.11734402127661
1348962.882591653,78.12506126004064,1348962.882591653,75.94899142575261,1348962.882591653,78.1169118301051
1380384.264602884,78.12447158292785,1380384.264602884,75.94837598716428,1380384.264602884,78.11646078513536
1412537.544622754,78.12385583409464,1412537.544622754,75.94773327516462,1412537.544622754,78.11599013372991
1445439.770745927,78.12321293889804,1445439.770745927,75.94706215965809,1445439.770745927,78.11549909943167
1479108.388168207,78.12254178529484,1479108.388168207,75.94636147064645,1479108.388168207,78.11498688181814
1513561.248436208,78.12184122318679,1513561.248436208,75.94562999750278,1513561.248436208,78.11445265643452
1548816.618912481,78.12111006369254,1548816.618912481,75.94486648808939,1548816.618912481,78.11389557464626
1584893.192461113,78.12034707869469,1584893.192461113,75.94406964820972,1584893.192461113,78.11331476381051
1621810.097358929,78.11955100009332,1621810.097358929,75.94323814073039,1621810.097358929,78.11270932717507
1659586.90743756,78.11872051952597,1659586.90743756,75.94237058519229,1659586.90743756,78.11207834425488
1698243.652461744,78.11785428780854,1698243.652461744,75.94146555710405,1698243.652461744,78.11142087096835
1737800.828749375,78.1169509146801,1737800.828749375,75.94052158759278,1737800.828749375,78.11073594009994
1778279.410038922,78.11600896852411,1778279.410038922,75.9395371629692,1778279.410038922,78.11002256175453
1819700.858609983,78.1150269761835,1819700.858609983,75.93851072431747,1819700.858609983,78.10927972391057
1862087.136662866,78.11400342304778,1862087.136662866,75.93744066765099,1862087.136662866,78.10850639335555
1905460.717963246,78.11293675292514,1905460.717963246,75.93632534335536,1905460.717963246,78.10770151629198
1949844.599758044,78.11182536838153,1949844.599758044,75.93516305666716,1949844.599758044,78.10686401959802
1995262.314968878,78.11066763089202,1995262.314968878,75.93395206738147,1995262.314968878,78.10599281176317
2041737.944669528,78.10946186149627,2041737.944669528,75.93269059062392,2041737.944669528,78.10508678451097
2089296.130854038,78.10820634118363,2089296.130854038,75.93137679681899,2089296.130854038,78.10414481402981
2137962.089502231,78.10689931175371,2137962.089502231,75.93000881253317,2137962.089502231,78.10316576281602
2187761.623949551,78.10553897669493,2187761.623949551,75.92858472112775,2187761.623949551,78.10214848150515
2238721.138568338,78.10412350226852,2238721.138568338,75.92710256367154,2238721.138568338,78.101091810946
2290867.652767771,78.10265101875987,2290867.652767771,75.9255603400143,2290867.652767771,78.09999458446842
2344228.81531992,78.10111962192192,2344228.81531992,75.92395601002937,2344228.81531992,78.09885563035702
2398832.919019489,78.09952737462201,2398832.919019489,75.92228749509084,2398832.919019489,78.09767377456095
2454708.915685028,78.09787230864184,2454708.915685028,75.92055267969096,2454708.915685028,78.0964478435758
2511886.431509578,78.09615242669052,2511886.431509578,75.91874941314201,2511886.431509578,78.09517666751822
2570395.782768862,78.09436570471792,2570395.782768862,75.9168755119115,2570395.782768862,78.09385908361806
2630267.99189538,78.09251009428419,2630267.99189538,75.91492876158811,2630267.99189538,78.09249393965328
2691534.803926914,78.09058352513139,2691534.803926914,75.91290691934717,2691534.803926914,78.09108009769479
2754228.703338164,78.08858390819061,2754228.703338164,75.91080771674724,2754228.703338164,78.08961643825484
2818382.931264451,78.08650913846904,2818382.931264451,75.90862886240866,2818382.931264451,78.0881018643333
2884031.503126603,78.08435709832588,2884031.503126603,75.90636804513851,2884031.503126603,78.08653530586342
2951209.226666383,78.08212566090759,2951209.226666383,75.90402293701511,2951209.226666383,78.08491572426185
3019951.720402013,78.07981269368963,3019951.720402013,75.90159119696418,3019951.720402013,78.08324211718907
3090295.432513587,78.07741606222687,3090295.432513587,75.89907047412522,3090295.432513587,78.08151352338459
3162277.660168376,78.07493363404127,3162277.660168376,75.89645841163525,3162277.660168376,78.07972902770308
3235936.569296279,78.07236328266568,3235936.569296279,75.89375265048757,3235936.569296279,78.0778877662579
3311311.214825907,78.06970289165467,3311311.214825907,75.89095083339814,3311311.214825907,78.07598893151319
3388441.561392021,78.06695035885484,3388441.561392021,75.88805060879322,3388441.561392021,78.07403177755018
3467368.504525312,78.06410360059488,3467368.504525312,75.88504963506414,3467368.504525312,78.07201562531513
3548133.89233575,78.06116055594431,3548133.89233575,75.88194558448043,3548133.89233575,78.06993986774771
3630780.547701009,78.05811919089649,3630780.547701009,75.87873614727648,3630780.547701009,78.06780397484204
3715352.29097172,78.05497750268093,3715352.29097172,75.87541903604206,3715352.29097172,78.06560749881037
3801893.963205607,78.05173352369773,3801893.963205607,75.87199198932973,3801893.963205607,78.06335007865083
3890451.449942801,78.04838532556609,3890451.449942801,75.86845277578166,3890451.449942801,78.06103144485134
3981071.705534967,78.04493102289635,3981071.705534967,75.86479919782479,3981071.705534967,78.05865142363915
4073802.778041122,78.04136877687169,4073802.778041122,75.86102909527511,4073802.778041122,78.05620994094772
4168693.834703348,78.03769679853754,4168693.834703348,75.85714034851974,4168693.834703348,78.05370702588677
4265795.18801592,78.03391335186849,4265795.18801592,75.8531308818154,4265795.18801592,78.05114281393027
4365158.322401653,78.03001675639854,4365158.322401653,75.84899866578868,4365158.322401653,78.0485175493654
4466835.921509624,78.02600538956106,4466835.921509624,75.8447417201934,4466835.921509624,78.04583158741508
4570881.896148743,78.0218776885598,4570881.896148743,75.84035811558772,4570881.896148743,78.04308539546179
4677351.412871975,78.01763215182089,4677351.412871975,75.83584597537686,4677351.412871975,78.04027955385837
4786300.923226376,78.01326733993653,4786300.923226376,75.83120347672795,4786300.923226376,78.0374147557514
4897788.193684454,78.00878187614956,4897788.193684454,75.82642885159949,4897788.193684454,78.03449180632983
5011872.336272715,78.00417444633003,5011872.336272715,75.82152038696015,5011872.336272715,78.03151162114544
5128613.83991364,77.99944379837041,5128613.83991364,75.81647642463233,5128613.83991364,78.02847522356518
5248074.602497717,77.99458874124429,5248074.602497717,75.81129536108959,5248074.602497717,78.02538374160432
5370317.963702518,77.98960814329584,5370317.963702518,75.80597564599245,5370317.963702518,78.02223840342756
5495408.738576236,77.98450093039654,5495408.738576236,75.80051578140856,5495408.738576236,78.01904053254631
5623413.251903481,77.97926608331284,5623413.251903481,75.79491431956886,5623413.251903481,78.01579154155047
5754399.373371559,77.97390263506243,5754399.373371559,75.78916986131267,5754399.373371559,78.01249292556622
5888436.553555879,77.96840966761944,5888436.553555879,75.78328105371638,5888436.553555879,78.00914625450019
6025595.860743566,77.96278630862945,6025595.860743566,75.77724658762538,6025595.860743566,78.00575316470251
6165950.01861481,77.95703172783081,6165950.01861481,75.77106519556435,6165950.01861481,78.00231535000617
6309573.44480192,77.95114513351076,6309573.44480192,75.76473564905554,6309573.44480192,77.99883455198709
6456542.290346542,77.94512576893769,6456542.290346542,75.75825675667086,6456542.290346542,77.99531254984831
6606934.480075947,77.93897290907425,6606934.480075947,75.75162736204504,6606934.480075947,77.99175114983589
6760829.753919804,77.93268585757268,6760829.753919804,75.74484634248554,6760829.753919804,77.98815217439024
6918309.709189351,77.92626394418055,6918309.709189351,75.73791260803037,6918309.709189351,77.98451745106446
7079457.843841365,77.91970652280473,7079457.843841365,75.73082510126019,7079457.843841365,77.98084880144171
7244359.600749886,77.91301297034261,7244359.600749886,75.72358279817651,7244359.600749886,77.97714803025472
7413102.413009159,77.9061826863032,7413102.413009159,75.71618470955131,7413102.413009159,77.97341691449741
7585775.750291822,77.89921509360875,7585775.750291822,75.7086298841504,7585775.750291822,77.96965719328456
7762471.166286901,77.89210964043301,7762471.166286901,75.70091741246732,7762471.166286901,77.96587055790414
7943282.347242798,77.88486580342777,7943282.347242798,75.6930464325533,7943282.347242798,77.96205864286681
8128305.161640975,77.87748309237406,8128305.161640975,75.68501613681509,8128305.161640975,77.95822301760147
8317637.711026692,77.86996105627246,8317637.711026692,75.67682578073845,8317637.711026692,77.9543651791961
8511380.382023746,77.86229929109365,8511380.382023746,75.6684746930321,8511380.382023746,77.95048654618301
8709635.899560787,77.85449744918006,8709635.899560787,75.65996228783069,8709635.899560787,77.94658845365159
8912509.381337434,77.84655525033727,8912509.381337434,75.65128807827411,8912509.381337434,77.94267214953724
9120108.393559076,77.83847249456684,9120108.393559076,75.64245169189348,9120108.393559076,77.93873879229136
9332543.007969888,77.83024907657612,9332543.007969888,75.63345288793067,9332543.007969888,77.93478945014981
9549925.860214336,77.82188500178813,9549925.860214336,75.62429157586398,9549925.860214336,77.93082510166377
9772372.209558083,77.81338040401859,9772372.209558083,75.61496783587066,9772372.209558083,77.92684663798264
9999999.999999976,77.80473556438923,9999999.999999976,75.60548194019481,9999999.999999976,77.92285486635255
10232929.92280752,77.79595093166068,10232929.92280752,75.59583437605437,10232929.92280752,77.91885051532253
10471285.48050897,77.78702714347745,10471285.48050897,75.58602586923493,10471285.48050897,77.91483424116133
10715193.05237604,77.77796504869323,10715193.05237604,75.57605740871244,10715193.05237604,77.91080663587681
10964781.96143182,77.76876572994156,10964781.96143182,75.56593027130725,10964781.96143182,77.90676823610013
11220184.54301961,77.75943052692739,11220184.54301961,75.55564604694791,11220184.54301961,77.90271953351667
11481536.2149688,77.7499610593767,11481536.2149688,75.54520666317961,11481536.2149688,77.89866098583484
11748975.54939527,77.74035924991357,11748975.54939527,75.53461440962658,11748975.54939527,77.89459302891699
12022644.3461741,77.73062734621163,12022644.3461741,75.52387196131633,12022644.3461741,77.8905160894128
12302687.70812378,77.72076794210685,12302687.70812378,75.51298240058185,12302687.70812378,77.88643059777081
12589254.11794164,77.71078399745322,12589254.11794164,75.50194923752959,12589254.11794164,77.88233700166457
12882495.5169313,77.70067885618241,12882495.5169313,75.49077642830035,12882495.5169313,77.87823577935588
13182567.38556403,77.69045626233709,13182567.38556403,75.47946839092744,13182567.38556403,77.87412745293412
13489628.8259165,77.68012037369267,13489628.8259165,75.4680300184453,13489628.8259165,77.87001260119814
13803842.64602881,77.66967577268079,13803842.64602881,75.45646668877436,13803842.64602881,77.86589187193943
14125375.4462275,77.6591274742425,14125375.4462275,75.44478427134008,14125375.4462275,77.86176599349059
14454397.70745923,77.64848093045178,14454397.70745923,75.43298912977785,14454397.70745923,77.85763578525494
14791083.88168203,77.63774203158748,14791083.88168203,75.42108812097767,14791083.88168203,77.85350216720184
15135612.48436204,77.62691710353658,15135612.48436204,75.40908858970505,15135612.48436204,77.84936616794199
15488166.18912477,77.61601290136254,15488166.18912477,75.39699835925158,15488166.18912477,77.84522893150989
15848931.92461109,77.60503659890385,15848931.92461109,75.38482571765476,15848931.92461109,77.8410917225177
16218100.97358925,77.59399577450327,16218100.97358925,75.37257939955347,16218100.97358925,77.83695592972222
16595869.07437555,77.58289839266673,16595869.07437555,75.36026856374683,16595869.07437555,77.83282306781599
16982436.52461739,77.57175278195849,16982436.52461739,75.34790276680367,16982436.52461739,77.82869477765072
17378008.2874937,77.56056760911838,17378008.2874937,75.33549193208259,17378008.2874937,77.82457282441656
17782794.10038917,77.5493518497333,17782794.10038917,75.32304631586744,17782794.10038917,77.82045909457504
18197008.58609978,77.53811475541666,18197008.58609978,75.31057646895222,18197008.58609978,77.8163555905147
18620871.36662862,77.52686581812894,18620871.36662862,75.29809319591327,18620871.36662862,77.81226442407628
19054607.17963241,77.51561473180021,19054607.17963241,75.28560751107506,19054607.17963241,77.80818780830397
19498445.99758039,77.50437135163497,19498445.99758039,75.27313059234771,19498445.99758039,77.80412804789383
19952623.14968874,77.49314565149022,19952623.14968874,75.26067373301727,19952623.14968874,77.80008752829066
20417379.44669523,77.48194767980598,20417379.44669523,75.24824829221839,20417379.44669523,77.79606870372706
20892961.30854033,77.47078751467804,20892961.30854033,75.23586564444575,20892961.30854033,77.79207408436324
21379620.89502225,77.45967521810854,21379620.89502225,75.22353712871096,21379620.89502225,77.78810622254524
21877616.23949546,77.44862079049271,21877616.23949546,75.21127399756209,21877616.23949546,77.78416769849781
22387211.38568332,77.43763412529721,22387211.38568332,75.19908736713795,22387211.38568332,77.7802611057338
22908676.52767766,77.426724964626,22908676.52767766,75.18698816796552,22908676.52767766,77.77638903608558
23442288.15319914,77.41590285625348,23442288.15319914,75.17498709759009,23442288.15319914,77.7725540649291
23988329.19019482,77.40517711202524,23988329.19019482,75.16309457502737,23988329.19019482,77.76875873630394
24547089.15685022,77.39455676867358,24547089.15685022,75.15132069777299,24547089.15685022,77.76500554859739
25118864.31509572,77.38405055083621,25118864.31509572,75.13967520174089,25118864.31509572,77.76129694068513
25703957.82768855,77.37366683689787,25703957.82768855,75.12816742388921,25703957.82768855,77.75763527853408
26302679.91895373,77.36341362771229,26302679.91895373,75.11680626878221,26302679.91895373,77.75402284283203
26915348.03926906,77.35329851868362,26915348.03926906,75.10560017827657,26915348.03926906,77.75046181731874
27542287.03338157,77.34332867496374,27542287.03338157,75.09455710521935,27542287.03338157,77.74695427813097
28183829.31264444,77.33351081042231,28183829.31264444,75.08368449123381,28183829.31264444,77.74350218445639
28840315.03126596,77.32385116980159,28840315.03126596,75.07298924775618,28840315.03126596,77.74010736977519
29512092.26666375,77.3143555147646,29512092.26666375,75.06247774193916,29512092.26666375,77.73677153492031
30199517.20402005,77.30502911327378,30199517.20402005,75.05215578573392,30199517.20402005,77.73349624182396
30902954.32513579,77.29587673251406,30902954.32513579,75.04202862913559,30902954.32513579,77.73028290866668
31622776.60168367,77.28690263514714,31622776.60168367,75.03210095713617,31622776.60168367,77.72713280619617
32359365.6929627,77.27811057896959,32359365.6929627,75.02237689029774,32359365.6929627,77.72404705530744
33113112.14825898,77.26950381942517,33113112.14825898,75.01285998837237,33113112.14825898,77.72102662546405
33884415.61392012,77.26108511518444,33884415.61392012,75.00355325749878,33884415.61392012,77.71807233451106
34673685.04525303,77.25285673632716,34673685.04525303,74.99445916006485,34673685.04525303,77.71518484932535
35481338.92335741,77.24482047503666,35481338.92335741,74.98557962723325,35481338.92335741,77.71236468742543
36307805.47701,77.23697765850821,36307805.47701,74.97691607400208,36307805.47701,77.70961221953631
37153522.90971711,77.22932916382098,37153522.90971711,74.96846941645239,37153522.90971711,77.70692767296951
38018939.63205598,77.22187543459263,38018939.63205598,74.96024009044794,38018939.63205598,77.70431113549854
38904514.49942791,77.21461649906453,38904514.49942791,74.95222807241964,38904514.49942791,77.70176256013822
39810717.05534957,77.20755198951218,39810717.05534957,74.94443290116901,39810717.05534957,77.6992817703207
40738027.78041112,77.20068116257072,40738027.78041112,74.93685370077804,40738027.78041112,77.69686846553311
41686938.34703338,77.19400292048347,41686938.34703338,74.92948920433415,41686938.34703338,77.69452222738889
42657951.8801591,77.1875158327784,42657951.8801591,74.92233777833584,42657951.8801591,77.69224252602577
43651583.22401643,77.18121815841117,43651583.22401643,74.91539744708486,43651583.22401643,77.69002872654436
44668359.21509614,77.1751078679858,44668359.21509614,74.90866591766908,44668359.21509614,77.68788009585226
45708818.96148732,77.16918266603277,45708818.96148732,74.90214060447755,45708818.96148732,77.68579580936233
46773514.12871964,77.16344001317607,46773514.12871964,74.8958186537521,46773514.12871964,77.68377495790318
47863009.23226365,77.15787714785731,47863009.23226365,74.88969696759823,47863009.23226365,77.68181655445127
48977881.93684442,77.1524911077039,48977881.93684442,74.88377222750957,48977881.93684442,77.67991954084036
50118723.36272702,77.14727875042986,50118723.36272702,74.8780409172461,50118723.36272702,77.67808279436645
51286138.39913628,77.14223677385822,51286138.39913628,74.8724993448635,51286138.39913628,77.67630513408238
52480746.02497704,77.13736173554521,52480746.02497704,74.86714366415468,52480746.02497704,77.674585327164
53703179.63702505,77.13265007130212,53703179.63702505,74.86196989480271,53703179.63702505,77.6729220946965
54954087.38576223,77.12809811303732,54954087.38576223,74.85697394182729,54954087.38576223,77.67131411742359
56234132.51903468,77.12370210571449,56234132.51903468,74.85215161394753,56234132.51903468,77.6697600411801
57543993.73371545,77.11945822331053,57543993.73371545,74.84749864088434,57543993.73371545,77.66825848198827
58884365.53555865,77.11536258393173,58884365.53555865,74.84301068954902,58884365.53555865,77.66680803084795
60255958.60743552,77.11141126387994,60255958.60743552,74.83868337928733,60255958.60743552,77.66540725826215
61659500.18614795,77.10760031080041,61659500.18614795,74.83451229585177,61659500.18614795,77.66405471832394
63095734.44801905,77.10392575603747,63095734.44801905,74.8304930046168,63095734.44801905,77.66274895272934
64565422.90346527,77.10038362574542,64565422.90346527,74.8266210622935,64565422.90346527,77.6614884940753
66069344.80075931,77.09696995144056,66069344.80075931,74.82289202818727,66069344.80075931,77.66027186932516
67608297.53919788,77.09368077938102,67608297.53919788,74.81930147392481,67608297.53919788,77.659097602522
69183097.09189335,77.09051217924754,69183097.09189335,74.81584499261798,69183097.09189335,77.65796421751622
