;Version, 1, 0
;TranMeasBJT,;TranMeasBJTRes,;TranMeasNMOS
;X, Y,;X, Y,;X, Y
;Re, Re,;Re, Re,;Re, Re
;time, V,;time, V,;time, V
;s, V,;s, V,;s, V
0,-0.6838230185649805,0,-0.6903591214288646,0,-0.404706045049933
1.25e-11,-0.6838230185649805,1.25e-11,-0.6903591214288646,1.25e-11,-0.404706045049933
2.002432985923615e-11,-0.6838230185649805,2.002432985923615e-11,-0.6903591214288646,2.002432985923615e-11,-0.404706045049933
3.507298957770843e-11,-0.6838230185649805,3.507298957770843e-11,-0.6903591214288646,3.507298957770843e-11,-0.404706045049933
5.10414614319396e-11,-0.6838230185649805,5.10414614319396e-11,-0.6903591214288647,5.10414614319396e-11,-0.404706045049933
6.66324260757167e-11,-0.6838230185649805,6.66324260757167e-11,-0.6903591214288647,6.66324260757167e-11,-0.404706045049933
7.786461534217241e-11,-0.6838230185649805,7.786461534217241e-11,-0.6903591214288647,7.786461534217241e-11,-0.4047060450499328
8.878091279702935e-11,-0.6838230185649805,8.878091279702935e-11,-0.6903591214288647,8.878091279702935e-11,-0.4047060450499329
1.007014252209371e-10,-0.6838230185649805,1.007014252209371e-10,-0.6903591214288645,1.007014252209371e-10,-0.4047060450499328
1.152997738238077e-10,-0.6838230185649805,1.152997738238077e-10,-0.6903591214288644,1.152997738238077e-10,-0.4047060450499328
1.318127822908729e-10,-0.6838230185649805,1.318127822908729e-10,-0.6903591214288645,1.318127822908729e-10,-0.404706045049933
1.478047338443948e-10,-0.6838230185649805,1.478047338443948e-10,-0.6903591214288647,1.478047338443948e-10,-0.404706045049933
1.647957103463322e-10,-0.6838230185649805,1.647957103463322e-10,-0.6903591214288645,1.647957103463322e-10,-0.404706045049933
1.830129767708249e-10,-0.6838230185649805,1.830129767708249e-10,-0.6903591214288644,1.830129767708249e-10,-0.4047060450499329
2.023598360281869e-10,-0.6838230185649805,2.023598360281869e-10,-0.6903591214288644,2.023598360281869e-10,-0.4047060450499329
2.237096653241523e-10,-0.6838230185649805,2.237096653241523e-10,-0.6903591214288645,2.237096653241523e-10,-0.4047060450499329
2.480795144238558e-10,-0.6838230185649805,2.480795144238558e-10,-0.6903591214288644,2.480795144238558e-10,-0.4047060450499329
2.750520638220621e-10,-0.6838230185649805,2.750520638220621e-10,-0.6903591214288645,2.750520638220621e-10,-0.4047060450499328
3.026838258275918e-10,-0.6838230185649805,3.026838258275918e-10,-0.6903591214288644,3.026838258275918e-10,-0.4047060450499329
3.309141237861371e-10,-0.6838230185649805,3.309141237861371e-10,-0.6903591214288644,3.309141237861371e-10,-0.404706045049933
3.597426096200112e-10,-0.6838230185649805,3.597426096200112e-10,-0.6903591214288642,3.597426096200112e-10,-0.404706045049933
3.890793465240297e-10,-0.6838230185649805,3.890793465240297e-10,-0.6903591214288644,3.890793465240297e-10,-0.4047060450499329
4.189245072682653e-10,-0.6838230185649805,4.189245072682653e-10,-0.6903591214288644,4.189245072682653e-10,-0.404706045049933
4.492795730023407e-10,-0.6838230185649805,4.492795730023407e-10,-0.6903591214288644,4.492795730023407e-10,-0.404706045049933
4.801438777956779e-10,-0.6838230185649806,4.801438777956779e-10,-0.6903591214288642,4.801438777956779e-10,-0.404706045049933
5.112287962772684e-10,-0.6838230185649805,5.112287962772684e-10,-0.6903591214288644,5.112287962772684e-10,-0.4047060450499331
5.380632738517116e-10,-0.6838230185649805,5.380632738517116e-10,-0.6903591214288644,5.380632738517116e-10,-0.4047060450499332
5.605061587214824e-10,-0.6838230185649803,5.605061587214824e-10,-0.6903591214288644,5.605061587214824e-10,-0.4047060450499333
5.822008162684487e-10,-0.6838230185649805,5.822008162684487e-10,-0.6903591214288645,5.822008162684487e-10,-0.4047060450499335
6.033935932439203e-10,-0.6838230185649805,6.033935932439203e-10,-0.6903591214288644,6.033935932439203e-10,-0.4047060450499335
6.253036805169431e-10,-0.6838230185649803,6.253036805169431e-10,-0.6903591214288645,6.253036805169431e-10,-0.4047060450499335
6.493161833761917e-10,-0.6838230185649804,6.493161833761917e-10,-0.6903591214288646,6.493161833761917e-10,-0.4047060450499335
6.751661094877906e-10,-0.6838230185649804,6.751661094877906e-10,-0.6903591214288646,6.751661094877906e-10,-0.4047060450499333
7.005684008055617e-10,-0.6838230185649805,7.005684008055617e-10,-0.6903591214288646,7.005684008055617e-10,-0.4047060450499334
7.259897876202671e-10,-0.6838230185649805,7.259897876202671e-10,-0.6903591214288646,7.259897876202671e-10,-0.4047060450499335
7.525624073253956e-10,-0.6838230185649806,7.525624073253956e-10,-0.6903591214288646,7.525624073253956e-10,-0.4047060450499335
7.844491381385942e-10,-0.6838230185649805,7.844491381385942e-10,-0.6903591214288646,7.844491381385942e-10,-0.4047060450499335
8.187366261402225e-10,-0.6838230185649805,8.187366261402225e-10,-0.6903591214288645,8.187366261402225e-10,-0.4047060450499335
8.536187011459417e-10,-0.6838230185649805,8.536187011459417e-10,-0.6903591214288645,8.536187011459417e-10,-0.4047060450499336
8.887935499175003e-10,-0.6838230185649805,8.887935499175003e-10,-0.6903591214288644,8.887935499175003e-10,-0.4047060450499336
9.244638464147239e-10,-0.6838230185649805,9.244638464147239e-10,-0.6903591214288642,9.244638464147239e-10,-0.4047060450499336
9.593575504025263e-10,-0.6838230185649804,9.593575504025263e-10,-0.6903591214288641,9.593575504025263e-10,-0.4047060450499335
9.935800550438587e-10,-0.6838230185649803,9.935800550438587e-10,-0.6903591214288642,9.935800550438587e-10,-0.4047060450499334
1.023709177259764e-09,-0.6838230185649803,1.023709177259764e-09,-0.6903591214288644,1.023709177259764e-09,-0.4047060450499335
1.048373344633749e-09,-0.6838230185649806,1.048373344633749e-09,-0.6903591214288642,1.048373344633749e-09,-0.4047060450499333
1.069578684206456e-09,-0.6838230185649805,1.069578684206456e-09,-0.6903591214288641,1.069578684206456e-09,-0.4047060450499332
1.091656980607733e-09,-0.6838230185649804,1.091656980607733e-09,-0.6903591214288642,1.091656980607733e-09,-0.4047060450499332
1.114358396261429e-09,-0.6838230185649805,1.114358396261429e-09,-0.6903591214288644,1.114358396261429e-09,-0.4047060450499331
1.13837877323553e-09,-0.6838230185649805,1.13837877323553e-09,-0.6903591214288644,1.13837877323553e-09,-0.404706045049933
1.165027453606868e-09,-0.6838230185649805,1.165027453606868e-09,-0.6903591214288644,1.165027453606868e-09,-0.404706045049933
1.190692712128867e-09,-0.6838230185649804,1.190692712128867e-09,-0.6903591214288642,1.190692712128867e-09,-0.4047060450499327
1.216042704899127e-09,-0.6838230185649798,1.216042704899127e-09,-0.6903591214288638,1.216042704899127e-09,-0.4047060450499321
1.241640134438573e-09,-0.6838230185649785,1.241640134438573e-09,-0.6903591214288622,1.241640134438573e-09,-0.4047060450499303
1.270442008122219e-09,-0.6838230185649735,1.270442008122219e-09,-0.6903591214288562,1.270442008122219e-09,-0.4047060450499237
1.306059278418848e-09,-0.6838230185649441,1.306059278418848e-09,-0.6903591214288215,1.306059278418848e-09,-0.4047060450498848
1.342520371881718e-09,-0.6838230185647831,1.342520371881718e-09,-0.6903591214286336,1.342520371881718e-09,-0.4047060450496723
1.378619378521902e-09,-0.6838230185640188,1.378619378521902e-09,-0.690359121427752,1.378619378521902e-09,-0.4047060450486683
1.413749730683698e-09,-0.6838230185609117,1.413749730683698e-09,-0.6903591214242008,1.413749730683698e-09,-0.4047060450446051
1.448299162860018e-09,-0.6838230185494212,1.448299162860018e-09,-0.6903591214111805,1.448299162860018e-09,-0.4047060450296444
1.482067903969686e-09,-0.6838230185109556,1.482067903969686e-09,-0.6903591213679501,1.482067903969686e-09,-0.4047060449797698
1.513934778696001e-09,-0.6838230184012847,1.513934778696001e-09,-0.6903591212455956,1.513934778696001e-09,-0.404706044838095
1.540936289786848e-09,-0.6838230181735201,1.540936289786848e-09,-0.6903591209929092,1.540936289786848e-09,-0.4047060445446918
1.563062346269664e-09,-0.6838230177994666,1.563062346269664e-09,-0.6903591205796474,1.563062346269664e-09,-0.4047060440638429
1.584397064397638e-09,-0.6838230171321114,1.584397064397638e-09,-0.6903591198451414,1.584397064397638e-09,-0.4047060432075827
1.606951115986758e-09,-0.683823015807449,1.606951115986758e-09,-0.6903591183932174,1.606951115986758e-09,-0.4047060415114641
1.630371233183517e-09,-0.6838230131579841,1.630371233183517e-09,-0.6903591155023923,1.630371233183517e-09,-0.4047060381267154
1.655905608264152e-09,-0.6838230073425479,1.655905608264152e-09,-0.6903591091903405,1.655905608264152e-09,-0.4047060307166623
1.681790492481853e-09,-0.683822995274142,1.681790492481853e-09,-0.6903590961650679,1.681790492481853e-09,-0.4047060153819417
1.707093968764669e-09,-0.6838229717828752,1.707093968764669e-09,-0.6903590709537952,1.707093968764669e-09,-0.4047059856156755
1.732412191712993e-09,-0.683822926035305,1.732412191712993e-09,-0.6903590221371102,1.732412191712993e-09,-0.4047059278111076
1.759648583012331e-09,-0.6838228279715128,1.759648583012331e-09,-0.6903589181639875,1.759648583012331e-09,-0.4047058042914657
1.794644908017141e-09,-0.6838225317145531,1.794644908017141e-09,-0.690358607007406,1.794644908017141e-09,-0.4047054328474228
1.830962321412397e-09,-0.6838217536739954,1.830962321412397e-09,-0.6903577988766382,1.830962321412397e-09,-0.4047044626021783
1.867717861587931e-09,-0.6838198317373495,1.867717861587931e-09,-0.6903558253435,1.867717861587931e-09,-0.4047020790881581
1.902937733478046e-09,-0.6838156709040049,1.902937733478046e-09,-0.6903515993256784,1.902937733478046e-09,-0.4046969460112592
1.937929836866202e-09,-0.6838068906665029,1.937929836866202e-09,-0.6903427776595834,1.937929836866202e-09,-0.4046861699978982
1.972036536303745e-09,-0.6837896879463742,1.972036536303745e-09,-0.6903256778636154,1.972036536303745e-09,-0.4046651640464635
2.006526504694968e-09,-0.6837560550725853,2.006526504694968e-09,-0.6902926115857846,2.006526504694968e-09,-0.4046243079329681
2.035317783076719e-09,-0.6837072691012832,2.035317783076719e-09,-0.6902450957491821,2.035317783076719e-09,-0.4045653050288143
2.058526802507293e-09,-0.6836472354677239,2.058526802507293e-09,-0.6901870557033836,2.058526802507293e-09,-0.4044929494547651
2.07959530049059e-09,-0.6835698770498297,2.07959530049059e-09,-0.6901127520147765,2.07959530049059e-09,-0.4043999959042697
2.102045639652861e-09,-0.6834539868714141,2.102045639652861e-09,-0.6900022051056627,2.102045639652861e-09,-0.4042611893115082
2.125136144015627e-09,-0.6832856735465113,2.125136144015627e-09,-0.6898428605154334,2.125136144015627e-09,-0.4040602972405049
2.150085506391294e-09,-0.6830272963993811,2.150085506391294e-09,-0.6896003027903893,2.150085506391294e-09,-0.4037531045684112
2.176045848646148e-09,-0.6826442676347365,2.176045848646148e-09,-0.6892440567054429,2.176045848646148e-09,-0.4032996535997215
2.201375348579349e-09,-0.6821219479027976,2.201375348579349e-09,-0.6887629084321135,2.201375348579349e-09,-0.4026840181711019
2.226614736068445e-09,-0.6814119369059359,2.226614736068445e-09,-0.6881152960136987,2.226614736068445e-09,-0.4018509224907594
2.253182532116174e-09,-0.6804037691701695,2.253182532116174e-09,-0.6872055761064181,2.253182532116174e-09,-0.400673753522926
2.285530709733618e-09,-0.6787167617111471,2.285530709733618e-09,-0.6857037953936268,2.285530709733618e-09,-0.3987159916652768
2.321542641571109e-09,-0.6761077123587467,2.321542641571109e-09,-0.6834200810704786,2.321542641571109e-09,-0.395711142993359
2.358166806475441e-09,-0.6725330598641444,2.358166806475441e-09,-0.6803500143788811,2.358166806475441e-09,-0.3916291196673359
2.393502204141138e-09,-0.668133133289837,2.393502204141138e-09,-0.6766467534713806,2.393502204141138e-09,-0.3866498395616751
2.429288457167262e-09,-0.6627520392854067,2.429288457167262e-09,-0.6722179713699606,2.429288457167262e-09,-0.3806206326380008
2.464163260008817e-09,-0.6567683947774927,2.464163260008817e-09,-0.6674173491421792,2.464163260008817e-09,-0.3739918531441545
2.498700685564188e-09,-0.6504226415449681,2.498700685564188e-09,-0.6624776725837089,2.498700685564188e-09,-0.36705531469572
2.528229279333315e-09,-0.6449760880523157,2.528229279333315e-09,-0.6583839233315403,2.528229279333315e-09,-0.3611928422723512
2.552317524292185e-09,-0.6407544457975068,2.552317524292185e-09,-0.6553328806069022,2.552317524292185e-09,-0.3567259283275054
2.573357131630119e-09,-0.6374093518209383,2.573357131630119e-09,-0.6530262436223824,2.573357131630119e-09,-0.3532573181857548
2.595848548084319e-09,-0.6343819462183147,2.595848548084319e-09,-0.6510822718312915,2.595848548084319e-09,-0.3502107809100039
2.618700948496715e-09,-0.6320800456625397,2.618700948496715e-09,-0.6498024286444839,2.618700948496715e-09,-0.348023384857335
2.643022801858916e-09,-0.6306911669710564,2.643022801858916e-09,-0.6493510263108248,2.643022801858916e-09,-0.3469138549555478
2.669527917604566e-09,-0.63062803508995,2.669527917604566e-09,-0.6500547007014487,2.669527917604566e-09,-0.347339890317956
2.695004032647364e-09,-0.6321257046925266,2.695004032647364e-09,-0.6519698505094106,2.695004032647364e-09,-0.3494776730534744
2.720301593578185e-09,-0.6351797372981113,2.720301593578185e-09,-0.6550725043330808,2.720301593578185e-09,-0.3533099381901493
2.746206488713336e-09,-0.639891725437559,2.746206488713336e-09,-0.6594181350591618,2.746206488713336e-09,-0.3589332307806495
2.776164313599871e-09,-0.6471583345691564,2.776164313599871e-09,-0.6657214160692981,2.776164313599871e-09,-0.3673431208691984
2.811898048365097e-09,-0.6578899739688947,2.811898048365097e-09,-0.6745958480961143,2.811898048365097e-09,-0.3794731609906614
2.848396026034754e-09,-0.6704504904529266,2.848396026034754e-09,-0.684594562310482,2.848396026034754e-09,-0.3934037625682318
2.884144620763294e-09,-0.6835277348795238,2.884144620763294e-09,-0.6946939551754824,2.884144620763294e-09,-0.4076847408490373
2.919426542496683e-09,-0.6964211542387552,2.919426542496683e-09,-0.7043965165273289,2.919426542496683e-09,-0.4215733004739215
2.954037274463331e-09,-0.7083917796085869,2.954037274463331e-09,-0.7131851701994709,2.954037274463331e-09,-0.4342968199292147
2.987948646894775e-09,-0.7189238127471109,2.987948646894775e-09,-0.7207121041558586,2.987948646894775e-09,-0.4453304488850872
3.018737358691338e-09,-0.727087073021437,3.018737358691338e-09,-0.7263540524441625,3.018737358691338e-09,-0.4537363282654652
3.044491602164367e-09,-0.7326827760808398,3.044491602164367e-09,-0.7300533944260058,3.044491602164367e-09,-0.4593753433288427
3.066098167950317e-09,-0.7363968421222612,3.066098167950317e-09,-0.7323592707829812,3.066098167950317e-09,-0.4630123136904502
3.087942977799162e-09,-0.7391553805868508,3.087942977799162e-09,-0.7338902271095787,3.087942977799162e-09,-0.4655879488475162
3.110529414880126e-09,-0.7408856302071288,3.110529414880126e-09,-0.7345827183698189,3.110529414880126e-09,-0.4670203845617959
3.134265390244169e-09,-0.7414236384780378,3.134265390244169e-09,-0.734308284565825,3.134265390244169e-09,-0.4671317763692531
3.160326222131077e-09,-0.7404786565535275,3.160326222131077e-09,-0.7328263067904903,3.160326222131077e-09,-0.4655956425353545
3.186147588610211e-09,-0.7379798519153278,3.186147588610211e-09,-0.7301825755278253,3.186147588610211e-09,-0.4624008996150535
3.211468780944044e-09,-0.734091278953743,3.211468780944044e-09,-0.7265364492222348,3.211468780944044e-09,-0.4577434137205738
3.236896320709137e-09,-0.7288762300879088,3.236896320709137e-09,-0.7219452206711072,3.236896320709137e-09,-0.4516929594121907
3.264814676499753e-09,-0.7218449110113905,3.264814676499753e-09,-0.7160145712988227,3.264814676499753e-09,-0.443700513608055
3.300318945092431e-09,-0.7113698859391283,3.300318945092431e-09,-0.7074883519263742,3.300318945092431e-09,-0.4319855215285388
3.336730969880975e-09,-0.6994042129118074,3.336730969880975e-09,-0.6980311252555307,3.336730969880975e-09,-0.4187789902685506
3.373375205766969e-09,-0.6867128122222889,3.373375205766969e-09,-0.6882289867347255,3.373375205766969e-09,-0.4049200652315695
3.408550834426856e-09,-0.6744502993354665,3.408550834426856e-09,-0.6789388486291127,3.408550834426856e-09,-0.3916569589825095
3.443244083731391e-09,-0.6627643636985805,3.443244083731391e-09,-0.6702467641025921,3.443244083731391e-09,-0.3791409566811205
3.477048822843531e-09,-0.6522074213441225,3.477048822843531e-09,-0.6625586991673171,3.477048822843531e-09,-0.3679642519759119
3.509853135235343e-09,-0.6431527436391878,3.509853135235343e-09,-0.6561492980484942,3.509853135235343e-09,-0.3585214037397622
3.538042599240396e-09,-0.6365982758456311,3.538042599240396e-09,-0.6516926671172975,3.538042599240396e-09,-0.3518224733762157
3.560659022089354e-09,-0.6323268425394614,3.560659022089354e-09,-0.6489466458917907,3.560659022089354e-09,-0.3475708537914615
3.581880594662792e-09,-0.6292397135957997,3.581880594662792e-09,-0.6471303367425725,3.581880594662792e-09,-0.3446160310999634
3.604391260764993e-09,-0.6270462848055423,3.604391260764993e-09,-0.6460804703019684,3.604391260764993e-09,-0.342682555327413
3.627627726855811e-09,-0.6260324694490969,3.627627726855811e-09,-0.6459909280390116,3.627627726855811e-09,-0.3420601070219277
3.652833927673719e-09,-0.6264222624268431,3.652833927673719e-09,-0.6470510092628676,3.652833927673719e-09,-0.343002171291636
3.67876855615971e-09,-0.6284382197850094,3.67876855615971e-09,-0.6493638151351808,3.67876855615971e-09,-0.3457043890112504
3.704078477670619e-09,-0.6319199253596914,3.704078477670619e-09,-0.6527339720572024,3.704078477670619e-09,-0.3499473671763142
3.72934591081482e-09,-0.6367651799331699,3.72934591081482e-09,-0.6570723138323487,3.72934591081482e-09,-0.3556174681304712
3.756197707928483e-09,-0.6432181016818048,3.756197707928483e-09,-0.6625744063588458,3.756197707928483e-09,-0.3629898650664786
3.789648361597014e-09,-0.6527448497973762,3.789648361597014e-09,-0.6703932400202378,3.789648361597014e-09,-0.373682333129878
3.825793894304739e-09,-0.6643501621054752,3.825793894304739e-09,-0.6796267677110587,3.825793894304739e-09,-0.3865265061810114
3.862476152779312e-09,-0.67692418764323,3.862476152779312e-09,-0.6893922716660943,3.862476152779312e-09,-0.4002905693031529
3.897743594129846e-09,-0.6892379028449287,3.897743594129846e-09,-0.6987715513774925,3.897743594129846e-09,-0.4136437202019969
3.933188737586894e-09,-0.7013337943940191,3.933188737586894e-09,-0.7078216157672782,3.933188737586894e-09,-0.4266383341516748
3.967682369569383e-09,-0.7123793627757204,3.967682369569383e-09,-0.715922507999715,3.967682369569383e-09,-0.4383758387229819
4.002724857647632e-09,-0.722395913162024,4.002724857647632e-09,-0.7230742695072288,4.002724857647632e-09,-0.4488678433275217
4.031971865398401e-09,-0.7295006263731165,4.031971865398401e-09,-0.7279588069536239,4.031971865398401e-09,-0.4561679624734976
4.055682244759557e-09,-0.7342270273534901,4.055682244759557e-09,-0.7310455361884778,4.055682244759557e-09,-0.4609061817128042
4.076693708737521e-09,-0.7375148629278291,4.076693708737521e-09,-0.7330335671640933,4.076693708737521e-09,-0.4640898491820582
4.099162128440001e-09,-0.7399800560441608,4.099162128440001e-09,-0.7343034629642815,4.099162128440001e-09,-0.4663240303686823
4.122120531840299e-09,-0.7412884156196842,4.122120531840299e-09,-0.734633534415448,4.122120531840299e-09,-0.467273497425635
4.146761205005798e-09,-0.7412686158820678,4.146761205005798e-09,-0.7338748557121908,4.146761205005798e-09,-0.4667419997162927
4.172902384965798e-09,-0.7396234887481788,4.172902384965798e-09,-0.7318328356626962,4.172902384965798e-09,-0.4644305203103894
4.198280657527142e-09,-0.7364771009513451,4.198280657527142e-09,-0.7287030070670999,4.198280657527142e-09,-0.4605388615568395
4.22352350875553e-09,-0.7319424024843252,4.22352350875553e-09,-0.724581955331686,4.22352350875553e-09,-0.4551918653945293
4.249759898259593e-09,-0.7259183469459586,4.249759898259593e-09,-0.7193926048142651,4.249759898259593e-09,-0.4482755836611897
4.280892482493668e-09,-0.7173565986126821,4.280892482493668e-09,-0.7123042198529255,4.280892482493668e-09,-0.4386282095870766
