;Version, 1, 0
;vout_dc (VCTRL=0),;vout_dc (VCTRL=0.04),;vout_dc (VCTRL=0.08),;vout_dc (VCTRL=0.12),;vout_dc (VCTRL=0.16),;vout_dc (VCTRL=0.2)
;X, Y,;X, Y,;X, Y,;X, Y,;X, Y,;X, Y
;Re, Re,;Re, Re,;Re, Re,;Re, Re,;Re, Re,;Re, Re
;vin, V,;vin, V,;vin, V,;vin, V,;vin, V,;vin, V
;xunit, V,;xunit, V,;xunit, V,;xunit, V,;xunit, V,;xunit, V
-0.2,0,-0.2,-0.09922680340926071,-0.2,-0.2090380777848095,-0.2,-0.3293477430852254,-0.2,-0.4403764546595147,-0.2,-0.5287066249802684
-0.192,0,-0.192,-0.09518441926375565,-0.192,-0.2007286893703957,-0.192,-0.3182508118995369,-0.192,-0.4292472347452316,-0.192,-0.518147940937732
-0.184,0,-0.184,-0.09110355295423056,-0.184,-0.192260798445588,-0.184,-0.3065787077686768,-0.184,-0.4172966231965468,-0.184,-0.5068103925019015
-0.176,0,-0.176,-0.08701508957547643,-0.176,-0.183681106876133,-0.176,-0.2943808889870068,-0.176,-0.4045022362840667,-0.176,-0.4946418761106625
-0.168,0,-0.168,-0.08292541344086413,-0.168,-0.1750262967324876,-0.168,-0.2817128740432231,-0.168,-0.3908406559885869,-0.168,-0.4815878450251372
-0.16,0,-0.16,-0.0788379393325962,-0.16,-0.1663247208879581,-0.16,-0.2686344908686333,-0.16,-0.3762916380386006,-0.16,-0.4675595813868131
-0.152,0,-0.152,-0.07475363239912181,-0.152,-0.1575967445567843,-0.152,-0.2552075264169134,-0.152,-0.3608428445065317,-0.152,-0.4525079110821449
-0.144,0,-0.144,-0.07067170433423775,-0.144,-0.1488560772748821,-0.144,-0.2414941812186318,-0.144,-0.3444970732303321,-0.144,-0.4363746007989158
-0.136,0,-0.136,-0.06659084278806882,-0.136,-0.1401128655390804,-0.136,-0.2275588161468773,-0.136,-0.3272849477598556,-0.136,-0.4190913675038669
-0.1279999999999999,0,-0.1279999999999999,-0.06251154290439809,-0.1279999999999999,-0.1313794988285386,-0.1279999999999999,-0.2134746335951485,-0.1279999999999999,-0.3092837582643746,-0.1279999999999999,-0.4006213403440675
-0.1199999999999999,0,-0.1199999999999999,-0.05843862662857013,-0.1199999999999999,-0.1226755799581014,-0.1199999999999999,-0.1993255963047433,-0.1199999999999999,-0.2906212428603467,-0.1199999999999999,-0.3809783577725023
-0.1119999999999999,0,-0.1119999999999999,-0.05438009521024134,-0.1119999999999999,-0.114023647605656,-0.1119999999999999,-0.1851916529177751,-0.1119999999999999,-0.271448537294031,-0.1119999999999999,-0.3602041752221417
-0.1039999999999999,0,-0.1039999999999999,-0.05034303368886084,-0.1039999999999999,-0.1054408597209275,-0.1039999999999999,-0.1711342826934747,-0.1039999999999999,-0.2519146788720459,-0.1039999999999999,-0.3383472043221729
-0.09599999999999992,0,-0.09599999999999992,-0.04633184052698502,-0.09599999999999992,-0.0969368907284831,-0.09599999999999992,-0.157194810247014,-0.09599999999999992,-0.2321559555426056,-0.09599999999999992,-0.3154642673258208
-0.08799999999999991,0,-0.08799999999999991,-0.04234862156763497,-0.08799999999999991,-0.08851555319132665,-0.08799999999999991,-0.1433979047404925,-0.08799999999999991,-0.2122903490402384,-0.08799999999999991,-0.2916305593332342
-0.0799999999999999,0,-0.0799999999999999,-0.03839385695320097,-0.0799999999999999,-0.08017654085760628,-0.0799999999999999,-0.1297553309501973,-0.0799999999999999,-0.1924138995639795,-0.0799999999999999,-0.2669494518290545
-0.0719999999999999,0,-0.0719999999999999,-0.03446688298033029,-0.0719999999999999,-0.07191668316660915,-0.0719999999999999,-0.1162691496077803,-0.0719999999999999,-0.1725992402987448,-0.0719999999999999,-0.2415512577905832
-0.06399999999999989,0,-0.06399999999999989,-0.03056622292041578,-0.06399999999999989,-0.06373082895016924,-0.06399999999999989,-0.1029343300858498,-0.06399999999999989,-0.1528962729713921,-0.06399999999999989,-0.2155789417944838
-0.05599999999999989,0,-0.05599999999999989,-0.02668982097867101,-0.05599999999999989,-0.05561247582972917,-0.05599999999999989,-0.08974081017595714,-0.05599999999999989,-0.1333344492122663,-0.05599999999999989,-0.1891724186053945
-0.04799999999999989,0,-0.04799999999999989,-0.02283521088057205,-0.04799999999999989,-0.04755421812253857,-0.04799999999999989,-0.07667506420101255,-0.04799999999999989,-0.1139259425512216,-0.04799999999999989,-0.1624576541256435
-0.03999999999999989,0,-0.03999999999999989,-0.01899963797084792,-0.03999999999999989,-0.03954806205365413,-0.03999999999999989,-0.06372125770685444,-0.03999999999999989,-0.09466907216794507,-0.03999999999999989,-0.1355401033093802
-0.03199999999999989,0,-0.03199999999999989,-0.01518014745800245,-0.03199999999999989,-0.03158564352685111,-0.03199999999999989,-0.0508620706745746,-0.03199999999999989,-0.07555153451459962,-0.03199999999999989,-0.1085015712766029
-0.02399999999999989,0,-0.02399999999999989,-0.01137364788763762,-0.02399999999999989,-0.02365837479443211,-0.02399999999999989,-0.03807926515201077,-0.02399999999999989,-0.05655320558693311,-0.02399999999999989,-0.08140003737138302
-0.01599999999999989,0,-0.01599999999999989,-0.007576956630106491,-0.01599999999999989,-0.01575753994472828,-0.01599999999999989,-0.02535406254623584,-0.01599999999999989,-0.03764843983469768,-0.01599999999999989,-0.05427194289637449
-0.007999999999999889,0,-0.007999999999999889,-0.003786832574593113,-0.007999999999999889,-0.007874354386981031,-0.007999999999999889,-0.01266738430456771,-0.007999999999999889,-0.0188078982292863,-0.007999999999999889,-0.0271363028483842
0,0,0,-1.00293551241748e-10,0,-6.649170103401048e-11,0,5.298470551196033e-10,0,3.025056649619273e-09,0,6.868409174742851e-09
0.008,0,0.008,0.003786832371390769,0.008,0.007874354252151772,0.008,0.01266738537998902,0.008,0.01880790430417023,0.008,0.02713631598664312
0.016,0,0.016,0.007576956418892111,0.016,0.01575753980399086,0.016,0.02535406366784287,0.016,0.03764844596679651,0.016,0.05427195428118026
0.024,0,0.024,0.01137364766250459,0.024,0.0236583746425405,0.024,0.03807926634687631,0.024,0.0565532117557499,0.024,0.08140004598787964
0.032,0,0.032,0.01518014721215177,0.032,0.03158564335637015,0.032,0.05086207196269221,0.032,0.07555154060710945,0.032,0.1085015763646262
0.04,0,0.04,0.01899963769614788,0.04,0.0395480618535955,0.04,0.06372125909506288,0.04,0.09466907793703738,0.04,0.1355401044413216
0.048,0,0.048,0.02283521056702731,0.048,0.0475542178764341,0.048,0.07667506567319782,0.048,0.1139259475810244,0.048,0.1624576511464859
0.056,0,0.056,0.02668982061378222,0.056,0.05561247551285198,0.056,0.089740811677959,0.056,0.1333344529087859,0.056,0.1891724113651321
0.064,0,0.064,0.03056622248838847,0.064,0.06373082852553624,0.064,0.102934331503642,0.064,0.1528962746041376,0.064,0.2155789297625723
0.07200000000000001,0,0.07200000000000001,0.03446688246111052,0.07200000000000001,0.07191668257924722,0.07200000000000001,0.1162691507384714,0.07200000000000001,0.1725992391129891,0.07200000000000001,0.24155123992939
0.08000000000000002,0,0.08000000000000002,0.03839385632120185,0.08000000000000002,0.08017654002628194,0.08000000000000002,0.1297553314680875,0.08000000000000002,0.1924138949503289,0.08000000000000002,0.266949427490577
0.08800000000000002,0,0.08800000000000002,0.0423486207898276,0.08800000000000002,0.08851555199628902,0.08800000000000002,0.1433979041652038,0.08800000000000002,0.2122903406880685,0.08800000000000002,0.291630530397903
0.09600000000000003,0,0.09600000000000003,0.04633183955949605,0.09600000000000003,0.09693688899211717,0.09600000000000003,0.1571948079264409,0.09600000000000003,0.2321559434527807,0.09600000000000003,0.3154642378059063
0.104,0,0.104,0.05034303247330496,0.104,0.1054408571798557,0.104,0.1711342778204374,0.104,0.2519146631283899,0.104,0.3383471758594643
0.112,0,0.112,0.054380093700793,0.112,0.1140236439342996,0.112,0.1851916446593298,0.112,0.2714485176346917,0.112,0.3602041462466641
0.1200000000000001,0,0.1200000000000001,0.05843862498814345,0.1200000000000001,0.1226755752483555,0.1200000000000001,0.1993255845779531,0.1200000000000001,0.2906212185359858,0.1200000000000001,0.3809783256725479
0.1280000000000001,0,0.1280000000000001,0.0625115417798785,0.1280000000000001,0.1313794947978493,0.1280000000000001,0.2134746213501126,0.1280000000000001,0.3092837304535678,0.1280000000000001,0.4006213089826105
0.1360000000000001,0,0.1360000000000001,0.06659084272133664,0.1360000000000001,0.1401128645348466,0.1360000000000001,0.2275588087069436,0.1360000000000001,0.3272849247960037,0.1360000000000001,0.4190913578904486
0.1440000000000001,0,0.1440000000000001,0.07067170503815712,0.1440000000000001,0.1488560790660787,0.1440000000000001,0.2414941792344092,0.1440000000000001,0.3444970630854214,0.1440000000000001,0.4363746205755274
0.1520000000000001,0,0.1520000000000001,0.07475363338625507,0.1520000000000001,0.157596747437418,0.1520000000000001,0.2552075263877736,0.1520000000000001,0.3608428444183276,0.1520000000000001,0.4525079408179095
0.1600000000000001,0,0.1600000000000001,0.07883794036009828,0.1600000000000001,0.166324723714397,0.1600000000000001,0.2686344904891069,0.1600000000000001,0.3762916429781675,0.1600000000000001,0.4675596006434327
0.1680000000000001,0,0.1680000000000001,0.08292541441970314,0.1680000000000001,0.1750262989406559,0.1680000000000001,0.2817128726543718,0.1680000000000001,0.3908406631671302,0.1680000000000001,0.4815878747139964
0.1760000000000001,0,0.1760000000000001,0.08701509046356692,0.1760000000000001,0.1836811081606899,0.1760000000000001,0.294380886595901,0.1760000000000001,0.4045022440912833,0.1760000000000001,0.4946419020291569
0.1840000000000001,0,0.1840000000000001,0.09110355371346035,0.1840000000000001,0.1922607986449743,0.1840000000000001,0.3065787045878001,0.1840000000000001,0.4172966305109881,0.1840000000000001,0.5068104073451623
0.1920000000000001,0,0.1920000000000001,0.09518441932283017,0.1920000000000001,0.2007286883825612,0.1920000000000001,0.3182508082005313,0.1920000000000001,0.4292472364858008,0.1920000000000001,0.5181479560576375
0.2,0,0.2,0.09924787991406814,0.2,0.2090402252602437,0.2,0.329348005504797,0.2,0.4403736829120878,0.2,0.5287044997102804
