;Version, 1, 0
;vout_dc (VCTRL=0.05),;vout_dc (VCTRL=0.1),;vout_dc (VCTRL=0.15),;vout_dc (VCTRL=0.2),;vout_dc (VCTRL=0.25),;vout_dc (VCTRL=0.3),;vout_dc (VCTRL=0.35),;vout_dc (VCTRL=0.4)
;X, Y,;X, Y,;X, Y,;X, Y,;X, Y,;X, Y,;X, Y,;X, Y
;Re, Re,;Re, Re,;Re, Re,;Re, Re,;Re, Re,;Re, Re,;Re, Re,;Re, Re
;vin, V,;vin, V,;vin, V,;vin, V,;vin, V,;vin, V,;vin, V,;vin, V
;xunit, V,;xunit, V,;xunit, V,;xunit, V,;xunit, V,;xunit, V,;xunit, V,;xunit, V
-0.3,-0.1974215228555631,-0.3,-0.3909018471339492,-0.3,-0.5759293748577919,-0.3,-0.7461310190473681,-0.3,-0.8923656077283157,-0.3,-1.008770482820693,-0.3,-1.096444006436661,-0.3,-1.155401634111113
-0.288,-0.1973673773851239,-0.288,-0.3907939027333831,-0.288,-0.5757719714237981,-0.288,-0.745939444925819,-0.288,-0.892163106290053,-0.288,-1.008537377540542,-0.288,-1.096080033931273,-0.288,-1.154603432152822
-0.276,-0.1973088521272285,-0.276,-0.3906692586340753,-0.276,-0.5755609240706896,-0.276,-0.7455629481647708,-0.276,-0.891482170418233,-0.276,-1.007376510889133,-0.276,-1.094171774769156,-0.276,-1.151693977103068
-0.264,-0.1945917002642597,-0.264,-0.3870802135448705,-0.264,-0.571359290879103,-0.264,-0.7408403029372707,-0.264,-0.886443288794289,-0.264,-1.002044683852513,-0.264,-1.08835612571483,-0.264,-1.144942490200819
-0.2519999999999999,-0.1889128449506339,-0.2519999999999999,-0.3800690803066741,-0.2519999999999999,-0.5638392084391566,-0.2519999999999999,-0.7329723229028371,-0.2519999999999999,-0.8784166019764161,-0.2519999999999999,-0.993820593445053,-0.2519999999999999,-1.079507449698863,-0.2519999999999999,-1.134776073841778
-0.2399999999999999,-0.1815458946619229,-0.2399999999999999,-0.3706075341182964,-0.2399999999999999,-0.5536524156490665,-0.2399999999999999,-0.7223003899062075,-0.2399999999999999,-0.8674993600902351,-0.2399999999999999,-0.9826166782345482,-0.2399999999999999,-1.067413252719961,-0.2399999999999999,-1.120782326395141
-0.2279999999999999,-0.1725732146321267,-0.2279999999999999,-0.3583833348018312,-0.2279999999999999,-0.5404129388518253,-0.2279999999999999,-0.7084163360930243,-0.2279999999999999,-0.8533027142636567,-0.2279999999999999,-0.9680272637604916,-0.2279999999999999,-1.051592956248079,-0.2279999999999999,-1.102371887773996
-0.2159999999999999,-0.1622641775676981,-0.2159999999999999,-0.3432236831052869,-0.2159999999999999,-0.5238476311228596,-0.2159999999999999,-0.6910199843166066,-0.2159999999999999,-0.8354843414296556,-0.2159999999999999,-0.9496791846124055,-0.2159999999999999,-1.031592926743468,-0.2159999999999999,-1.078989683208535
-0.2039999999999999,-0.1511099612607606,-0.2039999999999999,-0.325198756325523,-0.2039999999999999,-0.5038615213775579,-0.2039999999999999,-0.6699838893482193,-0.2039999999999999,-0.8138776048236106,-0.2039999999999999,-0.9273525791347741,-0.2039999999999999,-1.007086709478163,-0.2039999999999999,-1.050241306154969
-0.1919999999999999,-0.1396600864660034,-0.1919999999999999,-0.3046655007990257,-0.1919999999999999,-0.4805388085952609,-0.1919999999999999,-0.6453492291706802,-0.1919999999999999,-0.7884719846178927,-0.1919999999999999,-0.9009605571848405,-0.1919999999999999,-0.9778591622689753,-0.1919999999999999,-1.015926297457016
-0.1799999999999999,-0.1283707794678466,-0.1799999999999999,-0.2822693296599642,-0.1799999999999999,-0.4541068162007845,-0.1799999999999999,-0.6172805149084375,-0.1799999999999999,-0.7593710781633676,-0.1799999999999999,-0.8705062901981798,-0.1799999999999999,-0.9437723162892602,-0.1799999999999999,-0.9760575716549832
-0.1679999999999999,-0.1175277730454658,-0.1679999999999999,-0.2588790306870108,-0.1679999999999999,-0.4249032004743189,-0.1679999999999999,-0.5860158397008435,-0.1679999999999999,-0.7267460340725933,-0.1679999999999999,-0.8360379526272903,-0.1679999999999999,-0.9047422952885509,-0.1679999999999999,-0.9308701656108244
-0.1559999999999999,-0.107251695086087,-0.1559999999999999,-0.2354125127926875,-0.1559999999999999,-0.393366336459849,-0.1559999999999999,-0.5518286537189574,-0.1559999999999999,-0.6907987067496517,-0.1559999999999999,-0.7976163702747662,-0.1559999999999999,-0.8607468495440804,-0.1559999999999999,-0.8807973190771788
-0.1439999999999999,-0.09754521939762606,-0.1439999999999999,-0.2126074830334646,-0.1439999999999999,-0.3600530203402314,-0.1439999999999999,-0.5150058205397934,-0.1439999999999999,-0.6517374143208814,-0.1439999999999999,-0.7552994451931487,-0.1439999999999999,-0.8118647914454638,-0.1439999999999999,-0.8263996540050017
-0.1319999999999998,-0.08834460735480221,-0.1319999999999998,-0.19088214887474,-0.1319999999999998,-0.3256613073531314,-0.1319999999999998,-0.4758409186879612,-0.1319999999999998,-0.609762559565297,-0.1319999999999998,-0.7091415563451252,-0.1319999999999998,-0.7583263011205535,-0.1319999999999998,-0.768271731467341
-0.1199999999999998,-0.07955882566180161,-0.1199999999999998,-0.1703519669814813,-0.1199999999999998,-0.2910011181621999,-0.1199999999999998,-0.4346407611815814,-0.1199999999999998,-0.5650584091292541,-0.1199999999999998,-0.6592040761706992,-0.1199999999999998,-0.7005354096021253,-0.1199999999999998,-0.7069691013011492
-0.1079999999999998,-0.07109385123462075,-0.1079999999999998,-0.1509351359769012,-0.1079999999999998,-0.2568645741473152,-0.1079999999999998,-0.3917440559173828,-0.1079999999999998,-0.5177885194318768,-0.1079999999999998,-0.6055725686585381,-0.1079999999999998,-0.6390348591677495,-0.1079999999999998,-0.6429760712033588
-0.09599999999999985,-0.0628653760007043,-0.09599999999999985,-0.1324587147141004,-0.09599999999999985,-0.2238468616018864,-0.09599999999999985,-0.3475497362447449,-0.09599999999999985,-0.4680939452163708,-0.09599999999999985,-0.5483763293743795,-0.09599999999999985,-0.5744245192930281,-0.09599999999999985,-0.5767047879281693
-0.08399999999999985,-0.05480393243453985,-0.08399999999999985,-0.1147287322027186,-0.08399999999999985,-0.1922435043966663,-0.08399999999999985,-0.30254221402649,-0.08399999999999985,-0.4160947653769883,-0.08399999999999985,-0.4878065707290616,-0.08399999999999985,-0.5072788540747837,-0.08399999999999985,-0.5085079829705457
-0.07199999999999986,-0.04685564146271881,-0.07199999999999986,-0.09756603596890567,-0.07199999999999986,-0.1620773873326247,-0.07199999999999986,-0.2572824585621956,-0.07199999999999986,-0.3618965828141276,-0.07199999999999986,-0.4241300949984795,-0.07199999999999986,-0.438099839657722,-0.07199999999999986,-0.438693895266639
-0.05999999999999986,-0.03898074027668086,-0.05999999999999986,-0.08082013076390659,-0.05999999999999986,-0.1331975476841371,-0.05999999999999986,-0.2123339041750971,-0.05999999999999986,-0.305604635985479,-0.05999999999999986,-0.3576946478389908,-0.05999999999999986,-0.3673081606094299,-0.05999999999999986,-0.3675387336366254
-0.04799999999999986,-0.03115120499716895,-0.04799999999999986,-0.06437130605622954,-0.04799999999999986,-0.105375112098017,-0.04799999999999986,-0.168139542719936,-0.04799999999999986,-0.2473483668024264,-0.04799999999999986,-0.2889212484974666,-0.04799999999999986,-0.2952556933613295,-0.04799999999999986,-0.2952956744319781
-0.03599999999999987,-0.02334819769743879,-0.03599999999999987,-0.04812735425673753,-0.03599999999999987,-0.07836509708215944,-0.03599999999999987,-0.1249211405524896,-0.03599999999999987,-0.1873164315535055,-0.03599999999999987,-0.2182814400931561,-0.03599999999999987,-0.2222434095184638,-0.03599999999999987,-0.22220095932656
-0.02399999999999987,-0.01555969132344992,-0.02399999999999987,-0.0320182171679283,-0.02399999999999987,-0.05193590487373512,-0.02399999999999987,-0.08265713280049536,-0.02399999999999987,-0.1257940023769853,-0.02399999999999987,-0.1462651860318731,-0.02399999999999987,-0.1485371567379042,-0.02399999999999987,-0.1484781865780183
-0.01199999999999986,-0.007778398501230743,-0.01199999999999986,-0.01599014448681169,-0.01199999999999986,-0.02587780260282002,-0.01199999999999986,-0.0411301728195046,-0.01199999999999986,-0.0631846768241856,-0.01199999999999986,-0.07335239019673678,-0.01199999999999986,-0.07437973003619025,-0.01199999999999986,-0.07434175431270684
0,-3.598071840471562e-10,0,8.521072736300539e-10,0,1.774760471917602e-08,0,1.391664249394964e-07,0,-3.637200485240299e-08,0,-1.729472232092633e-09,0,1.530588988885029e-10,0,8.692213615546507e-11
0.012,0.007778397761076583,0.012,0.01599014651346886,0.012,0.02587784304325946,0.012,0.04113045007346261,0.012,0.06318463453506018,0.012,0.07335238533942667,0.012,0.07437973035930578,0.012,0.07434175447725788
0.024,0.01555969052320971,0.024,0.03201822028138179,0.024,0.05193596138280199,0.024,0.08265739124968818,0.024,0.1257940242146312,0.024,0.1462651770203574,0.024,0.1485371571210821,0.024,0.1484781867008261
0.036,0.02334819680356093,0.036,0.04812735962672632,0.036,0.07836518415795379,0.036,0.1249213285945555,0.036,0.187316503703437,0.036,0.2182814250858777,0.036,0.2222434099658433,0.036,0.2222009592860894
0.048,0.03115120399143678,0.048,0.06437131569776611,0.048,0.1053752478165192,0.048,0.1681396000934398,0.048,0.2473484550248172,0.048,0.2889212286061086,0.048,0.2952556935692991,0.048,0.295295673825361
0.06,0.0389807391761765,0.06,0.08082014826651729,0.06,0.1331977471974144,0.06,0.2123338297148893,0.06,0.3056047139535031,0.06,0.3576946274834031,0.06,0.3673081593900678,0.06,0.3675387315426567
0.07199999999999999,0.04685564036059775,0.07199999999999999,0.09756606763149045,0.07199999999999999,0.1620776413171778,0.07199999999999999,0.2572823296550564,0.07199999999999999,0.3618966386085986,0.07199999999999999,0.4241300772214777,0.07199999999999999,0.4380998343458145,0.07199999999999999,0.4386938902837114
0.08399999999999999,0.05480393157947294,0.08399999999999999,0.1147287883850144,0.08399999999999999,0.192243743208138,0.08399999999999999,0.3025421060782794,0.08399999999999999,0.416094796080915,0.08399999999999999,0.4878065510444281,0.08399999999999999,0.5072788399235761,0.08399999999999999,0.5085079737299449
0.09599999999999999,0.06286537594446384,0.09599999999999999,0.132458809946423,0.09599999999999999,0.2238469525820009,0.09599999999999999,0.3475496641656931,0.09599999999999999,0.4680939509440044,0.09599999999999999,0.5483762960840544,0.09599999999999999,0.5744244846176008,0.09599999999999999,0.5767047733564032
0.108,0.0710938530892502,0.108,0.1509352829697366,0.108,0.2568644339319344,0.108,0.3917440014448011,0.108,0.5177884999481617,0.108,0.6055725093976858,0.108,0.6390347684315714,0.108,0.642976048856769
0.12,0.07955883149771892,0.12,0.1703521551437568,0.12,0.291000846238528,0.12,0.4346407067976514,0.12,0.5650583625526178,0.12,0.6592039827970921,0.12,0.7005351914806464,0.12,0.7069690619501409
0.132,0.08834462066657289,0.132,0.1908823067252657,0.132,0.3256610745198939,0.132,0.4758408535505095,0.132,0.6097624823515979,0.132,0.709141424652791,0.132,0.7583258959439443,0.132,0.7682716482069722
0.144,0.09754524523108943,0.144,0.2126074782903306,0.144,0.3600528716442661,0.144,0.5150057372860539,0.144,0.6517373022959847,0.144,0.7552992729876948,0.144,0.8118642364021903,0.144,0.8263994680998696
0.156,0.1072517389012121,0.156,0.2354122849239499,0.156,0.3933662258924557,0.156,0.5518285474823061,0.156,0.6907985575963881,0.156,0.7976161582552698,0.156,0.8607462683151893,0.156,0.8807969451313812
0.168,0.1175278379141232,0.168,0.2588787223082987,0.168,0.4249030915251795,0.168,0.5860157107362141,0.168,0.7267458521826814,0.168,0.8360377098558034,0.168,0.9047417961386943,0.168,0.9308695609734843
0.18,0.128370866416225,0.18,0.2822691105888621,0.18,0.4541067039781232,0.18,0.6172803745542549,0.18,0.7593708825191696,0.18,0.8705060435566986,0.18,0.9437719494675936,0.18,0.9760568464031879
0.192,0.1396602136193733,0.192,0.3046653861796119,0.192,0.4805387136019604,0.192,0.645349107192702,0.192,0.7884718176937915,0.192,0.9009603611250028,0.192,0.977858963740784,0.192,1.015925717123654
0.204,0.1511102182775759,0.204,0.3251987268645367,0.204,0.5038614817613146,0.204,0.669983834656366,0.204,0.8138775330602356,0.204,0.9273525146246206,0.204,1.007086742329438,0.204,1.050241147875833
0.2160000000000001,0.1622648263100963,0.2160000000000001,0.3432237655729084,0.2160000000000001,0.5238476761457443,0.2160000000000001,0.691020038890686,0.2160000000000001,0.8354844248546884,0.2160000000000001,0.9496793240341921,0.2160000000000001,1.031593255384938,0.2160000000000001,1.078990093917965
0.2280000000000001,0.1725749104080052,0.2280000000000001,0.3583835071421283,0.2280000000000001,0.5404129848711148,0.2280000000000001,0.7084164248786684,0.2280000000000001,0.8533028892748459,0.2280000000000001,0.9680275497702462,0.2280000000000001,1.051593511255607,0.2280000000000001,1.10237276079727
0.2400000000000001,0.1815519922781852,0.2400000000000001,0.3706070540455089,0.2400000000000001,0.5536514185592097,0.2400000000000001,0.7222995262841805,0.2400000000000001,0.8674990001451955,0.2400000000000001,0.9826164734647497,0.2400000000000001,1.067413351495331,0.2400000000000001,1.120782878052094
0.2520000000000001,0.1889131861935596,0.2520000000000001,0.3800693904458798,0.2520000000000001,0.5638398532831783,0.2520000000000001,0.7329732552378584,0.2520000000000001,0.8784032552658293,0.2520000000000001,0.9938096410418348,0.2520000000000001,1.079499817632342,0.2520000000000001,1.134770996285762
0.2640000000000001,0.1945906068979185,0.2640000000000001,0.3870754262996151,0.2640000000000001,0.5713627643071205,0.2640000000000001,0.7408468886082434,0.2640000000000001,0.8864412511507607,0.2640000000000001,1.002050803933925,0.2640000000000001,1.088358592584581,0.2640000000000001,1.144948203371494
0.2760000000000001,0.1973089257603954,0.2760000000000001,0.3906692840555899,0.2760000000000001,0.5755523885127424,0.2760000000000001,0.7455505183962272,0.2760000000000001,0.8914942688745594,0.2760000000000001,1.007377819599913,0.2760000000000001,1.094171624924958,0.2760000000000001,1.151658300638995
0.2880000000000001,0.1973673773926847,0.2880000000000001,0.3907939027458711,0.2880000000000001,0.5757719916582091,0.2880000000000001,0.7459394563386557,0.2880000000000001,0.8921633223792622,0.2880000000000001,1.008537398204187,0.2880000000000001,1.096069816393069,0.2880000000000001,1.15459475355655
0.3,0.1974215227699679,0.3,0.3909015897616909,0.3,0.5759292416698136,0.3,0.7461310191707053,0.3,0.8923655950828809,0.3,1.008770148140119,0.3,1.096443837093328,0.3,1.155412578226409
