;Version, 1, 0
;phase (VCTRL=0.05),;phase (VCTRL=0.1),;phase (VCTRL=0.15),;phase (VCTRL=0.2),;phase (VCTRL=0.25),;phase (VCTRL=0.3),;phase (VCTRL=0.35),;phase (VCTRL=0.4)
;X, Y,;X, Y,;X, Y,;X, Y,;X, Y,;X, Y,;X, Y,;X, Y
;Re, Re,;Re, Re,;Re, Re,;Re, Re,;Re, Re,;Re, Re,;Re, Re,;Re, Re
;freq, V,;freq, V,;freq, V,;freq, V,;freq, V,;freq, V,;freq, V,;freq, V
;Hz, deg,;Hz, deg,;Hz, deg,;Hz, deg,;Hz, deg,;Hz, deg,;Hz, deg,;Hz, deg
1,-1.307374686757758e-07,1,-1.323092055022248e-07,1,-1.358711408653444e-07,1,-1.442391946725166e-07,1,-1.577200198650304e-07,1,-1.598882567585271e-07,1,-1.611799639159855e-07,1,-1.637385577966896e-07
1.584893192461114,-2.07204924103835e-07,1.584893192461114,-2.096959591004145e-07,1.584893192461114,-2.153412462094093e-07,1.584893192461114,-2.286037177225449e-07,1.584893192461114,-2.499693857989183e-07,1.584893192461114,-2.534058096910643e-07,1.584893192461114,-2.554530275715732e-07,1.584893192461114,-2.59508125595374e-07
2.511886431509581,-3.283976736565902e-07,2.511886431509581,-3.323456980648512e-07,2.511886431509581,-3.412928751733854e-07,2.511886431509581,-3.623124759897634e-07,2.511886431509581,-3.961747778763915e-07,2.511886431509581,-4.016211427094642e-07,2.511886431509581,-4.048657643917676e-07,2.511886431509581,-4.112926616444519e-07
3.981071705534974,-5.204752373983961e-07,3.981071705534974,-5.267324344067195e-07,3.981071705534974,-5.40912754497779e-07,3.981071705534974,-5.742265767399068e-07,3.981071705534974,-6.278947084810866e-07,3.981071705534974,-6.365266150286832e-07,3.981071705534974,-6.416689938450777e-07,3.981071705534974,-6.51854939549504e-07
6.309573444801934,-8.248976605973003e-07,6.309573444801934,-8.348146495396797e-07,6.309573444801934,-8.572889423189198e-07,6.309573444801934,-9.100877924053273e-07,6.309573444801934,-9.951460490540293e-07,6.309573444801934,-1.008826698979276e-06,6.309573444801934,-1.016976820158436e-06,6.309573444801934,-1.033120456164159e-06
10,-1.307374686757758e-06,10,-1.323092055022249e-06,10,-1.358711408653444e-06,10,-1.442391946725167e-06,10,-1.577200198650305e-06,10,-1.598882567585271e-06,10,-1.611799639159855e-06,10,-1.637385577966897e-06
15.84893192461114,-2.072049241038352e-06,15.84893192461114,-2.096959591004147e-06,15.84893192461114,-2.153412462094095e-06,15.84893192461114,-2.286037177225449e-06,15.84893192461114,-2.499693857989184e-06,15.84893192461114,-2.534058096910643e-06,15.84893192461114,-2.554530275715734e-06,15.84893192461114,-2.59508125595374e-06
25.11886431509581,-3.283976736565901e-06,25.11886431509581,-3.323456980648513e-06,25.11886431509581,-3.412928751733854e-06,25.11886431509581,-3.623124759897635e-06,25.11886431509581,-3.961747778763914e-06,25.11886431509581,-4.016211427094642e-06,25.11886431509581,-4.048657643917676e-06,25.11886431509581,-4.112926616444519e-06
39.81071705534975,-5.204752373983955e-06,39.81071705534975,-5.267324344067194e-06,39.81071705534975,-5.409127544977792e-06,39.81071705534975,-5.742265767399066e-06,39.81071705534975,-6.278947084810859e-06,39.81071705534975,-6.365266150286828e-06,39.81071705534975,-6.416689938450774e-06,39.81071705534975,-6.518549395495035e-06
63.09573444801936,-8.248976605972986e-06,63.09573444801936,-8.348146495396785e-06,63.09573444801936,-8.572889423189189e-06,63.09573444801936,-9.100877924053258e-06,63.09573444801936,-9.95146049054027e-06,63.09573444801936,-1.008826698979274e-05,63.09573444801936,-1.016976820158434e-05,63.09573444801936,-1.033120456164158e-05
100.0000000000001,-1.307374686757752e-05,100.0000000000001,-1.323092055022243e-05,100.0000000000001,-1.358711408653438e-05,100.0000000000001,-1.442391946725159e-05,100.0000000000001,-1.577200198650294e-05,100.0000000000001,-1.598882567585263e-05,100.0000000000001,-1.611799639159847e-05,100.0000000000001,-1.637385577966888e-05
158.4893192461115,-2.07204924103833e-05,158.4893192461115,-2.096959591004123e-05,158.4893192461115,-2.153412462094069e-05,158.4893192461115,-2.286037177225418e-05,158.4893192461115,-2.499693857989141e-05,158.4893192461115,-2.534058096910609e-05,158.4893192461115,-2.554530275715699e-05,158.4893192461115,-2.595081255953704e-05
251.1886431509582,-3.283976736565814e-05,251.1886431509582,-3.32345698064842e-05,251.1886431509582,-3.412928751733753e-05,251.1886431509582,-3.623124759897506e-05,251.1886431509582,-3.961747778763741e-05,251.1886431509582,-4.016211427094503e-05,251.1886431509582,-4.048657643917542e-05,251.1886431509582,-4.112926616444371e-05
398.1071705534976,-5.204752373983604e-05,398.1071705534976,-5.267324344066825e-05,398.1071705534976,-5.409127544977382e-05,398.1071705534976,-5.742265767398545e-05,398.1071705534976,-6.278947084810166e-05,398.1071705534976,-6.365266150286269e-05,398.1071705534976,-6.416689938450231e-05,398.1071705534976,-6.51854939549445e-05
630.9573444801939,-8.248976605971588e-05,630.9573444801939,-8.348146495395324e-05,630.9573444801939,-8.572889423187556e-05,630.9573444801939,-9.100877924051189e-05,630.9573444801939,-9.951460490537499e-05,630.9573444801939,-0.0001008826698979051,630.9573444801939,-0.0001016976820158218,630.9573444801939,-0.0001033120456163924
1000.000000000001,-0.0001307374686757198,1000.000000000001,-0.000132309205502166,1000.000000000001,-0.0001358711408652789,1000.000000000001,-0.0001442391946724333,1000.000000000001,-0.0001577200198649191,1000.000000000001,-0.0001598882567584373,1000.000000000001,-0.0001611799639158985,1000.000000000001,-0.0001637385577965957
1584.893192461115,-0.0002072049241036117,1584.893192461115,-0.0002096959591001801,1584.893192461115,-0.0002153412462091482,1584.893192461115,-0.000228603717722213,1584.893192461115,-0.0002499693857984743,1584.893192461115,-0.0002534058096907064,1584.893192461115,-0.0002554530275712268,1584.893192461115,-0.0002595081255949996
2511.886431509583,-0.0003283976736556997,2511.886431509583,-0.000332345698063917,2511.886431509583,-0.0003412928751723452,2511.886431509583,-0.0003623124759884413,2511.886431509583,-0.0003961747778746232,2511.886431509583,-0.0004016211427080388,2511.886431509583,-0.0004048657643903875,2511.886431509583,-0.0004112926616429606
3981.071705534978,-0.0005204752373948503,3981.071705534978,-0.0005267324344029992,3981.071705534978,-0.0005409127544936364,3981.071705534978,-0.0005742265767346421,3981.071705534978,-0.0006278947084740461,3981.071705534978,-0.0006365266150230075,3981.071705534978,-0.0006416689938395821,3981.071705534978,-0.0006518549395435657
6309.573444801941,-0.0008248976605831827,6309.573444801941,-0.0008348146495248685,6309.573444801941,-0.0008572889423024246,6309.573444801941,-0.0009100877923843669,6309.573444801941,-0.0009951460490259995,6309.573444801941,-0.001008826698956679,6309.573444801941,-0.001016976820136556,6309.573444801941,-0.001033120456140518
10000.00000000001,-0.001307374686701555,10000.00000000001,-0.001323092054963282,10000.00000000001,-0.001358711408587773,10000.00000000001,-0.001442391946641717,10000.00000000001,-0.001577200198538713,10000.00000000001,-0.001598882567495308,10000.00000000001,-0.001611799639072746,10000.00000000001,-0.001637385577872774
15848.93192461116,-0.002072049240814598,15848.93192461116,-0.002096959590769392,15848.93192461116,-0.002153412461832648,15848.93192461116,-0.002286037176893225,15848.93192461116,-0.002499693857544926,15848.93192461116,-0.002534058096552485,15848.93192461116,-0.002554530275368943,15848.93192461116,-0.002595081255579025
25118.86431509584,-0.003283976735675113,25118.86431509584,-0.003323456979713932,25118.86431509584,-0.003412928750693012,25118.86431509584,-0.003623124758575017,25118.86431509584,-0.003961747776995284,25118.86431509584,-0.004016211425668784,25118.86431509584,-0.004048657642537072,25118.86431509584,-0.004112926614952742
39810.71705534979,-0.005204752370437667,39810.71705534979,-0.005267324340346554,39810.71705534979,-0.005409127540834108,39810.71705534979,-0.005742265762133622,39810.71705534979,-0.006278947077769809,39810.71705534979,-0.006365266144610377,39810.71705534979,-0.006416689932954472,39810.71705534979,-0.006518549389556158
63095.73444801944,-0.008248976591854935,63095.73444801944,-0.008348146480584635,63095.73444801944,-0.008572889406692874,63095.73444801944,-0.009100877903091133,63095.73444801944,-0.009951460462509326,63095.73444801944,-0.01008826696719436,63095.73444801944,-0.01016976817970316,63095.73444801944,-0.01033120453799845
100000.0000000002,-0.01307374681137253,100000.0000000002,-0.01323092049125417,100000.0000000002,-0.01358711402086136,100000.0000000002,-0.01442391938379985,100000.0000000002,-0.01577200187490972,100000.0000000002,-0.01598882558588684,100000.0000000002,-0.0161179963044879,100000.0000000002,-0.01637385568554389
158489.3192461117,-0.02072049218662712,158489.3192461117,-0.02096959567528433,158489.3192461117,-0.02153412435949161,158489.3192461117,-0.02286037144002676,158489.3192461117,-0.02499693813563075,158489.3192461117,-0.02534058061094577,158489.3192461117,-0.02554530241036355,158489.3192461117,-0.02595081218481867
251188.6431509586,-0.03283976647486863,251188.6431509586,-0.03323456887190007,251188.6431509586,-0.03412928647649,251188.6431509586,-0.03623124627635389,251188.6431509586,-0.03961747601900391,251188.6431509586,-0.0401621128450831,251188.6431509586,-0.04048657505856583,251188.6431509586,-0.04112926467266303
398107.1705534981,-0.05204752019353943,398107.1705534981,-0.05267323972002202,398107.1705534981,-0.05409127130608548,398107.1705534981,-0.05742265240853637,398107.1705534981,-0.06278946380704586,398107.1705534981,-0.06365265582640485,398107.1705534981,-0.06416689388819716,398107.1705534981,-0.06518548801605929
630957.3444801947,-0.08248975194165768,630957.3444801947,-0.08348145014179724,630957.3444801947,-0.0857288777355593,630957.3444801947,-0.0910087582783881,630957.3444801947,-0.09951457687443835,630957.3444801947,-0.100882647299527,630957.3444801947,-0.1016976601346439,630957.3444801947,-0.1033120219732728
1000000.000000002,-0.1307374124707502,1000000.000000002,-0.1323091465339463,1000000.000000002,-0.1358710751923044,1000000.000000002,-0.1442391112207831,1000000.000000002,-0.1577199082718647,1000000.000000002,-0.1598881667927509,1000000.000000002,-0.1611798768054333,1000000.000000002,-0.163738463671725
1584893.192461117,-0.2072047003479228,1584893.192461117,-0.2096957243438258,1584893.192461117,-0.2153409847607635,1584893.192461117,-0.228603385495888,1584893.192461117,-0.2499689415396703,1584893.192461117,-0.2534054515316325,1584893.192461117,-0.2554526807789468,1584893.192461117,-0.2595077508779812
2511886.431509587,-0.328396782871518,2511886.431509587,-0.3323447634856057,2511886.431509587,-0.3412918343319442,2511886.431509587,-0.362311153378407,2511886.431509587,-0.3961730092599432,2511886.431509587,-0.4016197168588364,2511886.431509587,-0.4048643837927447,2511886.431509587,-0.41129116987606
3981071.705534983,-0.5204716911517506,3981071.705534983,-0.5267287138154196,3981071.705534983,-0.5409086108770262,3981071.705534983,-0.5742213113971412,3981071.705534983,-0.627887667606936,3981071.705534983,-0.6365209386926207,3981071.705534983,-0.641663497654278,3981071.705534983,-0.6518490007967557
6309573.44480195,-0.8248835430611291,6309573.44480195,-0.8347998379558399,6309573.44480195,-0.8572724467041704,6309573.44480195,-0.9100668313770359,6309573.44480195,-0.9951180199765972,6309573.44480195,-1.008804101853644,6309573.44480195,-1.016954940157803,6309573.44480195,-1.033096814405476
10000000.00000003,-1.307318487093735,10000000.00000003,-1.323033092613666,10000000.00000003,-1.358645742793687,10000000.00000003,-1.442308506155694,10000000.00000003,-1.577088624355464,10000000.00000003,-1.598792614559205,10000000.00000003,-1.611712540597832,10000000.00000003,-1.637291466847512
15848931.92461118,-2.071825538735388,15848931.92461118,-2.096724893105552,15848931.92461118,-2.153151085238681,15848931.92461118,-2.28570506218241,15848931.92461118,-2.499249787391442,15848931.92461118,-2.533700064948089,15848931.92461118,-2.55418360296171,15848931.92461118,-2.5947066769774
25118864.31509588,-3.283086487337078,25118864.31509588,-3.322522988020359,25118864.31509588,-3.411888627812243,25118864.31509588,-3.621803263950741,25118864.31509588,-3.959981047270168,25118864.31509588,-4.014786850273769,25118864.31509588,-4.047278242807917,25118864.31509588,-4.111436231219233
39810717.05534985,-5.20121147941562,39810717.05534985,-5.263609611683665,39810717.05534985,-5.404991089688137,39810717.05534985,-5.737011560336424,39810717.05534985,-6.271925021315322,39810717.05534985,-6.359602530013872,39810717.05534985,-6.41120570636218,39810717.05534985,-6.512624449315148
63095734.44801953,-8.23491243151488,63095734.44801953,-8.333393319135794,63095734.44801953,-8.556465219683009,63095734.44801953,-9.080027793511569,63095734.44801953,-9.923618550287566,63095734.44801953,-10.0657964659541,63095734.44801953,-10.14800727829188,63095734.44801953,-10.30770024237977
100000000.0000003,-13.01807687095545,100000000.0000003,-13.17253771046113,100000000.0000003,-13.52215630502783,100000000.0000003,-14.34157651951785,100000000.0000003,-15.66227518708754,100000000.0000003,-15.90012493065247,100000000.0000003,-16.03207600523303,100000000.0000003,-16.28110359351248
158489319.2461119,-20.50199036495032,158489319.2461119,-20.74058380837236,158489319.2461119,-21.27968181645117,158489319.2461119,-22.53895861680259,158489319.2461119,-24.57077141004518,158489319.2461119,-24.99474069117963,158489319.2461119,-25.21010779584811,158489319.2461119,-25.58945077128158
251188643.1509589,-31.99926132184379,251188643.1509589,-32.35486702441369,251188643.1509589,-33.15509665800125,251188643.1509589,-35.01049607568052,251188643.1509589,-38.01697955804825,251188643.1509589,-38.85191923417452,251188643.1509589,-39.21502044549572,251188643.1509589,-39.76261205827501
398107170.5534986,-48.95576233275887,398107170.5534986,-49.44683417893066,398107170.5534986,-50.54271261186422,398107170.5534986,-53.04847642335818,398107170.5534986,-57.18059111039549,398107170.5534986,-58.98143425673752,398107170.5534986,-59.62114342725116,398107170.5534986,-60.32936865734709
630957344.4801955,-72.05598289068321,630957344.4801955,-72.6491667598747,630957344.4801955,-73.95433439640424,630957344.4801955,-76.8849468943704,630957344.4801955,-82.02394602898126,630957344.4801955,-85.91473964546775,630957344.4801955,-87.0656446474264,630957344.4801955,-87.83190949521871
1000000000.000004,-99.88870620405275,1000000000.000004,-100.496841182346,1000000000.000004,-101.8095385826694,1000000000.000004,-104.7299737505126,1000000000.000004,-110.7238013244515,1000000000.000004,-118.3416207317863,1000000000.000004,-120.3208881884903,1000000000.000004,-121.0028756423097
1584893192.461119,-129.0538505218294,1584893192.461119,-129.6165806353352,1584893192.461119,-130.8023022954372,1584893192.461119,-133.4827610580775,1584893192.461119,-140.6873067503975,1584893192.461119,-153.7239870380101,1584893192.461119,-156.7574101798731,1584893192.461119,-157.3044794550698
2511886431.50959,-156.6490480804797,2511886431.50959,-157.1871088052994,2511886431.50959,-158.2859967640633,2511886431.50959,-160.8781029408245,2511886431.50959,-170.2832793015599,2511886431.50959,-189.695809602306,2511886431.50959,-193.5943747155307,2511886431.50959,-194.0359384452061
3981071705.534988,-182.3917059626052,3981071705.534988,-182.9814765828962,3981071705.534988,-184.1458056211984,3981071705.534988,-187.0294320765473,3981071705.534988,-199.9313218117166,3981071705.534988,-224.6031056387054,3981071705.534988,-228.6230962162219,3981071705.534988,-228.9785935975987
6309573444.801957,-207.918114989258,6309573444.801957,-208.658723665016,6309573444.801957,-210.0799453670103,6309573444.801957,-213.7032744464019,6309573444.801957,-230.9588725009062,6309573444.801957,-257.0535977771404,6309573444.801957,-260.4194366011029,6309573444.801957,-260.6911023267352
10000000000,-234.4773078593362,10000000000,-235.4628389148577,10000000000,-237.3105869809803,10000000000,-242.0071916799786,10000000000,-262.738269809554,10000000000,-285.688614186083,10000000000,-288.1316768547972,10000000000,-288.3282265678219
