;Version, 1, 0
;out_tran,;vin_tran
;X, Y,;X, Y
;Re, Re,;Re, Re
;time, V,;time, V
;s, V,;s, V
0,0.2770705496631197,0,1.2
1e-12,0.2794997574801979,1e-12,1.203769886379335
2e-12,0.2818256380702775,2e-12,1.207539623930012
3e-12,0.2841054045279741,3e-12,1.211309063829245
4e-12,0.2863032659513982,4e-12,1.215078057266002
5e-12,0.2884371776771451,5e-12,1.218846455446877
5.999999999999999e-12,0.2905211805856347,5.999999999999999e-12,1.222614109601961
6.999999999999999e-12,0.2925662493701857,6.999999999999999e-12,1.226380870990719
8e-12,0.2945809569651541,8e-12,1.230146590907862
9e-12,0.2965719950643856,9e-12,1.233911120689215
9.999999999999999e-12,0.2985445819283432,9.999999999999999e-12,1.237674311717588
1.1e-11,0.300502781887273,1.1e-11,1.241436015428643
1.2e-11,0.3024497556563557,1.2e-11,1.24519608331676
1.3e-11,0.3043879564352902,1.3e-11,1.248954366940894
1.4e-11,0.3063192835230552,1.4e-11,1.252710717930446
1.5e-11,0.3082452026407184,1.5e-11,1.256464987991109
1.6e-11,0.3101668401671605,1.6e-11,1.260217028910729
1.7e-11,0.3120850569348523,1.7e-11,1.263966692565156
1.8e-11,0.3140005060118609,1.8e-11,1.267713830924089
1.9e-11,0.3159136779391671,1.9e-11,1.271458296056922
2e-11,0.3178249361420751,2e-11,1.275199940138583
2.1e-11,0.3197345446462502,2.1e-11,1.278938615455369
2.2e-11,0.3216426897677808,2.2e-11,1.282674174410783
2.3e-11,0.323549497085195,2.3e-11,1.286406469531351
2.4e-11,0.3254550447179851,2.4e-11,1.290135353472454
2.5e-11,0.327359373714152,2.5e-11,1.293860679024138
2.6e-11,0.3292624961752254,2.6e-11,1.29758229911693
2.7e-11,0.3311644016108752,2.7e-11,1.30130006682764
2.8e-11,0.3330650619083843,2.8e-11,1.305013835385166
2.9e-11,0.3349644352185743,2.9e-11,1.308723458176282
3e-11,0.3368624689942347,3e-11,1.312428788751435
3.1e-11,0.3387591023657687,3.1e-11,1.316129680830516
3.200000000000001e-11,0.340654267998596,3.200000000000001e-11,1.319825988308644
3.300000000000001e-11,0.342547893545374,3.300000000000001e-11,1.323517565261929
3.400000000000001e-11,0.3444399027814905,3.400000000000001e-11,1.327204265953233
3.500000000000001e-11,0.3463302164929922,3.500000000000001e-11,1.330885944837926
3.600000000000002e-11,0.3482187531710459,3.600000000000002e-11,1.334562456569629
3.700000000000002e-11,0.350105429555216,3.700000000000002e-11,1.338233656005954
3.800000000000002e-11,0.3519901610586266,3.800000000000002e-11,1.341899398214235
3.900000000000003e-11,0.3538728621008479,3.900000000000003e-11,1.345559538477245
4.000000000000003e-11,0.3557534463686987,4.000000000000003e-11,1.349213932298913
4.100000000000003e-11,0.3576318270207529,4.100000000000003e-11,1.352862435410029
4.200000000000004e-11,0.3595079168478816,4.200000000000004e-11,1.356504903773938
4.300000000000004e-11,0.3613816283994524,4.300000000000004e-11,1.360141193592225
4.400000000000004e-11,0.3632528740827255,4.400000000000004e-11,1.363771161310395
4.500000000000004e-11,0.3651215662413098,4.500000000000004e-11,1.367394663623538
4.600000000000005e-11,0.366987617217278,4.600000000000005e-11,1.371011557481986
4.700000000000005e-11,0.3688509394005166,4.700000000000005e-11,1.374621700096963
4.800000000000005e-11,0.3707114452681105,4.800000000000005e-11,1.378224948946221
4.900000000000006e-11,0.3725690474159499,4.900000000000006e-11,1.381821161779665
5.000000000000006e-11,0.3744236585842559,5.000000000000006e-11,1.385410196624969
5.100000000000006e-11,0.3762751916783597,5.100000000000006e-11,1.388991911793183
5.200000000000007e-11,0.3781235597857739,5.200000000000007e-11,1.392566165884326
5.300000000000007e-11,0.3799686761903661,5.300000000000007e-11,1.396132817792966
5.400000000000007e-11,0.381810454384259,5.400000000000007e-11,1.399691726713792
5.500000000000008e-11,0.3836488080779626,5.500000000000008e-11,1.403242752147175
5.600000000000008e-11,0.3854836512091102,5.600000000000008e-11,1.40678575390471
5.700000000000008e-11,0.3873148979501091,5.700000000000008e-11,1.410320592114756
5.800000000000008e-11,0.389142462714928,5.800000000000008e-11,1.413847127227951
5.900000000000008e-11,0.3909662601652165,5.900000000000008e-11,1.417365220022728
6.000000000000008e-11,0.3927862052158859,6.000000000000008e-11,1.420874731610807
6.100000000000007e-11,0.3946022130402743,6.100000000000007e-11,1.42437552344268
6.200000000000007e-11,0.3964141990749697,6.200000000000007e-11,1.427867457313081
6.300000000000007e-11,0.3982220790243703,6.300000000000007e-11,1.431350395366438
6.400000000000006e-11,0.400025768865027,6.400000000000006e-11,1.434824200102322
6.500000000000006e-11,0.4018251848498103,6.500000000000006e-11,1.438288734380869
6.600000000000006e-11,0.4036202435119352,6.600000000000006e-11,1.441743861428198
6.700000000000005e-11,0.4054108616688689,6.700000000000005e-11,1.44518944484181
6.800000000000005e-11,0.4071969564261379,6.800000000000005e-11,1.448625348595971
6.900000000000005e-11,0.4089784451810514,6.900000000000005e-11,1.452051437047084
7.000000000000004e-11,0.4107552456263546,7.000000000000004e-11,1.455467574939044
7.100000000000004e-11,0.4125272757538165,7.100000000000004e-11,1.458873627408575
7.200000000000004e-11,0.4142944538577656,7.200000000000004e-11,1.46226945999056
7.300000000000003e-11,0.4160566985385687,7.300000000000003e-11,1.465654938623341
7.400000000000003e-11,0.4178139287060738,7.400000000000003e-11,1.469029929654019
7.500000000000003e-11,0.4195660635829992,7.500000000000003e-11,1.472394299843728
7.600000000000002e-11,0.4213130227082928,7.600000000000002e-11,1.475747916372893
7.700000000000002e-11,0.4230547259404457,7.700000000000002e-11,1.479090646846475
7.800000000000001e-11,0.4247910934607751,7.800000000000001e-11,1.482422359299199
7.900000000000001e-11,0.4265220457766679,7.900000000000001e-11,1.485742922200763
8.000000000000001e-11,0.4282475037247928,8.000000000000001e-11,1.489052204461029
8.1e-11,0.4299673884742793,8.1e-11,1.492350075435199
8.2e-11,0.4316816215298617,8.2e-11,1.495636404928975
8.3e-11,0.4333901247349915,8.3e-11,1.498911063203694
8.399999999999999e-11,0.4350928202749211,8.399999999999999e-11,1.502173920981456
8.499999999999999e-11,0.4367896306797498,8.499999999999999e-11,1.505424849450223
8.599999999999999e-11,0.4384804788274439,8.599999999999999e-11,1.508663720268904
8.699999999999998e-11,0.4401652879468223,8.699999999999998e-11,1.511890405572426
8.799999999999998e-11,0.4418439816205122,8.799999999999998e-11,1.515104777976777
8.899999999999998e-11,0.4435164837878721,8.899999999999998e-11,1.51830671058404
8.999999999999997e-11,0.4451827187478868,8.999999999999997e-11,1.521496076987398
9.099999999999997e-11,0.446842599725901,9.099999999999997e-11,1.524672751276125
9.199999999999997e-11,0.4484960481175576,9.199999999999997e-11,1.527836608040561
9.299999999999996e-11,0.4501430292170194,9.299999999999996e-11,1.530987522377058
9.399999999999996e-11,0.4517834258333273,9.399999999999996e-11,1.534125369892913
9.499999999999996e-11,0.4534172063759052,9.499999999999996e-11,1.537250026711278
9.599999999999995e-11,0.4550442529472573,9.599999999999995e-11,1.540361369476054
9.699999999999995e-11,0.4566645367370502,9.699999999999995e-11,1.543459275356754
9.799999999999995e-11,0.4582779391439812,9.799999999999995e-11,1.54654362205336
9.899999999999994e-11,0.4598844339074681,9.899999999999994e-11,1.549614287801145
9.999999999999994e-11,0.4614839017867763,9.999999999999994e-11,1.552671151375484
1.009999999999999e-10,0.4630763188702327,1.009999999999999e-10,1.555714092096635
1.019999999999999e-10,0.4646615653779368,1.019999999999999e-10,1.558742989834511
1.029999999999999e-10,0.4662396195761582,1.029999999999999e-10,1.561757725013414
1.039999999999999e-10,0.4678103612631452,1.039999999999999e-10,1.564758178616763
1.049999999999999e-10,0.4693737707313607,1.049999999999999e-10,1.567744232191786
1.059999999999999e-10,0.4709297274834116,1.059999999999999e-10,1.5707157678542
1.069999999999999e-10,0.4724782136990049,1.069999999999999e-10,1.573672668292867
1.079999999999999e-10,0.474019108715269,1.079999999999999e-10,1.57661481677442
1.089999999999999e-10,0.4755523964691557,1.089999999999999e-10,1.579542097147874
1.099999999999999e-10,0.4770779562634314,1.099999999999999e-10,1.582454393849213
1.109999999999999e-10,0.478595773668938,1.109999999999999e-10,1.58535159190595
1.119999999999999e-10,0.4801057280843206,1.119999999999999e-10,1.588233576941666
1.129999999999999e-10,0.4816078065962261,1.129999999999999e-10,1.591100235180527
1.139999999999999e-10,0.4831018888274259,1.139999999999999e-10,1.593951453451774
1.149999999999999e-10,0.4845879632667412,1.149999999999999e-10,1.596787119194191
1.159999999999999e-10,0.4860659098866348,1.159999999999999e-10,1.599607120460551
1.169999999999999e-10,0.4875357184684557,1.169999999999999e-10,1.602411345922031
1.179999999999999e-10,0.4889972694568073,1.179999999999999e-10,1.605199684872614
1.189999999999999e-10,0.4904505538196275,1.189999999999999e-10,1.607972027233451
1.199999999999999e-10,0.4918954525927254,1.199999999999999e-10,1.610728263557213
1.209999999999999e-10,0.4933319578282445,1.209999999999999e-10,1.613468285032409
1.219999999999999e-10,0.494759951268701,1.219999999999999e-10,1.616191983487683
1.229999999999999e-10,0.4961794259515416,1.229999999999999e-10,1.618899251396083
1.239999999999999e-10,0.497590264437812,1.239999999999999e-10,1.621589981879309
1.249999999999999e-10,0.4989924606547983,1.249999999999999e-10,1.624264068711928
1.259999999999998e-10,0.5003858980901401,1.259999999999998e-10,1.626921406325571
1.269999999999998e-10,0.5017705714689246,1.269999999999998e-10,1.629561889813098
1.279999999999998e-10,0.5031463653096334,1.279999999999998e-10,1.632185414932744
1.289999999999998e-10,0.5045132750465495,1.289999999999998e-10,1.634791878112227
1.299999999999998e-10,0.5058711863293855,1.299999999999998e-10,1.637381176452847
1.309999999999998e-10,0.5072200952164525,1.309999999999998e-10,1.639953207733535
1.319999999999998e-10,0.5085598885851935,1.319999999999998e-10,1.642507870414904
1.329999999999998e-10,0.5098905630362269,1.329999999999998e-10,1.645045063643243
1.339999999999998e-10,0.5112120067673148,1.339999999999998e-10,1.647564687254509
1.349999999999998e-10,0.5125242168431255,1.349999999999998e-10,1.650066641778275
1.359999999999998e-10,0.5138270828703947,1.359999999999998e-10,1.652550828441662
1.369999999999998e-10,0.5151206023030597,1.369999999999998e-10,1.655017149173233
1.379999999999998e-10,0.5164046662415387,1.379999999999998e-10,1.657465506606868
1.389999999999998e-10,0.5176792724577386,1.389999999999998e-10,1.659895804085609
1.399999999999998e-10,0.5189443136265166,1.399999999999998e-10,1.662307945665473
1.409999999999998e-10,0.5201997877699459,1.409999999999998e-10,1.66470183611924
1.419999999999998e-10,0.5214455892141153,1.419999999999998e-10,1.667077380940214
1.429999999999998e-10,0.5226817161669608,1.429999999999998e-10,1.669434486345952
1.439999999999998e-10,0.5239080646786339,1.439999999999998e-10,1.671773059281971
1.449999999999998e-10,0.5251246330821332,1.449999999999998e-10,1.674093007425414
1.459999999999998e-10,0.526331319220539,1.459999999999998e-10,1.676394239188701
1.469999999999998e-10,0.5275281214946207,1.469999999999998e-10,1.678676663723142
1.479999999999998e-10,0.5287149396052946,1.479999999999998e-10,1.680940190922525
1.489999999999998e-10,0.5298917719673125,1.489999999999998e-10,1.683184731426673
1.499999999999998e-10,0.5310585202003815,1.499999999999998e-10,1.685410196624968
1.509999999999998e-10,0.5322151826829485,1.509999999999998e-10,1.687616498659856
1.519999999999998e-10,0.5333616630105255,1.519999999999998e-10,1.68980355043031
1.529999999999998e-10,0.5344979594784603,1.529999999999998e-10,1.691971265595271
1.539999999999998e-10,0.535623977711155,1.539999999999998e-10,1.694119558577056
1.549999999999997e-10,0.5367397158775518,1.549999999999997e-10,1.696248344564736
1.559999999999997e-10,0.5378450816801144,1.559999999999997e-10,1.698357539517487
1.569999999999997e-10,0.538940073121544,1.569999999999997e-10,1.700447060167902
1.579999999999997e-10,0.5400246000276492,1.579999999999997e-10,1.702516824025285
1.589999999999997e-10,0.5410986601985115,1.589999999999997e-10,1.704566749378901
1.599999999999997e-10,0.5421621656246975,1.599999999999997e-10,1.706596755301208
1.609999999999997e-10,0.5432151138707316,1.609999999999997e-10,1.708606761651049
1.619999999999997e-10,0.5442574191295091,1.619999999999997e-10,1.710596689076815
1.629999999999997e-10,0.5452890787004802,1.629999999999997e-10,1.712566459019576
1.639999999999997e-10,0.5463100090126282,1.639999999999997e-10,1.714515993716191
1.649999999999997e-10,0.5473202070742043,1.649999999999997e-10,1.716445216202366
1.659999999999997e-10,0.5483195915802592,1.659999999999997e-10,1.718354050315701
1.669999999999997e-10,0.5493081592250955,1.669999999999997e-10,1.720242420698693
1.679999999999997e-10,0.5502858309960655,1.679999999999997e-10,1.722110252801715
1.689999999999997e-10,0.5512526032541116,1.689999999999997e-10,1.723957472885951
1.699999999999997e-10,0.5522083993014183,1.699999999999997e-10,1.725784008026318
1.709999999999997e-10,0.5531532151494662,1.709999999999997e-10,1.727589786114333
1.719999999999997e-10,0.5540869764341406,1.719999999999997e-10,1.729374735860971
1.729999999999997e-10,0.5550096788046353,1.729999999999997e-10,1.731138786799473
1.739999999999997e-10,0.5559212502457862,1.739999999999997e-10,1.732881869288126
1.749999999999997e-10,0.5568216860349129,1.749999999999997e-10,1.73460391451302
1.759999999999997e-10,0.5577109387497703,1.759999999999997e-10,1.736304854490758
1.769999999999997e-10,0.5585889147508183,1.769999999999997e-10,1.737984622071141
1.779999999999997e-10,0.5594556754701211,1.779999999999997e-10,1.739643150939822
1.789999999999997e-10,0.5603111435162671,1.789999999999997e-10,1.741280375620921
1.799999999999997e-10,0.5611552300397815,1.799999999999997e-10,1.742896231479611
1.809999999999997e-10,0.561987991530852,1.809999999999997e-10,1.744490654724669
1.819999999999997e-10,0.5628093556108758,1.819999999999997e-10,1.746063582410997
1.829999999999997e-10,0.5636192382344547,1.829999999999997e-10,1.747614952442101
1.839999999999996e-10,0.5644176909144858,1.839999999999996e-10,1.74914470357255
1.849999999999996e-10,0.5652046460735467,1.849999999999996e-10,1.750652775410388
1.859999999999996e-10,0.5659800245159188,1.859999999999996e-10,1.752139108419521
1.869999999999996e-10,0.5667438728057618,1.869999999999996e-10,1.753603643922068
1.879999999999996e-10,0.5674961279923353,1.879999999999996e-10,1.755046324100674
1.889999999999996e-10,0.5682367157711565,1.889999999999996e-10,1.756467092000796
1.899999999999996e-10,0.5689656778361762,1.899999999999996e-10,1.75786589153295
1.909999999999996e-10,0.5696829557039403,1.909999999999996e-10,1.759242667474926
1.919999999999996e-10,0.5703884799856278,1.919999999999996e-10,1.760597365473967
1.929999999999996e-10,0.5710822876213902,1.929999999999996e-10,1.761929932048915
1.939999999999996e-10,0.5717643244425792,1.939999999999996e-10,1.763240314592324
1.949999999999996e-10,0.5724345259777155,1.949999999999996e-10,1.764528461372535
1.959999999999996e-10,0.5730929245612694,1.959999999999996e-10,1.765794321535718
1.969999999999996e-10,0.5737394701901052,1.969999999999996e-10,1.767037845107882
1.979999999999996e-10,0.574374103286918,1.979999999999996e-10,1.768258982996846
1.989999999999996e-10,0.5749968517568923,1.989999999999996e-10,1.769457686994176
1.999999999999996e-10,0.5756076696146375,1.999999999999996e-10,1.770633909777092
2.009999999999996e-10,0.5762065021285905,2.009999999999996e-10,1.771787604910331
2.019999999999996e-10,0.5767933729771232,2.019999999999996e-10,1.772918726847985
2.029999999999996e-10,0.5773682400456507,2.029999999999996e-10,1.774027230935298
2.039999999999996e-10,0.5779310777359823,2.039999999999996e-10,1.775113073410425
2.049999999999996e-10,0.5784818191758627,2.049999999999996e-10,1.776176211406165
2.059999999999996e-10,0.5790205246633396,2.059999999999996e-10,1.777216602951651
2.069999999999996e-10,0.5795471353721382,2.069999999999996e-10,1.778234206974005
2.079999999999996e-10,0.5800616282174572,2.079999999999996e-10,1.779228983299964
2.089999999999996e-10,0.5805639454084026,2.089999999999996e-10,1.780200892657461
2.099999999999996e-10,0.5810541356461777,2.099999999999996e-10,1.781149896677178
2.109999999999996e-10,0.5815321484819909,2.109999999999996e-10,1.782075957894063
2.119999999999996e-10,0.5819979632083707,2.119999999999996e-10,1.782979039748804
2.129999999999995e-10,0.5824515306908634,2.129999999999995e-10,1.783859106589275
2.139999999999995e-10,0.5828928889757551,2.139999999999995e-10,1.784716123671946
2.149999999999995e-10,0.58332199537825,2.149999999999995e-10,1.785550057163248
2.159999999999995e-10,0.5837388314923875,2.159999999999995e-10,1.786360874140916
2.169999999999995e-10,0.5841433797257836,2.169999999999995e-10,1.787148542595283
2.179999999999995e-10,0.5845355878767787,2.179999999999995e-10,1.787913031430548
2.189999999999995e-10,0.5849155118522653,2.189999999999995e-10,1.788654310466
2.199999999999995e-10,0.5852831018309479,2.199999999999995e-10,1.789372350437213
2.209999999999995e-10,0.5856383422921078,2.209999999999995e-10,1.790067122997197
2.219999999999995e-10,0.5859812184291611,2.219999999999995e-10,1.790738600717523
2.229999999999995e-10,0.5863117160993501,2.229999999999995e-10,1.791386757089398
2.239999999999995e-10,0.5866297872283539,2.239999999999995e-10,1.79201156652472
2.249999999999995e-10,0.5869354918344506,2.249999999999995e-10,1.792613004357082
2.259999999999995e-10,0.5872287805747546,2.259999999999995e-10,1.793191046842748
2.269999999999995e-10,0.5875096412933256,2.269999999999995e-10,1.79374567116159
2.279999999999995e-10,0.5877780624545446,2.279999999999995e-10,1.79427685541799
2.289999999999995e-10,0.588034033114443,2.289999999999995e-10,1.794784578641704
2.299999999999995e-10,0.5882775428985478,2.299999999999995e-10,1.795268820788686
2.309999999999995e-10,0.5885085564978908,2.309999999999995e-10,1.795729562741888
2.319999999999995e-10,0.5887271206681364,2.319999999999995e-10,1.796166786312005
2.329999999999995e-10,0.5889331966232839,2.329999999999995e-10,1.796580474238199
2.339999999999995e-10,0.5891267759767658,2.339999999999995e-10,1.79697061018878
2.349999999999995e-10,0.5893078508917431,2.349999999999995e-10,1.797337178761848
2.359999999999995e-10,0.5894764140687505,2.359999999999995e-10,1.797680165485903
2.369999999999995e-10,0.5896324587361651,2.369999999999995e-10,1.797999556820418
2.379999999999995e-10,0.5897759786428599,2.379999999999995e-10,1.798295340156368
2.389999999999995e-10,0.5899069680525471,2.389999999999995e-10,1.798567503816735
2.399999999999995e-10,0.5900254217394252,2.399999999999995e-10,1.798816037056963
2.409999999999995e-10,0.5901313349848374,2.409999999999995e-10,1.799040930065385
2.419999999999995e-10,0.5902246933809565,2.419999999999995e-10,1.79924217396361
2.429999999999995e-10,0.5903055236588163,2.429999999999995e-10,1.799419760806875
2.439999999999995e-10,0.5903738015425163,2.439999999999995e-10,1.799573683584353
2.449999999999995e-10,0.5904295243844959,2.449999999999995e-10,1.799703936219439
2.459999999999995e-10,0.5904726900220792,2.459999999999995e-10,1.79981051356998
2.469999999999995e-10,0.5905032967799797,2.469999999999995e-10,1.799893411428485
2.479999999999995e-10,0.5905213434722403,2.479999999999995e-10,1.79995262652229
2.489999999999995e-10,0.5905268294037354,2.489999999999995e-10,1.799988156513682
2.499999999999994e-10,0.5905197543713248,2.499999999999994e-10,1.8
2.509999999999994e-10,0.5905001186647357,2.509999999999994e-10,1.799988156513682
2.519999999999994e-10,0.5904679230672299,2.519999999999994e-10,1.79995262652229
2.529999999999994e-10,0.5904231688560977,2.529999999999994e-10,1.799893411428485
2.539999999999994e-10,0.5903658578030148,2.539999999999994e-10,1.79981051356998
2.549999999999994e-10,0.5902959921742892,2.549999999999994e-10,1.799703936219439
2.559999999999994e-10,0.5902135747310165,2.559999999999994e-10,1.799573683584354
2.569999999999994e-10,0.5901186087291598,2.569999999999994e-10,1.799419760806875
