;Version, 1, 0
;/net3,;out_tran
;X, Y,;X, Y
;Re, Re,;Re, Re
;time, V,;time, V
;s, V,;s, V
0,1.8,0,0.5553943731685507
1e-12,1.803455729181057,1e-12,0.5575919773160166
2e-12,1.806911321935844,2e-12,0.5596899267620478
3e-12,1.810366641843475,3e-12,0.561743810208545
4e-12,1.813821552493836,4e-12,0.563720245268068
5e-12,1.81727591749297,5e-12,0.5656374876268042
5.999999999999999e-12,1.820729600468464,5.999999999999999e-12,0.5675094372102094
6.999999999999999e-12,1.824182465074826,6.999999999999999e-12,0.5693466736605239
8e-12,1.827634374998873,8e-12,0.5711572455618596
9e-12,1.831085193965114,9e-12,0.5729473122141067
9.999999999999999e-12,1.834534785741122,9.999999999999999e-12,0.5747213998652876
1.1e-11,1.837983014142923,1.1e-11,0.5764831949976348
1.2e-11,1.841429743040363,1.2e-11,0.5782352178607943
1.3e-11,1.844874836362487,1.3e-11,0.5799796328902566
1.4e-11,1.848318158102909,1.4e-11,0.5817178229145453
1.5e-11,1.851759572325183,1.5e-11,0.5834510684210741
1.6e-11,1.855198943168168,1.6e-11,0.585180090368672
1.7e-11,1.858636134851393,1.7e-11,0.5869056561354954
1.8e-11,1.862071011680415,1.8e-11,0.5886281013018736
1.9e-11,1.865503438052178,1.9e-11,0.5903478956553175
2e-11,1.868933278460367,2e-11,0.5920651501710469
2.1e-11,1.872360397500755,2.1e-11,0.5937801623042032
2.2e-11,1.875784659876551,2.2e-11,0.5954929119277103
2.3e-11,1.879205930403739,2.3e-11,0.5972035969576704
2.4e-11,1.882624074016416,2.4e-11,0.5989121205622537
2.5e-11,1.886038955772127,2.5e-11,0.6006186234139065
2.6e-11,1.889450440857186,2.6e-11,0.6023229636404102
2.7e-11,1.892858394592004,2.7e-11,0.6040252492363614
2.8e-11,1.896262682436402,2.8e-11,0.6057253117375642
2.9e-11,1.899663169994926,2.9e-11,0.6074232407190754
3e-11,1.903059723022149,3e-11,0.6091188518898248
3.1e-11,1.906452207427973,3.1e-11,0.6108122246707129
3.200000000000001e-11,1.909840489282924,3.200000000000001e-11,0.6125031652419867
3.300000000000001e-11,1.913224434823435,3.300000000000001e-11,0.6141917476511175
3.400000000000001e-11,1.91660391045713,3.400000000000001e-11,0.6158777722508583
3.500000000000001e-11,1.919978782768099,3.500000000000001e-11,0.6175613104695706
3.600000000000002e-11,1.92334891852216,3.600000000000002e-11,0.6192421590238454
3.700000000000002e-11,1.926714184672125,3.700000000000002e-11,0.6209203882986764
3.800000000000002e-11,1.930074448363049,3.800000000000002e-11,0.6225957926880369
3.900000000000003e-11,1.933429576937474,3.900000000000003e-11,0.6242684424237105
4.000000000000003e-11,1.93677943794067,4.000000000000003e-11,0.6259381303802927
4.100000000000003e-11,1.94012389912586,4.100000000000003e-11,0.6276049271275954
4.200000000000004e-11,1.943462828459444,4.200000000000004e-11,0.629268624527426
4.300000000000004e-11,1.946796094126207,4.300000000000004e-11,0.6309292937466805
4.400000000000004e-11,1.950123564534529,4.400000000000004e-11,0.6325867259685301
4.500000000000004e-11,1.953445108321576,4.500000000000004e-11,0.6342409930807984
4.600000000000005e-11,1.956760594358487,4.600000000000005e-11,0.6358918858219385
4.700000000000005e-11,1.96006989175555,4.700000000000005e-11,0.6375394768457729
4.800000000000005e-11,1.963372869867369,4.800000000000005e-11,0.6391835566216696
4.900000000000006e-11,1.966669398298026,4.900000000000006e-11,0.6408241985685983
5.000000000000006e-11,1.969959346906221,5.000000000000006e-11,0.6424611930285641
5.100000000000006e-11,1.973242585810418,5.100000000000006e-11,0.6440946141580361
5.200000000000007e-11,1.976518985393966,5.200000000000007e-11,0.6457242522936094
5.300000000000007e-11,1.979788416310219,5.300000000000007e-11,0.6473501822859795
5.400000000000007e-11,1.983050749487643,5.400000000000007e-11,0.6489721945766992
5.500000000000008e-11,1.986305856134911,5.500000000000008e-11,0.6505903646583089
5.600000000000008e-11,1.989553607745985,5.600000000000008e-11,0.6522044831808369
5.700000000000008e-11,1.992793876105193,5.700000000000008e-11,0.6538146262210019
5.800000000000008e-11,1.996026533292288,5.800000000000008e-11,0.6554205847366938
5.900000000000008e-11,1.9992514516875,5.900000000000008e-11,0.6570224353281124
6.000000000000008e-11,2.002468503976573,6.000000000000008e-11,0.6586199693578104
6.100000000000007e-11,2.00567756315579,6.100000000000007e-11,0.6602132638870759
6.200000000000007e-11,2.008878502536991,6.200000000000007e-11,0.6618021107782047
6.300000000000007e-11,2.012071195752569,6.300000000000007e-11,0.6633865874903137
6.400000000000006e-11,2.015255516760462,6.400000000000006e-11,0.6649664864792839
6.500000000000006e-11,2.01843133984913,6.500000000000006e-11,0.6665418855383669
6.600000000000006e-11,2.021598539642515,6.600000000000006e-11,0.6681125778098786
6.700000000000005e-11,2.024756991104992,6.700000000000005e-11,0.6696786413574844
6.800000000000005e-11,2.027906569546306,6.800000000000005e-11,0.6712398701018678
6.900000000000005e-11,2.031047150626494,6.900000000000005e-11,0.6727963423135116
7.000000000000004e-11,2.03417861036079,7.000000000000004e-11,0.6743478527825457
7.100000000000004e-11,2.037300825124527,7.100000000000004e-11,0.6758944799229605
7.200000000000004e-11,2.040413671658013,7.200000000000004e-11,0.6774360194845342
7.300000000000003e-11,2.043517027071396,7.300000000000003e-11,0.6789725499618559
7.400000000000003e-11,2.046610768849518,7.400000000000003e-11,0.6805038681536364
7.500000000000003e-11,2.049694774856751,7.500000000000003e-11,0.6820300525726419
7.600000000000002e-11,2.052768923341818,7.600000000000002e-11,0.6835509011548333
7.700000000000002e-11,2.055833092942602,7.700000000000002e-11,0.6850664923692963
7.800000000000001e-11,2.058887162690933,7.800000000000001e-11,0.6865766253765294
7.900000000000001e-11,2.061931012017367,7.900000000000001e-11,0.6880813785407118
8.000000000000001e-11,2.064964520755944,8.000000000000001e-11,0.6895805523330677
8.1e-11,2.067987569148933,8.1e-11,0.6910742249523469
8.2e-11,2.071000037851561,8.2e-11,0.6925621982655243
8.3e-11,2.07400180793672,8.3e-11,0.6940445502461404
8.399999999999999e-11,2.076992760899668,8.399999999999999e-11,0.6955210842407161
8.499999999999999e-11,2.079972778662704,8.499999999999999e-11,0.6969918779386216
8.599999999999999e-11,2.082941743579829,8.599999999999999e-11,0.698456736248416
8.699999999999998e-11,2.08589953844139,8.699999999999998e-11,0.6999157365171943
8.799999999999998e-11,2.088846046478713,8.799999999999998e-11,0.7013686852967149
8.899999999999998e-11,2.091781151368703,8.899999999999998e-11,0.7028156595346214
8.999999999999997e-11,2.094704737238448,8.999999999999997e-11,0.7042564675054658
9.099999999999997e-11,2.097616688669782,9.099999999999997e-11,0.7056911857011879
9.199999999999997e-11,2.100516890703848,9.199999999999997e-11,0.7071196241974117
9.299999999999996e-11,2.103405228845637,9.299999999999996e-11,0.7085418589751802
9.399999999999996e-11,2.106281589068503,9.399999999999996e-11,0.7099577019877933
9.499999999999996e-11,2.109145857818672,9.499999999999996e-11,0.7113672286512452
9.599999999999995e-11,2.111997922019716,9.599999999999995e-11,0.7127702528715084
9.699999999999995e-11,2.114837669077025,9.699999999999995e-11,0.7141668494464708
9.799999999999995e-11,2.117664986882247,9.799999999999995e-11,0.7155568343080863
9.899999999999994e-11,2.120479763817717,9.899999999999994e-11,0.7169402815842325
9.999999999999994e-11,2.12328188876086,9.999999999999994e-11,0.7183170093043966
1.009999999999999e-10,2.126071251088582,1.009999999999999e-10,0.7196870908757294
1.019999999999999e-10,2.128847740681636,1.019999999999999e-10,0.7210503464949947
1.029999999999999e-10,2.131611247928964,1.029999999999999e-10,0.7224068487991252
1.039999999999999e-10,2.134361663732033,1.039999999999999e-10,0.7237564202200349
1.049999999999999e-10,2.137098879509137,1.049999999999999e-10,0.7250991325762184
1.059999999999999e-10,2.139822787199684,1.059999999999999e-10,0.7264348106006828
1.069999999999999e-10,2.142533279268462,1.069999999999999e-10,0.727763525246567
1.079999999999999e-10,2.145230248709885,1.079999999999999e-10,0.729085103611933
1.089999999999999e-10,2.147913589052219,1.089999999999999e-10,0.7303996157389894
1.099999999999999e-10,2.150583194361779,1.099999999999999e-10,0.731706891152775
1.109999999999999e-10,2.153238959247121,1.109999999999999e-10,0.7330069989403702
1.119999999999999e-10,2.155880778863194,1.119999999999999e-10,0.7342997711136202
1.129999999999999e-10,2.158508548915483,1.129999999999999e-10,0.735585275761691
1.139999999999999e-10,2.161122165664126,1.139999999999999e-10,0.7368633474409185
1.149999999999999e-10,2.163721525928008,1.149999999999999e-10,0.7381340532012119
1.159999999999999e-10,2.166306527088838,1.159999999999999e-10,0.7393972301988896
1.169999999999999e-10,2.168877067095196,1.169999999999999e-10,0.7406529444047335
1.179999999999999e-10,2.171433044466563,1.179999999999999e-10,0.7419010356282899
1.189999999999999e-10,2.17397435829733,1.189999999999999e-10,0.7431415687228572
1.199999999999999e-10,2.176500908260778,1.199999999999999e-10,0.7443743862021607
1.209999999999999e-10,2.179012594613042,1.209999999999999e-10,0.7455995517651904
1.219999999999999e-10,2.181509318197042,1.219999999999999e-10,0.7468169106784646
1.229999999999999e-10,2.18399098044641,1.229999999999999e-10,0.7480265254514084
1.239999999999999e-10,2.186457483389367,1.239999999999999e-10,0.7492282441495576
1.249999999999999e-10,2.188908729652601,1.249999999999999e-10,0.7504221280591128
1.259999999999998e-10,2.191344622465107,1.259999999999998e-10,0.7516080280884261
1.269999999999998e-10,2.193765065662007,1.269999999999998e-10,0.752786004268431
1.279999999999998e-10,2.196169963688348,1.279999999999998e-10,0.7539559103916231
1.289999999999998e-10,2.198559221602875,1.289999999999998e-10,0.7551178052032792
1.299999999999998e-10,2.200932745081776,1.299999999999998e-10,0.7562715454188506
1.309999999999998e-10,2.203290440422408,1.309999999999998e-10,0.7574171884692434
1.319999999999998e-10,2.205632214546995,1.319999999999998e-10,0.7585545940291246
1.329999999999998e-10,2.207957975006306,1.329999999999998e-10,0.7596838181880178
1.339999999999998e-10,2.2102676299833,1.339999999999998e-10,0.7608047236134737
1.349999999999998e-10,2.212561088296752,1.349999999999998e-10,0.7619173650283501
1.359999999999998e-10,2.214838259404857,1.359999999999998e-10,0.7630216081241227
1.369999999999998e-10,2.217099053408797,1.369999999999998e-10,0.7641175062334512
1.379999999999998e-10,2.219343381056296,1.379999999999998e-10,0.7652049281001159
1.389999999999998e-10,2.221571153745142,1.389999999999998e-10,0.7662839256448257
1.399999999999998e-10,2.223782283526684,1.399999999999998e-10,0.7673543706893466
1.409999999999998e-10,2.225976683109304,1.409999999999998e-10,0.768416313722486
1.419999999999998e-10,2.228154265861862,1.419999999999998e-10,0.7694696296669504
1.429999999999998e-10,2.230314945817123,1.429999999999998e-10,0.7705143675615218
1.439999999999998e-10,2.23245863767514,1.439999999999998e-10,0.7715504054500437
1.449999999999998e-10,2.234585256806629,1.449999999999998e-10,0.7725777909050018
1.459999999999998e-10,2.236694719256309,1.459999999999998e-10,0.7735964051087882
1.469999999999998e-10,2.238786941746214,1.469999999999998e-10,0.774606294153191
1.479999999999998e-10,2.240861841678981,1.479999999999998e-10,0.7756073423737525
1.489999999999998e-10,2.242919337141116,1.489999999999998e-10,0.7765995943690656
1.499999999999998e-10,2.244959346906221,1.499999999999998e-10,0.7775829376395855
1.509999999999998e-10,2.246981790438201,1.509999999999998e-10,0.7785574152801328
1.519999999999998e-10,2.248986587894451,1.519999999999998e-10,0.779522917964984
1.529999999999998e-10,2.250973660128998,1.529999999999998e-10,0.7804794872765535
1.539999999999998e-10,2.252942928695635,1.539999999999998e-10,0.7814270170689688
1.549999999999997e-10,2.254894315851009,1.549999999999997e-10,0.782365547405579
1.559999999999997e-10,2.256827744557697,1.559999999999997e-10,0.783294975323496
1.569999999999997e-10,2.258743138487244,1.569999999999997e-10,0.7842153393623301
1.579999999999997e-10,2.260640422023178,1.579999999999997e-10,0.7851265397424068
1.589999999999997e-10,2.262519520263993,1.589999999999997e-10,0.7860286134769405
1.599999999999997e-10,2.264380359026108,1.599999999999997e-10,0.7869215800120647
1.609999999999997e-10,2.266222864846795,1.609999999999997e-10,0.7878051874289715
1.619999999999997e-10,2.26804696498708,1.619999999999997e-10,0.7886795824411504
1.629999999999997e-10,2.269852587434612,1.629999999999997e-10,0.7895447827735326
1.639999999999997e-10,2.271639660906509,1.639999999999997e-10,0.7904005474977314
1.649999999999997e-10,2.273408114852169,1.649999999999997e-10,0.7912470139359197
1.659999999999997e-10,2.275157879456059,1.659999999999997e-10,0.792084199344757
1.669999999999997e-10,2.276888885640469,1.669999999999997e-10,0.7929118744020133
1.679999999999997e-10,2.278601065068239,1.679999999999997e-10,0.7937301676369396
1.689999999999997e-10,2.280294350145456,1.689999999999997e-10,0.794539095979819
1.699999999999997e-10,2.281968674024125,1.699999999999997e-10,0.7953384420143699
1.709999999999997e-10,2.283623970604806,1.709999999999997e-10,0.7961283257788423
1.719999999999997e-10,2.285260174539224,1.719999999999997e-10,0.7969087638724736
1.729999999999997e-10,2.28687722123285,1.729999999999997e-10,0.7976795509085053
1.739999999999997e-10,2.288475046847449,1.739999999999997e-10,0.7984407986442956
1.749999999999997e-10,2.290053588303602,1.749999999999997e-10,0.7991925232704726
1.759999999999997e-10,2.291612783283195,1.759999999999997e-10,0.7999345314548871
1.769999999999997e-10,2.29315257023188,1.769999999999997e-10,0.8006669268542637
1.779999999999997e-10,2.294672888361504,1.779999999999997e-10,0.8013897251469868
1.789999999999997e-10,2.296173677652511,1.789999999999997e-10,0.8021027450166445
1.799999999999997e-10,2.29765487885631,1.799999999999997e-10,0.8028060821974384
1.809999999999997e-10,2.299116433497614,1.809999999999997e-10,0.8034997517472214
1.819999999999997e-10,2.300558283876747,1.819999999999997e-10,0.8041835842777477
1.829999999999997e-10,2.301980373071926,1.829999999999997e-10,0.8048576677889797
1.839999999999996e-10,2.303382644941504,1.839999999999996e-10,0.805522016615301
1.849999999999996e-10,2.304765044126189,1.849999999999996e-10,0.8061764731670736
1.859999999999996e-10,2.306127516051228,1.859999999999996e-10,0.8068211179139012
1.869999999999996e-10,2.307470006928563,1.869999999999996e-10,0.8074559643739656
1.879999999999996e-10,2.308792463758952,1.879999999999996e-10,0.808080866587636
1.889999999999996e-10,2.310094834334063,1.889999999999996e-10,0.8086958977159476
1.899999999999996e-10,2.311377067238538,1.899999999999996e-10,0.8093010703808428
1.909999999999996e-10,2.312639111852016,1.909999999999996e-10,0.8098962500464078
1.919999999999996e-10,2.313880918351136,1.919999999999996e-10,0.8104815028057111
1.929999999999996e-10,2.315102437711505,1.929999999999996e-10,0.8110568403184928
1.939999999999996e-10,2.31630362170963,1.939999999999996e-10,0.8116222633203835
1.949999999999996e-10,2.317484422924823,1.949999999999996e-10,0.8121775503721705
1.959999999999996e-10,2.318644794741075,1.959999999999996e-10,0.812722840381929
1.969999999999996e-10,2.319784691348892,1.969999999999996e-10,0.8132581491398588
1.979999999999996e-10,2.320904067747109,1.979999999999996e-10,0.8137834756637772
1.989999999999996e-10,2.322002879744661,1.989999999999996e-10,0.8142986243575608
1.999999999999996e-10,2.323081083962334,1.999999999999996e-10,0.8148037142784917
2.009999999999996e-10,2.32413863783447,2.009999999999996e-10,0.8152987593785965
2.019999999999996e-10,2.325175499610653,2.019999999999996e-10,0.8157837577954589
2.029999999999996e-10,2.326191628357356,2.029999999999996e-10,0.8162585392814653
2.039999999999996e-10,2.327186983959556,2.039999999999996e-10,0.8167232047007579
2.049999999999996e-10,2.328161527122318,2.049999999999996e-10,0.8171777663496742
2.059999999999996e-10,2.329115219372347,2.059999999999996e-10,0.8176222218092593
2.069999999999996e-10,2.330048023059505,2.069999999999996e-10,0.8180565654246129
2.079999999999996e-10,2.3309599013583,2.079999999999996e-10,0.8184805746573347
2.089999999999996e-10,2.331850818269339,2.089999999999996e-10,0.8188944016225442
2.099999999999996e-10,2.332720738620747,2.099999999999996e-10,0.819298063540883
2.109999999999996e-10,2.333569628069558,2.109999999999996e-10,0.819691556363893
2.119999999999996e-10,2.33439745310307,2.119999999999996e-10,0.8200748736620107
2.129999999999995e-10,2.33520418104017,2.129999999999995e-10,0.8204478367163915
2.139999999999995e-10,2.335989780032617,2.139999999999995e-10,0.8208105632267939
2.149999999999995e-10,2.336754219066311,2.149999999999995e-10,0.8211630674621038
2.159999999999995e-10,2.337497467962506,2.159999999999995e-10,0.8215053449810094
2.169999999999995e-10,2.33821949737901,2.169999999999995e-10,0.8218373895283746
2.179999999999995e-10,2.338920278811336,2.179999999999995e-10,0.822159193554492
2.189999999999995e-10,2.339599784593834,2.189999999999995e-10,0.8224707486129176
2.199999999999995e-10,2.340257987900778,2.199999999999995e-10,0.822771804085317
2.209999999999995e-10,2.340894862747431,2.209999999999995e-10,0.8230625548271655
2.219999999999995e-10,2.341510383991063,2.219999999999995e-10,0.823343026552997
2.229999999999995e-10,2.342104527331949,2.229999999999995e-10,0.8236132124556419
2.239999999999995e-10,2.342677269314327,2.239999999999995e-10,0.8238731051358749
2.249999999999995e-10,2.343228587327325,2.249999999999995e-10,0.8241226968362714
2.259999999999995e-10,2.343758459605852,2.259999999999995e-10,0.8243619796204272
2.269999999999995e-10,2.344266865231458,2.269999999999995e-10,0.8245907950686421
2.279999999999995e-10,2.344753784133158,2.279999999999995e-10,0.8248092594958518
2.289999999999995e-10,2.345219197088229,2.289999999999995e-10,0.8250173916444503
2.299999999999995e-10,2.345663085722963,2.299999999999995e-10,0.8252151857736286
2.309999999999995e-10,2.346085432513398,2.309999999999995e-10,0.825402635971405
2.319999999999995e-10,2.346486220786005,2.319999999999995e-10,0.8255797362904007
2.329999999999995e-10,2.34686543471835,2.329999999999995e-10,0.8257464808519039
2.339999999999995e-10,2.347223059339715,2.339999999999995e-10,0.8259028639256368
2.349999999999995e-10,2.347559080531694,2.349999999999995e-10,0.8260488799909083
2.359999999999995e-10,2.347873485028745,2.359999999999995e-10,0.8261845237835015
2.369999999999995e-10,2.348166260418716,2.369999999999995e-10,0.8263097903316334
2.379999999999995e-10,2.348437395143338,2.379999999999995e-10,0.8264245193688395
2.389999999999995e-10,2.348686878498674,2.389999999999995e-10,0.8265288440314901
2.399999999999995e-10,2.348914700635549,2.399999999999995e-10,0.8266227979109877
2.409999999999995e-10,2.349120852559936,2.409999999999995e-10,0.826706374899947
2.419999999999995e-10,2.34930532613331,2.419999999999995e-10,0.8267795698617039
2.429999999999995e-10,2.349468114072969,2.429999999999995e-10,0.826842378499261
2.439999999999995e-10,2.349609209952324,2.439999999999995e-10,0.8268947972549071
2.449999999999995e-10,2.349728608201152,2.449999999999995e-10,0.8269368232333302
2.459999999999995e-10,2.349826304105815,2.459999999999995e-10,0.8269684541427251
2.469999999999995e-10,2.349902293809445,2.469999999999995e-10,0.826989688249682
2.479999999999995e-10,2.349956574312099,2.479999999999995e-10,0.8270005243446261
2.489999999999995e-10,2.349989143470876,2.489999999999995e-10,0.8270009617153402
2.499999999999994e-10,2.35,2.499999999999994e-10,0.826991000126671
2.509999999999994e-10,2.349989143470876,2.509999999999994e-10,0.8269706398049719
2.519999999999994e-10,2.349956574312099,2.519999999999994e-10,0.8269398814261695
2.529999999999994e-10,2.349902293809445,2.529999999999994e-10,0.8268987261066006
2.539999999999994e-10,2.349826304105815,2.539999999999994e-10,0.8268471753959713
2.549999999999994e-10,2.349728608201152,2.549999999999994e-10,0.826785231271933
2.559999999999994e-10,2.349609209952324,2.559999999999994e-10,0.8267128961359006
2.569999999999994e-10,2.349468114072969,2.569999999999994e-10,0.8266301728098087
