;Version, 1, 0
;out_tran,;/net3
;X, Y,;X, Y
;Re, Re,;Re, Re
;time, V,;time, V
;s, V,;s, V
0,0.2832904500226556,0,1.25
1e-12,0.2854893653314929,1e-12,1.253455729181058
2e-12,0.2875765584413754,2e-12,1.256911321935844
3e-12,0.2896143180809287,3e-12,1.260366641843474
4e-12,0.2915649551237319,4e-12,1.263821552493836
5e-12,0.293448826035232,5e-12,1.267275917492971
5.999999999999999e-12,0.2952815395258619,5.999999999999999e-12,1.270729600468464
6.999999999999999e-12,0.2970750591711049,6.999999999999999e-12,1.274182465074826
8e-12,0.2988385499240076,8e-12,1.277634374998873
9e-12,0.3005790280805762,9e-12,1.281085193965114
9.999999999999999e-12,0.3023018603666404,9.999999999999999e-12,1.284534785741122
1.1e-11,0.3040111471728658,1.1e-11,1.287983014142923
1.2e-11,0.3057100168269644,1.2e-11,1.291429743040363
1.3e-11,0.3074008515462225,1.3e-11,1.294874836362487
1.4e-11,0.3090854609220391,1.4e-11,1.298318158102909
1.5e-11,0.310765215110615,1.5e-11,1.301759572325183
1.6e-11,0.312441147080286,1.6e-11,1.305198943168168
1.7e-11,0.3141140310975264,1.7e-11,1.308636134851393
1.8e-11,0.3157844429679644,1.8e-11,1.312071011680415
1.9e-11,0.3174528062692893,1.9e-11,1.315503438052178
2e-11,0.3191194278300037,2e-11,1.318933278460367
2.1e-11,0.3207845249529185,2.1e-11,1.322360397500755
2.2e-11,0.322448246302279,2.2e-11,1.325784659876551
2.3e-11,0.3241106879278601,2.3e-11,1.329205930403739
2.4e-11,0.3257719055572149,2.4e-11,1.332624074016416
2.5e-11,0.3274319240244091,2.5e-11,1.336038955772127
2.6e-11,0.3290907445017886,2.6e-11,1.339450440857186
2.7e-11,0.3307483500463398,2.7e-11,1.342858394592004
2.8e-11,0.3324047098532317,2.8e-11,1.346262682436402
2.9e-11,0.3340597825177803,2.9e-11,1.349663169994926
3e-11,0.3357135185369665,3e-11,1.353059723022149
3.1e-11,0.3373658622278199,3.1e-11,1.356452207427973
3.200000000000001e-11,0.3390167531986879,3.200000000000001e-11,1.359840489282924
3.300000000000001e-11,0.3406661274777066,3.300000000000001e-11,1.363224434823435
3.400000000000001e-11,0.3423139183784861,3.400000000000001e-11,1.36660391045713
3.500000000000001e-11,0.3439600571643625,3.500000000000001e-11,1.369978782768098
3.600000000000002e-11,0.3456044735582547,3.600000000000002e-11,1.37334891852216
3.700000000000002e-11,0.3472470961341999,3.700000000000002e-11,1.376714184672125
3.800000000000002e-11,0.3488878526182051,3.800000000000002e-11,1.380074448363049
3.900000000000003e-11,0.3505266701196202,3.900000000000003e-11,1.383429576937474
4.000000000000003e-11,0.3521634753092664,4.000000000000003e-11,1.38677943794067
4.100000000000003e-11,0.3537981945567714,4.100000000000003e-11,1.39012389912586
4.200000000000004e-11,0.3554307540366515,4.200000000000004e-11,1.393462828459443
4.300000000000004e-11,0.3570610798104488,4.300000000000004e-11,1.396796094126207
4.400000000000004e-11,0.3586890978905204,4.400000000000004e-11,1.400123564534529
4.500000000000004e-11,0.3603147342897762,4.500000000000004e-11,1.403445108321576
4.600000000000005e-11,0.3619379150606413,4.600000000000005e-11,1.406760594358487
4.700000000000005e-11,0.3635585663257704,4.700000000000005e-11,1.41006989175555
4.800000000000005e-11,0.3651766143024353,4.800000000000005e-11,1.413372869867369
4.900000000000006e-11,0.366791985322062,4.900000000000006e-11,1.416669398298026
5.000000000000006e-11,0.3684046058460501,5.000000000000006e-11,1.419959346906221
5.100000000000006e-11,0.3700144024787401,5.100000000000006e-11,1.423242585810418
5.200000000000007e-11,0.3716213019781845,5.200000000000007e-11,1.426518985393965
5.300000000000007e-11,0.3732252312652451,5.300000000000007e-11,1.429788416310219
5.400000000000007e-11,0.3748261174313829,5.400000000000007e-11,1.433050749487643
5.500000000000008e-11,0.3764238877454603,5.500000000000008e-11,1.43630585613491
5.600000000000008e-11,0.3780184696597688,5.600000000000008e-11,1.439553607745985
5.700000000000008e-11,0.3796097908154547,5.700000000000008e-11,1.442793876105193
5.800000000000008e-11,0.3811977790474927,5.800000000000008e-11,1.446026533292288
5.900000000000008e-11,0.3827823623892897,5.900000000000008e-11,1.4492514516875
6.000000000000008e-11,0.3843634690770055,6.000000000000008e-11,1.452468503976573
6.100000000000007e-11,0.3859410275536552,6.100000000000007e-11,1.455677563155791
6.200000000000007e-11,0.3875149664730296,6.200000000000007e-11,1.458878502536991
6.300000000000007e-11,0.3890852147034705,6.300000000000007e-11,1.462071195752568
6.400000000000006e-11,0.3906517013315375,6.400000000000006e-11,1.465255516760462
6.500000000000006e-11,0.3922143556655682,6.500000000000006e-11,1.46843133984913
6.600000000000006e-11,0.393773107239169,6.600000000000006e-11,1.471598539642515
6.700000000000005e-11,0.3953278858146287,6.700000000000005e-11,1.474756991104992
6.800000000000005e-11,0.3968786213862787,6.800000000000005e-11,1.477906569546307
6.900000000000005e-11,0.3984252441837991,6.900000000000005e-11,1.481047150626494
7.000000000000004e-11,0.3999676846754787,7.000000000000004e-11,1.48417861036079
7.100000000000004e-11,0.4015058735714302,7.100000000000004e-11,1.487300825124528
7.200000000000004e-11,0.4030397418267703,7.200000000000004e-11,1.490413671658013
7.300000000000003e-11,0.4045692206447599,7.300000000000003e-11,1.493517027071396
7.400000000000003e-11,0.4060942414799079,7.400000000000003e-11,1.496610768849518
7.500000000000003e-11,0.4076147360410447,7.500000000000003e-11,1.499694774856751
7.600000000000002e-11,0.4091306362943604,7.600000000000002e-11,1.502768923341818
7.700000000000002e-11,0.4106418744664139,7.700000000000002e-11,1.505833092942602
7.800000000000001e-11,0.4121483830471077,7.800000000000001e-11,1.508887162690933
7.900000000000001e-11,0.4136500947926347,7.900000000000001e-11,1.511931012017367
8.000000000000001e-11,0.4151469427283929,8.000000000000001e-11,1.514964520755943
8.1e-11,0.4166388601518724,8.1e-11,1.517987569148933
8.2e-11,0.4181257806355105,8.2e-11,1.52100003785156
8.3e-11,0.4196076191251667,8.3e-11,1.52400180793672
8.399999999999999e-11,0.4210843355227658,8.399999999999999e-11,1.526992760899669
8.499999999999999e-11,0.4225558590522561,8.499999999999999e-11,1.529972778662704
8.599999999999999e-11,0.4240221265769146,8.599999999999999e-11,1.532941743579828
8.699999999999998e-11,0.4254830705705394,8.699999999999998e-11,1.53589953844139
8.799999999999998e-11,0.4269386266633881,8.799999999999998e-11,1.538846046478713
8.899999999999998e-11,0.4283887302742365,8.899999999999998e-11,1.541781151368704
8.999999999999997e-11,0.4298333157737989,8.999999999999997e-11,1.544704737238448
9.099999999999997e-11,0.4312723213283927,9.099999999999997e-11,1.547616688669782
9.199999999999997e-11,0.432705680080608,9.199999999999997e-11,1.550516890703848
9.299999999999996e-11,0.4341333327847225,9.299999999999996e-11,1.553405228845636
9.399999999999996e-11,0.4355552114220766,9.399999999999996e-11,1.556281589068503
9.499999999999996e-11,0.4369712592035458,9.499999999999996e-11,1.559145857818672
9.599999999999995e-11,0.4383814070342689,9.599999999999995e-11,1.561997922019716
9.699999999999995e-11,0.4397856004674309,9.699999999999995e-11,1.564837669077025
9.799999999999995e-11,0.4411837694267745,9.799999999999995e-11,1.567664986882247
9.899999999999994e-11,0.4425758617041178,9.899999999999994e-11,1.570479763817717
9.999999999999994e-11,0.4439618063414366,9.999999999999994e-11,1.57328188876086
1.009999999999999e-10,0.4453415532723695,1.009999999999999e-10,1.576071251088582
1.019999999999999e-10,0.4467150307586909,1.019999999999999e-10,1.578847740681635
1.029999999999999e-10,0.4480821907837406,1.029999999999999e-10,1.581611247928963
1.039999999999999e-10,0.4494429609308858,1.039999999999999e-10,1.584361663732033
1.049999999999999e-10,0.4507972951445098,1.049999999999999e-10,1.587098879509137
1.059999999999999e-10,0.4521451204305807,1.059999999999999e-10,1.589822787199684
1.069999999999999e-10,0.4534863926086198,1.069999999999999e-10,1.592533279268462
1.079999999999999e-10,0.4548210382068112,1.079999999999999e-10,1.595230248709885
1.089999999999999e-10,0.4561490148362738,1.089999999999999e-10,1.597913589052218
1.099999999999999e-10,0.4574702486452574,1.099999999999999e-10,1.600583194361779
1.109999999999999e-10,0.4587846989550874,1.109999999999999e-10,1.603238959247121
1.119999999999999e-10,0.4600922916299324,1.119999999999999e-10,1.605880778863194
1.129999999999999e-10,0.4613929876219837,1.129999999999999e-10,1.608508548915483
1.139999999999999e-10,0.4626867126050305,1.139999999999999e-10,1.611122165664126
1.149999999999999e-10,0.4639734290847877,1.149999999999999e-10,1.613721525928008
1.159999999999999e-10,0.4652530626361181,1.159999999999999e-10,1.616306527088838
1.169999999999999e-10,0.4665255772429064,1.169999999999999e-10,1.618877067095196
1.179999999999999e-10,0.4677908984702167,1.179999999999999e-10,1.621433044466563
1.189999999999999e-10,0.4690489917067476,1.189999999999999e-10,1.62397435829733
1.199999999999999e-10,0.4702997825945129,1.199999999999999e-10,1.626500908260778
1.209999999999999e-10,0.4715432378556788,1.209999999999999e-10,1.629012594613041
1.219999999999999e-10,0.4727792832935334,1.219999999999999e-10,1.631509318197042
1.229999999999999e-10,0.4740078868944042,1.229999999999999e-10,1.63399098044641
1.239999999999999e-10,0.4752289747047171,1.239999999999999e-10,1.636457483389367
1.249999999999999e-10,0.4764425159077124,1.249999999999999e-10,1.638908729652601
1.259999999999998e-10,0.4776484368723289,1.259999999999998e-10,1.641344622465107
1.269999999999998e-10,0.4788467079135538,1.269999999999998e-10,1.643765065662007
1.279999999999998e-10,0.4800372557996955,1.279999999999998e-10,1.646169963688348
1.289999999999998e-10,0.4812200519144338,1.289999999999998e-10,1.648559221602875
1.299999999999998e-10,0.4823950234997613,1.299999999999998e-10,1.650932745081776
1.309999999999998e-10,0.4835621429471259,1.309999999999998e-10,1.653290440422408
1.319999999999998e-10,0.4847213380439576,1.319999999999998e-10,1.655632214546995
1.329999999999998e-10,0.4858725821307019,1.329999999999998e-10,1.657957975006306
1.339999999999998e-10,0.4870158036093991,1.339999999999998e-10,1.6602676299833
1.349999999999998e-10,0.4881509767128924,1.349999999999998e-10,1.662561088296752
1.359999999999998e-10,0.4892780305244117,1.359999999999998e-10,1.664838259404857
1.369999999999998e-10,0.4903969401147851,1.369999999999998e-10,1.667099053408797
1.379999999999998e-10,0.4915076353124032,1.379999999999998e-10,1.669343381056296
1.389999999999998e-10,0.492610091973873,1.389999999999998e-10,1.671571153745142
1.399999999999998e-10,0.4937042407340965,1.399999999999998e-10,1.673782283526684
1.409999999999998e-10,0.4947900581854698,1.409999999999998e-10,1.675976683109303
1.419999999999998e-10,0.4958674758281346,1.419999999999998e-10,1.678154265861862
1.429999999999998e-10,0.496936470942511,1.429999999999998e-10,1.680314945817123
1.439999999999998e-10,0.4979969759500731,1.439999999999998e-10,1.68245863767514
1.449999999999998e-10,0.4990489687737428,1.449999999999998e-10,1.684585256806629
1.459999999999998e-10,0.5000923828097847,1.459999999999998e-10,1.686694719256309
1.469999999999998e-10,0.5011271965803399,1.469999999999998e-10,1.688786941746214
1.479999999999998e-10,0.5021533445072862,1.479999999999998e-10,1.690861841678982
1.489999999999998e-10,0.503170805670949,1.489999999999998e-10,1.692919337141117
1.499999999999998e-10,0.504179515567009,1.499999999999998e-10,1.694959346906221
1.509999999999998e-10,0.5051794537951944,1.509999999999998e-10,1.696981790438201
1.519999999999998e-10,0.5061705569705429,1.519999999999998e-10,1.698986587894451
1.529999999999998e-10,0.5071528051756546,1.529999999999998e-10,1.700973660128998
1.539999999999998e-10,0.5081261361878595,1.539999999999998e-10,1.702942928695635
1.549999999999997e-10,0.5090905305383447,1.549999999999997e-10,1.704894315851009
1.559999999999997e-10,0.5100459272070488,1.559999999999997e-10,1.706827744557696
1.569999999999997e-10,0.510992307141712,1.569999999999997e-10,1.708743138487244
1.579999999999997e-10,0.5119296105625932,1.579999999999997e-10,1.710640422023177
1.589999999999997e-10,0.5128578188041877,1.589999999999997e-10,1.712519520263992
1.599999999999997e-10,0.5137768733621958,1.599999999999997e-10,1.714380359026108
1.609999999999997e-10,0.5146867559303027,1.609999999999997e-10,1.716222864846795
1.619999999999997e-10,0.5155874093121962,1.619999999999997e-10,1.71804696498708
1.629999999999997e-10,0.5164788155354068,1.629999999999997e-10,1.719852587434612
1.639999999999997e-10,0.5173609187415982,1.639999999999997e-10,1.721639660906508
1.649999999999997e-10,0.5182337012690122,1.649999999999997e-10,1.723408114852168
1.659999999999997e-10,0.5190971086247397,1.659999999999997e-10,1.725157879456059
1.669999999999997e-10,0.519951123436793,1.669999999999997e-10,1.726888885640469
1.679999999999997e-10,0.520795692602627,1.679999999999997e-10,1.728601065068239
1.689999999999997e-10,0.5216307990212656,1.689999999999997e-10,1.730294350145456
1.699999999999997e-10,0.5224564011710797,1.699999999999997e-10,1.731968674024124
1.709999999999997e-10,0.5232724373083404,1.709999999999997e-10,1.733623970604806
1.719999999999997e-10,0.5240789271300651,1.719999999999997e-10,1.735260174539224
1.729999999999997e-10,0.5248758119604878,1.729999999999997e-10,1.73687722123285
1.739999999999997e-10,0.5256630323188449,1.739999999999997e-10,1.738475046847449
1.749999999999997e-10,0.5264406062754735,1.749999999999997e-10,1.740053588303602
1.759999999999997e-10,0.5272084786155985,1.759999999999997e-10,1.741612783283195
1.769999999999997e-10,0.5279665921984674,1.769999999999997e-10,1.743152570231879
1.779999999999997e-10,0.5287149633407974,1.779999999999997e-10,1.744672888361503
1.789999999999997e-10,0.5294535401370171,1.789999999999997e-10,1.746173677652511
1.799999999999997e-10,0.5301822678955662,1.799999999999997e-10,1.74765487885631
1.809999999999997e-10,0.5309011611099314,1.809999999999997e-10,1.749116433497614
1.819999999999997e-10,0.5316101710645607,1.819999999999997e-10,1.750558283876747
1.829999999999997e-10,0.5323092456272414,1.829999999999997e-10,1.751980373071926
1.839999999999996e-10,0.5329983974368395,1.839999999999996e-10,1.753382644941504
1.849999999999996e-10,0.5336775808627673,1.849999999999996e-10,1.754765044126189
1.859999999999996e-10,0.5343467464308638,1.859999999999996e-10,1.756127516051228
1.869999999999996e-10,0.5350059049215604,1.869999999999996e-10,1.757470006928563
1.879999999999996e-10,0.5356550136909327,1.879999999999996e-10,1.758792463758951
1.889999999999996e-10,0.5362940260049129,1.889999999999996e-10,1.760094834334063
1.899999999999996e-10,0.5369229508042216,1.899999999999996e-10,1.761377067238538
1.909999999999996e-10,0.5375417483368413,1.909999999999996e-10,1.762639111852016
1.919999999999996e-10,0.5381503746721866,1.919999999999996e-10,1.763880918351136
1.929999999999996e-10,0.5387488369499498,1.929999999999996e-10,1.765102437711505
1.939999999999996e-10,0.5393370982174376,1.939999999999996e-10,1.76630362170963
1.949999999999996e-10,0.5399151173917558,1.949999999999996e-10,1.767484422924824
1.959999999999996e-10,0.5404828998687039,1.959999999999996e-10,1.768644794741075
1.969999999999996e-10,0.5410404114039397,1.969999999999996e-10,1.769784691348892
1.979999999999996e-10,0.5415876280950713,1.979999999999996e-10,1.770904067747109
1.989999999999996e-10,0.5421245019227918,1.989999999999996e-10,1.772002879744662
1.999999999999996e-10,0.5426510613685166,1.999999999999996e-10,1.773081083962334
2.009999999999996e-10,0.5431672622512462,2.009999999999996e-10,1.77413863783447
2.019999999999996e-10,0.5436730827325638,2.019999999999996e-10,1.775175499610653
2.029999999999996e-10,0.5441684800456068,2.029999999999996e-10,1.776191628357356
2.039999999999996e-10,0.5446534769782623,2.039999999999996e-10,1.777186983959556
2.049999999999996e-10,0.5451280348271134,2.049999999999996e-10,1.778161527122318
2.059999999999996e-10,0.5455921337110567,2.059999999999996e-10,1.779115219372347
2.069999999999996e-10,0.546045736042796,2.069999999999996e-10,1.780048023059505
2.079999999999996e-10,0.5464888592701257,2.079999999999996e-10,1.7809599013583
2.089999999999996e-10,0.5469214698140636,2.089999999999996e-10,1.781850818269339
2.099999999999996e-10,0.5473435496956207,2.099999999999996e-10,1.782720738620747
2.109999999999996e-10,0.5477550663971803,2.109999999999996e-10,1.783569628069558
2.119999999999996e-10,0.5481560324741185,2.119999999999996e-10,1.78439745310307
2.129999999999995e-10,0.5485464191396987,2.129999999999995e-10,1.785204181040169
2.139999999999995e-10,0.5489262102815764,2.139999999999995e-10,1.785989780032617
2.149999999999995e-10,0.5492953903720563,2.149999999999995e-10,1.786754219066311
2.159999999999995e-10,0.5496539261535724,2.159999999999995e-10,1.787497467962506
2.169999999999995e-10,0.5500018399928008,2.169999999999995e-10,1.788219497379009
2.179999999999995e-10,0.5503391004721928,2.179999999999995e-10,1.788920278811335
2.189999999999995e-10,0.550665693821357,2.189999999999995e-10,1.789599784593833
2.199999999999995e-10,0.5509816067992864,2.199999999999995e-10,1.790257987900779
2.209999999999995e-10,0.5512868266691728,2.209999999999995e-10,1.790894862747431
2.219999999999995e-10,0.5515813324253245,2.219999999999995e-10,1.791510383991063
2.229999999999995e-10,0.5518651385546492,2.229999999999995e-10,1.792104527331949
2.239999999999995e-10,0.5521382163030969,2.239999999999995e-10,1.792677269314327
2.249999999999995e-10,0.5524005547200976,2.249999999999995e-10,1.793228587327325
2.259999999999995e-10,0.5526521433194029,2.259999999999995e-10,1.793758459605852
2.269999999999995e-10,0.5528929720699186,2.269999999999995e-10,1.794266865231458
2.279999999999995e-10,0.5531229649558288,2.279999999999995e-10,1.794753784133158
2.289999999999995e-10,0.5533422442238695,2.289999999999995e-10,1.795219197088228
2.299999999999995e-10,0.5535507363044889,2.299999999999995e-10,1.795663085722963
2.309999999999995e-10,0.5537484329696453,2.309999999999995e-10,1.796085432513397
2.319999999999995e-10,0.5539353264168007,2.319999999999995e-10,1.796486220786004
2.329999999999995e-10,0.5541114092693891,2.329999999999995e-10,1.796865434718349
2.339999999999995e-10,0.5542766745772335,2.339999999999995e-10,1.797223059339715
2.349999999999995e-10,0.5544311158169124,2.349999999999995e-10,1.797559080531694
2.359999999999995e-10,0.5545747268920894,2.359999999999995e-10,1.797873485028745
2.369999999999995e-10,0.5547074983734361,2.369999999999995e-10,1.798166260418716
2.379999999999995e-10,0.5548294370747184,2.379999999999995e-10,1.798437395143337
2.389999999999995e-10,0.5549405296182418,2.389999999999995e-10,1.798686878498674
2.399999999999995e-10,0.5550407716564457,2.399999999999995e-10,1.798914700635549
2.409999999999995e-10,0.5551301592610626,2.409999999999995e-10,1.799120852559936
2.419999999999995e-10,0.5552086889254253,2.419999999999995e-10,1.79930532613331
2.429999999999995e-10,0.5552763575662483,2.429999999999995e-10,1.799468114072968
2.439999999999995e-10,0.5553331625249999,2.439999999999995e-10,1.799609209952324
2.449999999999995e-10,0.5553791015689621,2.449999999999995e-10,1.799728608201152
2.459999999999995e-10,0.5554141728920476,2.459999999999995e-10,1.799826304105815
2.469999999999995e-10,0.5554383751154253,2.469999999999995e-10,1.799902293809445
2.479999999999995e-10,0.5554517072879981,2.479999999999995e-10,1.799956574312099
2.489999999999995e-10,0.5554541688867638,2.489999999999995e-10,1.799989143470875
2.499999999999994e-10,0.5554457598170807,2.499999999999994e-10,1.8
2.509999999999994e-10,0.5554264804128601,2.509999999999994e-10,1.799989143470875
2.519999999999994e-10,0.5553963314366958,2.519999999999994e-10,1.799956574312099
2.529999999999994e-10,0.5553553140799434,2.529999999999994e-10,1.799902293809445
2.539999999999994e-10,0.5553034299627566,2.539999999999994e-10,1.799826304105815
2.549999999999994e-10,0.5552406811340854,2.549999999999994e-10,1.799728608201153
2.559999999999994e-10,0.5551670700716453,2.559999999999994e-10,1.799609209952324
2.569999999999994e-10,0.5550825996818556,2.569999999999994e-10,1.799468114072969
