;Version, 1, 0
;/M35/D (M=1),;/M35/D (M=2),;/M35/D (M=4),;/M35/D (M=8),;/M35/D (M=32),;/M35/D (M=64),;/M35/D (M=16)
;X, Y,;X, Y,;X, Y,;X, Y,;X, Y,;X, Y,;X, Y
;Re, Re,;Re, Re,;Re, Re,;Re, Re,;Re, Re,;Re, Re,;Re, Re
;vin, I,;vin, I,;vin, I,;vin, I,;vin, I,;vin, I,;vin, I
;xunit, A,;xunit, A,;xunit, A,;xunit, A,;xunit, A,;xunit, A,;xunit, A
0,6.588117474045281e-12,0,1.137623494809056e-11,0,2.095246989618113e-11,0,4.010493979236226e-11,0,1.55019759169449e-10,0,3.08239518338898e-10,0,7.840987958472451e-11
0.001,6.72821190740851e-12,0.001,1.165642381481702e-11,0.001,2.151284762963404e-11,0.001,4.122569525926808e-11,0.001,1.595027810370723e-10,0.001,3.172055620741446e-10,0.001,8.065139051853616e-11
0.002,6.8724025972678e-12,0.002,1.19448051945356e-11,0.002,2.20896103890712e-11,0.002,4.23792207781424e-11,0.002,1.641168831125696e-10,0.002,3.264337662251392e-10,0.002,8.295844155628479e-11
0.003,7.020809194268996e-12,0.003,1.224161838853799e-11,0.003,2.268323677707599e-11,0.003,4.356647355415197e-11,0.003,1.688658942166079e-10,0.003,3.359317884332158e-10,0.003,8.533294710830394e-11
0.004,7.173554838688058e-12,0.004,1.254710967737612e-11,0.004,2.329421935475223e-11,0.004,4.478843870950447e-11,0.004,1.737537548380179e-10,0.004,3.457075096760357e-10,0.004,8.777687741900893e-11
0.005,7.330766261982679e-12,0.005,1.286153252396536e-11,0.005,2.392306504793071e-11,0.005,4.604613009586143e-11,0.005,1.787845203834457e-10,0.005,3.557690407668914e-10,0.005,9.029226019172285e-11
0.006,7.492573891258771e-12,0.006,1.318514778251754e-11,0.006,2.457029556503508e-11,0.006,4.734059113007017e-11,0.006,1.839623645202807e-10,0.006,3.661247290405613e-10,0.006,9.288118226014033e-11
0.007,7.659111956803676e-12,0.007,1.351822391360735e-11,0.007,2.52364478272147e-11,0.007,4.867289565442941e-11,0.007,1.892915826177176e-10,0.007,3.767831652354352e-10,0.007,9.554579130885881e-11
0.008,7.830518602701592e-12,0.008,1.386103720540318e-11,0.008,2.592207441080637e-11,0.008,5.004414882161274e-11,0.008,1.94776595286451e-10,0.008,3.877531905729019e-10,0.008,9.828829764322548e-11
0.009000000000000001,8.006936000679526e-12,0.009000000000000001,1.421387200135905e-11,0.009000000000000001,2.66277440027181e-11,0.009000000000000001,5.145548800543621e-11,0.009000000000000001,2.004219520217448e-10,0.009000000000000001,3.990439040434896e-10,0.009000000000000001,1.011109760108724e-10
0.01,8.188510467241078e-12,0.01,1.457702093448216e-11,0.01,2.735404186896431e-11,0.01,5.290808373792863e-11,0.01,2.062323349517145e-10,0.01,4.10664669903429e-10,0.01,1.040161674758573e-10
0.011,8.375392584191346e-12,0.011,1.495078516838269e-11,0.011,2.810157033676538e-11,0.011,5.440314067353077e-11,0.011,2.122125626941231e-10,0.011,4.226251253882461e-10,0.011,1.070062813470615e-10
0.012,8.567737322663246e-12,0.012,1.533547464532649e-11,0.012,2.887094929065299e-11,0.012,5.594189858130598e-11,0.012,2.183675943252239e-10,0.012,4.349351886504478e-10,0.012,1.100837971626119e-10
0.013,8.765704170725278e-12,0.013,1.573140834145056e-11,0.013,2.966281668290112e-11,0.013,5.752563336580223e-11,0.013,2.247025334632089e-10,0.013,4.476050669264178e-10,0.013,1.132512667316044e-10
0.01400000000000001,8.969457264696659e-12,0.01400000000000001,1.613891452939332e-11,0.01400000000000001,3.047782905878664e-11,0.01400000000000001,5.915565811757327e-11,0.01400000000000001,2.312226324702931e-10,0.01400000000000001,4.606452649405862e-10,0.01400000000000001,1.165113162351466e-10
0.01500000000000001,9.179165524255209e-12,0.01500000000000001,1.655833104851042e-11,0.01500000000000001,3.131666209702084e-11,0.01500000000000001,6.083332419404167e-11,0.01500000000000001,2.379332967761667e-10,0.01500000000000001,4.740665935523335e-10,0.01500000000000001,1.198666483880834e-10
0.01600000000000001,9.395002791452531e-12,0.01600000000000001,1.699000558290506e-11,0.01600000000000001,3.218001116581013e-11,0.01600000000000001,6.256002233162025e-11,0.01600000000000001,2.44840089326481e-10,0.01600000000000001,4.878801786529621e-10,0.01600000000000001,1.233200446632405e-10
0.01700000000000001,9.617147973770148e-12,0.01700000000000001,1.74342959475403e-11,0.01700000000000001,3.30685918950806e-11,0.01700000000000001,6.433718379016118e-11,0.01700000000000001,2.519487351606447e-10,0.01700000000000001,5.020974703212895e-10,0.01700000000000001,1.268743675803224e-10
0.01800000000000001,9.845785191302802e-12,0.01800000000000001,1.78915703826056e-11,0.01800000000000001,3.398314076521121e-11,0.01800000000000001,6.616628153042242e-11,0.01800000000000001,2.592651261216897e-10,0.01800000000000001,5.167302522433794e-10,0.01800000000000001,1.305325630608448e-10
0.01900000000000001,1.008110392819334e-11,0.01900000000000001,1.836220785638669e-11,0.01900000000000001,3.492441571277337e-11,0.01900000000000001,6.804883142554674e-11,0.01900000000000001,2.66795325702187e-10,0.01900000000000001,5.31790651404374e-10,0.01900000000000001,1.342976628510935e-10
0.02000000000000001,1.032329918846696e-11,0.02000000000000001,1.884659837693392e-11,0.02000000000000001,3.589319675386784e-11,0.02000000000000001,6.998639350773567e-11,0.02000000000000001,2.745455740309427e-10,0.02000000000000001,5.472911480618855e-10,0.02000000000000001,1.381727870154714e-10
0.02100000000000001,1.057257165635608e-11,0.02100000000000001,1.934514331271216e-11,0.02100000000000001,3.689028662542433e-11,0.02100000000000001,7.198057325084864e-11,0.02100000000000001,2.825222930033946e-10,0.02100000000000001,5.632445860067892e-10,0.02100000000000001,1.421611465016973e-10
0.02200000000000001,1.082912786127456e-11,0.02200000000000001,1.985825572254912e-11,0.02200000000000001,3.791651144509824e-11,0.02200000000000001,7.403302289019647e-11,0.02200000000000001,2.907320915607859e-10,0.02200000000000001,5.796641831215719e-10,0.02200000000000001,1.46266045780393e-10
0.02300000000000001,1.109318034756228e-11,0.02300000000000001,2.038636069512456e-11,0.02300000000000001,3.897272139024913e-11,0.02300000000000001,7.614544278049826e-11,0.02300000000000001,2.99181771121993e-10,0.02300000000000001,5.965635422439861e-10,0.02300000000000001,1.504908855609965e-10
0.02400000000000001,1.136494784910324e-11,0.02400000000000001,2.092989569820648e-11,0.02400000000000001,4.005979139641296e-11,0.02400000000000001,7.831958279282591e-11,0.02400000000000001,3.078783311713037e-10,0.02400000000000001,6.139566623426074e-10,0.02400000000000001,1.548391655856518e-10
0.02500000000000002,1.164465546904493e-11,0.02500000000000002,2.148931093808987e-11,0.02500000000000002,4.117862187617974e-11,0.02500000000000002,8.055724375235947e-11,0.02500000000000002,3.168289750094379e-10,0.02500000000000002,6.318579500188758e-10,0.02500000000000002,1.59314487504719e-10
0.02600000000000002,1.193253486467521e-11,0.02600000000000002,2.206506972935043e-11,0.02600000000000002,4.233013945870086e-11,0.02600000000000002,8.286027891740171e-11,0.02600000000000002,3.260411156696068e-10,0.02600000000000002,6.502822313392137e-10,0.02600000000000002,1.639205578348034e-10
0.02700000000000002,1.222882443763933e-11,0.02700000000000002,2.265764887527867e-11,0.02700000000000002,4.351529775055734e-11,0.02700000000000002,8.523059550111466e-11,0.02700000000000002,3.355223820044586e-10,0.02700000000000002,6.692447640089174e-10,0.02700000000000002,1.686611910022293e-10
0.02800000000000002,1.253376952966624e-11,0.02800000000000002,2.326753905933247e-11,0.02800000000000002,4.473507811866495e-11,0.02800000000000002,8.76701562373299e-11,0.02800000000000002,3.452806249493196e-10,0.02800000000000002,6.887612498986392e-10,0.02800000000000002,1.735403124746598e-10
0.02900000000000002,1.28476226239353e-11,0.02900000000000002,2.389524524787061e-11,0.02900000000000002,4.599049049574122e-11,0.02900000000000002,9.018098099148243e-11,0.02900000000000002,3.553239239659297e-10,0.02900000000000002,7.088478479318595e-10,0.02900000000000002,1.785619619829649e-10
0.03000000000000002,1.317064355226996e-11,0.03000000000000002,2.454128710453992e-11,0.03000000000000002,4.728257420907984e-11,0.03000000000000002,9.276514841815966e-11,0.03000000000000002,3.656605936726386e-10,0.03000000000000002,7.295211873452774e-10,0.03000000000000002,1.837302968363193e-10
0.03100000000000002,1.350309970829253e-11,0.03100000000000002,2.520619941658506e-11,0.03100000000000002,4.861239883317013e-11,0.03100000000000002,9.542479766634026e-11,0.03100000000000002,3.76299190665361e-10,0.03100000000000002,7.507983813307221e-10,0.03100000000000002,1.890495953326805e-10
0.03200000000000002,1.384526626675001e-11,0.03200000000000002,2.589053253350003e-11,0.03200000000000002,4.998106506700006e-11,0.03200000000000002,9.816213013400011e-11,0.03200000000000002,3.872485205360004e-10,0.03200000000000002,7.726970410720009e-10,0.03200000000000002,1.945242602680002e-10
0.03300000000000002,1.419742640916821e-11,0.03300000000000002,2.659485281833642e-11,0.03300000000000002,5.138970563667285e-11,0.03300000000000002,1.009794112733457e-10,0.03300000000000002,3.985176450933828e-10,0.03300000000000002,7.952352901867656e-10,0.03300000000000002,2.001588225466914e-10
0.03400000000000002,1.455987155597154e-11,0.03400000000000002,2.731974311194308e-11,0.03400000000000002,5.283948622388617e-11,0.03400000000000002,1.038789724477723e-10,0.03400000000000002,4.101158897910893e-10,0.03400000000000002,8.184317795821787e-10,0.03400000000000002,2.059579448955447e-10
0.03500000000000002,1.493290160538301e-11,0.03500000000000002,2.806580321076602e-11,0.03500000000000002,5.433160642153205e-11,0.03500000000000002,1.068632128430641e-10,0.03500000000000002,4.220528513722563e-10,0.03500000000000002,8.423057027445127e-10,0.03500000000000002,2.119264256861282e-10
0.03600000000000003,1.531682517911779e-11,0.03600000000000003,2.883365035823559e-11,0.03600000000000003,5.586730071647118e-11,0.03600000000000003,1.099346014329423e-10,0.03600000000000003,4.343384057317694e-10,0.03600000000000003,8.668768114635388e-10,0.03600000000000003,2.180692028658847e-10
0.03700000000000003,1.571195987521912e-11,0.03700000000000003,2.962391975043823e-11,0.03700000000000003,5.744783950087647e-11,0.03700000000000003,1.130956790017529e-10,0.03700000000000003,4.469827160070117e-10,0.03700000000000003,8.921654320140234e-10,0.03700000000000003,2.243913580035059e-10
0.03800000000000003,1.61186325281831e-11,0.03800000000000003,3.04372650563662e-11,0.03800000000000003,5.90745301127324e-11,0.03800000000000003,1.163490602254648e-10,0.03800000000000003,4.599962409018592e-10,0.03800000000000003,9.181924818037185e-10,0.03800000000000003,2.308981204509296e-10
0.03900000000000003,1.653717947651803e-11,0.03900000000000003,3.127435895303607e-11,0.03900000000000003,6.074871790607212e-11,0.03900000000000003,1.196974358121443e-10,0.03900000000000003,4.73389743248577e-10,0.03900000000000003,9.44979486497154e-10,0.03900000000000003,2.375948716242885e-10
0.04000000000000003,1.696794683809887e-11,0.04000000000000003,3.213589367619775e-11,0.04000000000000003,6.247178735239548e-11,0.04000000000000003,1.23143574704791e-10,0.04000000000000003,4.871742988191639e-10,0.04000000000000003,9.725485976383277e-10,0.04000000000000003,2.444871494095819e-10
0.04100000000000003,1.741129079337683e-11,0.04100000000000003,3.302258158675366e-11,0.04100000000000003,6.424516317350732e-11,0.04100000000000003,1.266903263470146e-10,0.04100000000000003,5.013613053880586e-10,0.04100000000000003,1.000922610776117e-09,0.04100000000000003,2.515806526940293e-10
0.04200000000000003,1.786757787677179e-11,0.04200000000000003,3.393515575354358e-11,0.04200000000000003,6.607031150708715e-11,0.04200000000000003,1.303406230141743e-10,0.04200000000000003,5.159624920566973e-10,0.04200000000000003,1.030124984113394e-09,0.04200000000000003,2.588812460283486e-10
0.04300000000000003,1.833718527646546e-11,0.04300000000000003,3.487437055293092e-11,0.04300000000000003,6.794874110586184e-11,0.04300000000000003,1.340974822117237e-10,0.04300000000000003,5.309899288468948e-10,0.04300000000000003,1.060179857693789e-09,0.04300000000000003,2.663949644234473e-10
0.04400000000000003,1.882050114281145e-11,0.04400000000000003,3.584100228562291e-11,0.04400000000000003,6.98820045712458e-11,0.04400000000000003,1.379640091424916e-10,0.04400000000000003,5.464560365699665e-10,0.04400000000000003,1.091112073139933e-09,0.04400000000000003,2.741280182849832e-10
0.04500000000000003,1.931792490559395e-11,0.04500000000000003,3.683584981118791e-11,0.04500000000000003,7.187169962237581e-11,0.04500000000000003,1.419433992447516e-10,0.04500000000000003,5.623735969790065e-10,0.04500000000000003,1.122947193958013e-09,0.04500000000000003,2.820867984895032e-10
0.04600000000000003,1.982986760045094e-11,0.04600000000000003,3.785973520090189e-11,0.04600000000000003,7.391947040180376e-11,0.04600000000000003,1.460389408036075e-10,0.04600000000000003,5.787557632144302e-10,0.04600000000000003,1.15571152642886e-09,0.04600000000000003,2.902778816072151e-10
0.04700000000000003,2.035675220464333e-11,0.04700000000000003,3.891350440928666e-11,0.04700000000000003,7.602700881857331e-11,0.04700000000000003,1.502540176371466e-10,0.04700000000000003,5.956160705485865e-10,0.04700000000000003,1.189432141097173e-09,0.04700000000000003,2.987080352742932e-10
0.04800000000000004,2.089901398253529e-11,0.04800000000000004,3.999802796507058e-11,0.04800000000000004,7.819605593014114e-11,0.04800000000000004,1.545921118602823e-10,0.04800000000000004,6.129684474411292e-10,0.04800000000000004,1.224136894882258e-09,0.04800000000000004,3.073842237205646e-10
0.04900000000000004,2.145710084091718e-11,0.04900000000000004,4.111420168183436e-11,0.04900000000000004,8.042840336366871e-11,0.04900000000000004,1.590568067273374e-10,0.04900000000000004,6.308272269093497e-10,0.04900000000000004,1.259854453818699e-09,0.04900000000000004,3.163136134546748e-10
0.05000000000000004,2.203147369462684e-11,0.05000000000000004,4.226294738925368e-11,0.05000000000000004,8.272589477850734e-11,0.05000000000000004,1.636517895570147e-10,0.05000000000000004,6.492071582280588e-10,0.05000000000000004,1.296614316456117e-09,0.05000000000000004,3.255035791140294e-10
0.05100000000000004,2.262260684259712e-11,0.05100000000000004,4.344521368519425e-11,0.05100000000000004,8.509042737038849e-11,0.05100000000000004,1.68380854740777e-10,0.05100000000000004,6.68123418963108e-10,0.05100000000000004,1.334446837926216e-09,0.05100000000000004,3.34961709481554e-10
0.05200000000000004,2.323098835475242e-11,0.05200000000000004,4.466197670950485e-11,0.05200000000000004,8.752395341900968e-11,0.05200000000000004,1.732479068380194e-10,0.05200000000000004,6.875916273520775e-10,0.05200000000000004,1.373383254704155e-09,0.05200000000000004,3.446958136760387e-10
0.05300000000000004,2.385712046999551e-11,0.05300000000000004,4.591424093999102e-11,0.05300000000000004,9.002848187998203e-11,0.05300000000000004,1.782569637599641e-10,0.05300000000000004,7.076278550398563e-10,0.05300000000000004,1.413455710079712e-09,0.05300000000000004,3.547139275199281e-10
0.05400000000000004,2.450152000559506e-11,0.05400000000000004,4.720304001119013e-11,0.05400000000000004,9.260608002238025e-11,0.05400000000000004,1.834121600447605e-10,0.05400000000000004,7.282486401790421e-10,0.05400000000000004,1.454697280358084e-09,0.05400000000000004,3.65024320089521e-10
0.05500000000000004,2.51647187783385e-11,0.05500000000000004,4.852943755667701e-11,0.05500000000000004,9.525887511335401e-11,0.05500000000000004,1.88717750226708e-10,0.05500000000000004,7.494710009068321e-10,0.05500000000000004,1.497142001813664e-09,0.05500000000000004,3.75635500453416e-10
0.05600000000000004,2.584726403778213e-11,0.05600000000000004,4.989452807556427e-11,0.05600000000000004,9.798905615112852e-11,0.05600000000000004,1.941781123022571e-10,0.05600000000000004,7.713124492090282e-10,0.05600000000000004,1.540824898418056e-09,0.05600000000000004,3.865562246045141e-10
0.05700000000000004,2.654971891185448e-11,0.05700000000000004,5.129943782370897e-11,0.05700000000000004,1.007988756474179e-10,0.05700000000000004,1.997977512948359e-10,0.05700000000000004,7.937910051793434e-10,0.05700000000000004,1.585782010358687e-09,0.05700000000000004,3.977955025896717e-10
0.05800000000000004,2.727266286532865e-11,0.05800000000000004,5.27453257306573e-11,0.05800000000000004,1.036906514613146e-10,0.05800000000000004,2.055813029226292e-10,0.05800000000000004,8.169252116905168e-10,0.05800000000000004,1.632050423381034e-09,0.05800000000000004,4.093626058452584e-10
0.05900000000000005,2.801669217133523e-11,0.05900000000000005,5.423338434267046e-11,0.05900000000000005,1.066667686853409e-10,0.05900000000000005,2.115335373706818e-10,0.05900000000000005,8.407341494827273e-10,0.05900000000000005,1.679668298965454e-09,0.05900000000000005,4.212670747413636e-10
0.06000000000000005,2.878242039643342e-11,0.06000000000000005,5.576484079286684e-11,0.06000000000000005,1.097296815857337e-10,0.06000000000000005,2.176593631714674e-10,0.06000000000000005,8.652374526858694e-10,0.06000000000000005,1.728674905371739e-09,0.06000000000000005,4.335187263429347e-10
0.06100000000000005,2.957047889957525e-11,0.06100000000000005,5.734095779915049e-11,0.06100000000000005,1.12881915598301e-10,0.06100000000000005,2.23963831196602e-10,0.06100000000000005,8.904553247864079e-10,0.06100000000000005,1.779110649572816e-09,0.06100000000000005,4.461276623932039e-10
0.06200000000000005,3.038151734533884e-11,0.06200000000000005,5.896303469067768e-11,0.06200000000000005,1.161260693813554e-10,0.06200000000000005,2.304521387627107e-10,0.06200000000000005,9.164085550508429e-10,0.06200000000000005,1.831017110101686e-09,0.06200000000000005,4.591042775254214e-10
0.06300000000000004,3.121620423180022e-11,0.06300000000000004,6.063240846360044e-11,0.06300000000000004,1.194648169272009e-10,0.06300000000000004,2.371296338544018e-10,0.06300000000000004,9.43118535417607e-10,0.06300000000000004,1.884437070835214e-09,0.06300000000000004,4.724592677088036e-10
0.06400000000000004,3.207522743362606e-11,0.06400000000000004,6.235045486725211e-11,0.06400000000000004,1.229009097345042e-10,0.06400000000000004,2.440018194690084e-10,0.06400000000000004,9.706072778760338e-10,0.06400000000000004,1.939414555752068e-09,0.06400000000000004,4.86203638938017e-10
0.06500000000000004,3.29592947605402e-11,0.06500000000000004,6.41185895210804e-11,0.06500000000000004,1.264371790421608e-10,0.06500000000000004,2.510743580843216e-10,0.06500000000000004,9.988974323372864e-10,0.06500000000000004,1.995994864674573e-09,0.06500000000000004,5.003487161686432e-10
0.06600000000000004,3.386913453188359e-11,0.06600000000000004,6.593826906376717e-11,0.06600000000000004,1.300765381275344e-10,0.06600000000000004,2.583530762550687e-10,0.06600000000000004,1.028012305020275e-09,0.06600000000000004,2.05422461004055e-09,0.06600000000000004,5.149061525101374e-10
0.06700000000000005,3.480549616752848e-11,0.06700000000000005,6.781099233505695e-11,0.06700000000000005,1.338219846701139e-10,0.06700000000000005,2.658439693402278e-10,0.06700000000000005,1.057975877360911e-09,0.06700000000000005,2.114151754721823e-09,0.06700000000000005,5.298879386804557e-10
0.06800000000000005,3.576915079566186e-11,0.06800000000000005,6.97383015913237e-11,0.06800000000000005,1.376766031826474e-10,0.06800000000000005,2.735532063652948e-10,0.06800000000000005,1.088812825461179e-09,0.06800000000000005,2.175825650922359e-09,0.06800000000000005,5.453064127305897e-10
0.06900000000000005,3.67608918779701e-11,0.06900000000000005,7.17217837559402e-11,0.06900000000000005,1.416435675118804e-10,0.06900000000000005,2.814871350237608e-10,0.06900000000000005,1.120548540095043e-09,0.06900000000000005,2.239297080190087e-09,0.06900000000000005,5.611742700475217e-10
0.07000000000000005,3.77815358526117e-11,0.07000000000000005,7.376307170522339e-11,0.07000000000000005,1.457261434104468e-10,0.07000000000000005,2.896522868208935e-10,0.07000000000000005,1.153209147283574e-09,0.07000000000000005,2.304618294567149e-09,0.07000000000000005,5.775045736417871e-10
