;Version, 1, 0
;ac_gain (VCTRL=0.02),;ac_gain (VCTRL=0.04),;ac_gain (VCTRL=0.06),;ac_gain (VCTRL=0.08),;ac_gain (VCTRL=0.1),;ac_gain (VCTRL=0.12),;ac_gain (VCTRL=0.14),;ac_gain (VCTRL=0.16),;ac_gain (VCTRL=0.18),;ac_gain (VCTRL=0.2),;ac_gain (VCTRL=0.22),;ac_gain (VCTRL=0.24),;ac_gain (VCTRL=0.26),;ac_gain (VCTRL=0.28),;ac_gain (VCTRL=0.3)
;X, Y,;X, Y,;X, Y,;X, Y,;X, Y,;X, Y,;X, Y,;X, Y,;X, Y,;X, Y,;X, Y,;X, Y,;X, Y,;X, Y,;X, Y
;Re, Re,;Re, Re,;Re, Re,;Re, Re,;Re, Re,;Re, Re,;Re, Re,;Re, Re,;Re, Re,;Re, Re,;Re, Re,;Re, Re,;Re, Re,;Re, Re,;Re, Re
;freq, V,;freq, V,;freq, V,;freq, V,;freq, V,;freq, V,;freq, V,;freq, V,;freq, V,;freq, V,;freq, V,;freq, V,;freq, V,;freq, V,;freq, V
;Hz, dB,;Hz, dB,;Hz, dB,;Hz, dB,;Hz, dB,;Hz, dB,;Hz, dB,;Hz, dB,;Hz, dB,;Hz, dB,;Hz, dB,;Hz, dB,;Hz, dB,;Hz, dB,;Hz, dB
1000000,2.67585797267963,1000000,9.089622333593935,1000000,13.12632474887756,1000000,16.05668864115793,1000000,18.13020918147154,1000000,19.4790491247885,1000000,20.28675201812018,1000000,20.74418892255592,1000000,20.99794644335633,1000000,21.14648301948762,1000000,21.24686923360844,1000000,21.3263731156554,1000000,21.39573230664557,1000000,21.4593067701576,1000000,21.51822604010056
1002305.2380779,2.675857963895131,1002305.2380779,9.089622324436446,1002305.2380779,13.12632473907703,1002305.2380779,16.05668863047927,1002305.2380779,18.13020916982869,1002305.2380779,19.47904911230359,1002305.2380779,20.28675200503096,1002305.2380779,20.74418890908727,1002305.2380779,20.9979464296615,1002305.2380779,21.14648300564868,1002305.2380779,21.24686921965897,1002305.2380779,21.32637310160847,1002305.2380779,21.39573229250347,1002305.2380779,21.45930675592012,1002305.2380779,21.51822602576271
1004615.790278395,2.67585795507008,1004615.790278395,9.089622315236683,1004615.790278395,13.12632472923127,1004615.790278395,16.05668861975132,1004615.790278395,18.13020915813209,1004615.790278395,19.47904909976103,1004615.790278395,20.28675199188132,1004615.790278395,20.74418889555645,1004615.790278395,20.99794641590345,1004615.790278395,21.14648299174585,1004615.790278395,21.2468692056451,1004615.790278395,21.32637308749672,1004615.790278395,21.39573227829609,1004615.790278395,21.45930674161692,1004615.790278395,21.51822601135866
1006931.668851804,2.675857946204308,1006931.668851804,9.089622305994455,1006931.668851804,13.12632471934006,1006931.668851804,16.05668860897386,1006931.668851804,18.13020914638151,1006931.668851804,19.47904908716059,1006931.668851804,20.28675197867099,1006931.668851804,20.74418888196317,1006931.668851804,20.9979464020819,1006931.668851804,21.14648297777884,1006931.668851804,21.24686919156655,1006931.668851804,21.32637307331982,1006931.668851804,21.39573226402313,1006931.668851804,21.45930672724771,1006931.668851804,21.51822599688814
1009252.886076684,2.675857937297605,1009252.886076684,9.089622296709575,1009252.886076684,13.12632470940319,1009252.886076684,16.05668859814665,1009252.886076684,18.1302091345767,1009252.886076684,19.47904907450199,1009252.886076684,20.28675196539968,1009252.886076684,20.74418886830714,1009252.886076684,20.99794638819655,1009252.886076684,21.14648296374737,1009252.886076684,21.24686917742302,1009252.886076684,21.32637305907749,1009252.886076684,21.39573224968429,1009252.886076684,21.45930671281217,1009252.886076684,21.51822598235082
1011579.454259898,2.675857928349795,1011579.454259898,9.089622287381829,1011579.454259898,13.12632469942046,1011579.454259898,16.05668858726946,1011579.454259898,18.13020912271739,1011579.454259898,19.47904906178495,1011579.454259898,20.28675195206711,1011579.454259898,20.74418885458809,1011579.454259898,20.99794637424711,1011579.454259898,21.14648294965114,1011579.454259898,21.24686916321421,1011579.454259898,21.32637304476942,1011579.454259898,21.39573223527928,1011579.454259898,21.45930669831,1011579.454259898,21.5182259677464
1013911.385736679,2.675857919360683,1013911.385736679,9.089622278011033,1013911.385736679,13.12632468939165,1013911.385736679,16.05668857634207,1013911.385736679,18.13020911080334,1013911.385736679,19.47904904900922,1013911.385736679,20.28675193867301,1013911.385736679,20.74418884080571,1013911.385736679,20.99794636023327,1013911.385736679,21.14648293548983,1013911.385736679,21.2468691489398,1013911.385736679,21.3263730303953,1013911.385736679,21.39573222080776,1013911.385736679,21.45930668374088,1013911.385736679,21.51822595307457
1016248.692870695,2.675857910330074,1016248.692870695,9.089622268596985,1016248.692870695,13.12632467931655,1016248.692870695,16.05668856536423,1016248.692870695,18.13020909883429,1016248.692870695,19.47904903617451,1016248.692870695,20.28675192521708,1016248.692870695,20.74418882695971,1016248.692870695,20.99794634615476,1016248.692870695,21.14648292126316,1016248.692870695,21.24686913459951,1016248.692870695,21.32637301595484,1016248.692870695,21.39573220626945,1016248.692870695,21.45930666910452,1016248.692870695,21.51822593833502
1018591.388054117,2.675857901257786,1018591.388054117,9.089622259139475,1018591.388054117,13.12632466919494,1018591.388054117,16.05668855433573,1018591.388054117,18.13020908681001,1018591.388054117,19.47904902328057,1018591.388054117,20.28675191169904,1018591.388054117,20.74418881304981,1018591.388054117,20.99794633201126,1018591.388054117,21.14648290697083,1018591.388054117,21.24686912019303,1018591.388054117,21.32637300144772,1018591.388054117,21.39573219166403,1018591.388054117,21.4593066544006,1018591.388054117,21.51822592352743
1020939.483707679,2.67585789214362,1020939.483707679,9.089622249638314,1020939.483707679,13.12632465902662,1020939.483707679,16.05668854325631,1020939.483707679,18.13020907473022,1020939.483707679,19.4790490103271,1020939.483707679,20.2867518981186,1020939.483707679,20.74418879907569,1020939.483707679,20.99794631780248,1020939.483707679,21.14648289261253,1020939.483707679,21.24686910572006,1020939.483707679,21.32637298687364,1020939.483707679,21.3957321769912,1020939.483707679,21.45930663962881,1020939.483707679,21.5182259086515
1023292.992280754,2.675857882987384,1023292.992280754,9.089622240093302,1023292.992280754,13.12632464881136,1023292.992280754,16.05668853212577,1023292.992280754,18.13020906259467,1023292.992280754,19.47904899731385,1023292.992280754,20.28675188447548,1023292.992280754,20.74418878503708,1023292.992280754,20.99794630352812,1023292.992280754,21.14648287818794,1023292.992280754,21.24686909118028,1023292.992280754,21.32637297223229,1023292.992280754,21.39573216225063,1023292.992280754,21.45930662478884,1023292.992280754,21.5182258937069
1025651.926251407,2.675857873788886,1025651.926251407,9.089622230504231,1025651.926251407,13.12632463854894,1025651.926251407,16.05668852094384,1025651.926251407,18.13020905040311,1025651.926251407,19.47904898424053,1025651.926251407,20.28675187076938,1025651.926251407,20.74418877093366,1025651.926251407,20.99794628918786,1025651.926251407,21.14648286369678,1025651.926251407,21.24686907657338,1025651.926251407,21.32637295752336,1025651.926251407,21.39573214744204,1025651.926251407,21.45930660988038,1025651.926251407,21.51822587869332
1028016.298126473,2.675857864547932,1028016.298126473,9.089622220870902,1028016.298126473,13.12632462823916,1028016.298126473,16.0566885097103,1028016.298126473,18.13020903815527,1028016.298126473,19.47904897110687,1028016.298126473,20.28675185700002,1028016.298126473,20.74418875676515,1028016.298126473,20.99794627478142,1028016.298126473,21.14648284913873,1028016.298126473,21.24686906189906,1028016.298126473,21.32637294274654,1028016.298126473,21.39573213256509,1028016.298126473,21.45930659490309,1028016.298126473,21.51822586361043
1030386.120441615,2.675857855264322,1030386.120441615,9.089622211193101,1030386.120441615,13.12632461788179,1030386.120441615,16.05668849842491,1030386.120441615,18.13020902585091,1030386.120441615,19.47904895791259,1030386.120441615,20.28675184316711,1030386.120441615,20.74418874253124,1030386.120441615,20.99794626030847,1030386.120441615,21.14648283451348,1030386.120441615,21.24686904715701,1030386.120441615,21.32637292790151,1030386.120441615,21.39573211761947,1030386.120441615,21.45930657985667,1030386.120441615,21.51822584845794
1032761.405761397,2.675857845937861,1032761.405761397,9.089622201470634,1032761.405761397,13.12632460747662,1032761.405761397,16.05668848708743,1032761.405761397,18.13020901348975,1032761.405761397,19.4790489446574,1032761.405761397,20.28675182927034,1032761.405761397,20.74418872823163,1032761.405761397,20.99794624576873,1032761.405761397,21.14648281982073,1032761.405761397,21.24686903234691,1032761.405761397,21.32637291298795,1032761.405761397,21.39573210260486,1032761.405761397,21.45930656474081,1032761.405761397,21.51822583323549
1035142.166679343,2.675857836568349,1035142.166679343,9.089622191703288,1035142.166679343,13.12632459702341,1035142.166679343,16.05668847569761,1035142.166679343,18.13020900107152,1035142.166679343,19.47904893134103,1035142.166679343,20.28675181530943,1035142.166679343,20.74418871386602,1035142.166679343,20.99794623116187,1035142.166679343,21.14648280506016,1035142.166679343,21.24686901746846,1035142.166679343,21.32637289800556,1035142.166679343,21.39573208752095,1035142.166679343,21.45930654955517,1035142.166679343,21.51822581794279
1037528.415818012,2.675857827155592,1037528.415818012,9.089622181890855,1037528.415818012,13.12632458652196,1037528.415818012,16.05668846425522,1037528.415818012,18.13020898859599,1037528.415818012,19.47904891796319,1037528.415818012,20.28675180128408,1037528.415818012,20.74418869943409,1037528.415818012,20.99794621648758,1037528.415818012,21.14648279023146,1037528.415818012,21.24686900252133,1037528.415818012,21.32637288295402,1037528.415818012,21.39573207236742,1037528.415818012,21.45930653429943,1037528.415818012,21.5182258025795
1039920.165829058,2.675857817699391,1039920.165829058,9.08962217203314,1039920.165829058,13.12632457597203,1039920.165829058,16.05668845276002,1039920.165829058,18.13020897606286,1039920.165829058,19.47904890452361,1039920.165829058,20.286751787194,1039920.165829058,20.74418868493555,1039920.165829058,20.99794620174557,1039920.165829058,21.14648277533431,1039920.165829058,21.2468689875052,1039920.165829058,21.326372867833,1039920.165829058,21.39573205714394,1039920.165829058,21.45930651897329,1039920.165829058,21.51822578714529
1042317.429393303,2.675857808199537,1042317.429393303,9.089622162129915,1042317.429393303,13.12632456537341,1042317.429393303,16.05668844121176,1042317.429393303,18.13020896347188,1042317.429393303,19.47904889102199,1042317.429393303,20.28675177303887,1042317.429393303,20.7441886703701,1042317.429393303,20.99794618693551,1042317.429393303,21.14648276036839,1042317.429393303,21.24686897241976,1042317.429393303,21.32637285264218,1042317.429393303,21.39573204185019,1042317.429393303,21.45930650357639,1042317.429393303,21.51822577163985
1044720.219220799,2.675857798655835,1044720.219220799,9.089622152180981,1044720.219220799,13.12632455472586,1044720.219220799,16.0566884296102,1044720.219220799,18.13020895082279,1044720.219220799,19.47904887745806,1044720.219220799,20.28675175881841,1044720.219220799,20.74418865573741,1044720.219220799,20.99794617205709,1044720.219220799,21.1464827453334,1044720.219220799,21.2468689572647,1044720.219220799,21.32637283738125,1044720.219220799,21.39573202648585,1044720.219220799,21.45930648810843,1044720.219220799,21.51822575606284
1047128.548050899,2.675857789068085,1047128.548050899,9.089622142186125,1047128.548050899,13.12632454402917,1047128.548050899,16.05668841795508,1047128.548050899,18.13020893811532,1047128.548050899,19.4790488638315,1047128.548050899,20.28675174453231,1047128.548050899,20.74418864103717,1047128.548050899,20.99794615711,1047128.548050899,21.14648273022901,1047128.548050899,21.24686894203967,1047128.548050899,21.32637282204987,1047128.548050899,21.39573201105059,1047128.548050899,21.45930647256907,1047128.548050899,21.51822574041392
1049542.428652321,2.675857779436075,1049542.428652321,9.089622132145132,1049542.428652321,13.12632453328311,1049542.428652321,16.05668840624616,1049542.428652321,18.13020892534918,1049542.428652321,19.47904885014206,1049542.428652321,20.28675173018026,1049542.428652321,20.74418862626909,1049542.428652321,20.99794614209391,1049542.428652321,21.14648271505491,1049542.428652321,21.24686892674438,1049542.428652321,21.32637280664773,1049542.428652321,21.39573199554408,1049542.428652321,21.45930645695799,1049542.428652321,21.51822572469277
1051961.873823222,2.675857769759598,1051961.873823222,9.089622122057795,1051961.873823222,13.12632452248745,1051961.873823222,16.0566883944832,1051961.873823222,18.13020891252413,1051961.873823222,19.47904883638942,1051961.873823222,20.28675171576197,1051961.873823222,20.74418861143283,1051961.873823222,20.99794612700851,1051961.873823222,21.14648269981075,1051961.873823222,21.24686891137848,1051961.873823222,21.32637279117449,1051961.873823222,21.395731979966,1051961.873823222,21.45930644127485,1051961.873823222,21.51822570889905
1054386.896391258,2.675857760038464,1054386.896391258,9.089622111923896,1054386.896391258,13.12632451164195,1054386.896391258,16.05668838266595,1054386.896391258,18.13020889963987,1054386.896391258,19.47904882257332,1054386.896391258,20.28675170127713,1054386.896391258,20.7441885965281,1054386.896391258,20.99794611185348,1054386.896391258,21.14648268449625,1054386.896391258,21.24686889594166,1054386.896391258,21.32637277562984,1054386.896391258,21.39573196431602,1054386.896391258,21.45930642551932,1054386.896391258,21.51822569303244
1056817.509213657,2.675857750272468,1056817.509213657,9.089622101743222,1056817.509213657,13.12632450074639,1056817.509213657,16.05668837079415,1056817.509213657,18.13020888669615,1056817.509213657,19.47904880869343,1056817.509213657,20.28675168672543,1056817.509213657,20.74418858155457,1056817.509213657,20.9979460966285,1056817.509213657,21.14648266911104,1056817.509213657,21.24686888043358,1056817.509213657,21.32637276001343,1056817.509213657,21.3957319485938,1056817.509213657,21.45930640969106,1056817.509213657,21.51822567709259
1059253.725177287,2.675857740461389,1059253.725177287,9.089622091515556,1059253.725177287,13.12632448980054,1059253.725177287,16.05668835886755,1059253.725177287,18.13020887369267,1059253.725177287,19.47904879474948,1059253.725177287,20.28675167210656,1059253.725177287,20.74418856651193,1059253.725177287,20.99794608133324,1059253.725177287,21.14648265365483,1059253.725177287,21.24686886485393,1059253.725177287,21.32637274432495,1059253.725177287,21.395731932799,1059253.725177287,21.45930639378974,1059253.725177287,21.51822566107916
1061695.557198723,2.675857730605017,1061695.557198723,9.089622081240684,1061695.557198723,13.12632447880417,1061695.557198723,16.0566883468859,1061695.557198723,18.13020886062918,1061695.557198723,19.47904878074117,1061695.557198723,20.28675165742022,1061695.557198723,20.74418855139985,1061695.557198723,20.99794606596738,1061695.557198723,21.14648263812727,1061695.557198723,21.24686884920236,1061695.557198723,21.32637272856404,1061695.557198723,21.3957319169313,1061695.557198723,21.45930637781503,1061695.557198723,21.51822564499182
1064143.018224314,2.675857720703156,1064143.018224314,9.089622070918383,1064143.018224314,13.12632446775704,1064143.018224314,16.05668833484894,1064143.018224314,18.13020884750539,1064143.018224314,19.4790487666682,1064143.018224314,20.28675164266609,1064143.018224314,20.74418853621801,1064143.018224314,20.9979460505306,1064143.018224314,21.14648262252804,1064143.018224314,21.24686883347854,1064143.018224314,21.32637271273039,1064143.018224314,21.39573190099036,1064143.018224314,21.45930636176658,1064143.018224314,21.51822562883022
1066596.121230256,2.675857710755585,1066596.121230256,9.089622060548434,1066596.121230256,13.12632445665892,1066596.121230256,16.05668832275643,1066596.121230256,18.13020883432101,1066596.121230256,19.47904875253027,1066596.121230256,20.28675162784385,1066596.121230256,20.74418852096611,1066596.121230256,20.99794603502256,1066596.121230256,21.14648260685681,1066596.121230256,21.24686881768216,1066596.121230256,21.32637269682366,1066596.121230256,21.39573188497584,1066596.121230256,21.45930634564406,1066596.121230256,21.51822561259403
1069054.879222656,2.675857700762106,1069054.879222656,9.089622050130622,1069054.879222656,13.12632444550957,1069054.879222656,16.0566883106081,1069054.879222656,18.13020882107579,1069054.879222656,19.47904873832708,1069054.879222656,20.2867516129532,1069054.879222656,20.7441885056438,1069054.879222656,20.99794601944294,1069054.879222656,21.14648259111324,1069054.879222656,21.24686880181285,1069054.879222656,21.3263726808435,1069054.879222656,21.3957318688874,1069054.879222656,21.45930632944711,1069054.879222656,21.51822559628289
1071519.305237605,2.675857690722498,1071519.305237605,9.089622039664722,1071519.305237605,13.12632443430877,1071519.305237605,16.0566882984037,1071519.305237605,18.13020880776943,1071519.305237605,19.47904872405833,1071519.305237605,20.28675159799381,1071519.305237605,20.74418849025077,1071519.305237605,20.99794600379141,1071519.305237605,21.146482575297,1071519.305237605,21.2468687858703,1071519.305237605,21.32637266478958,1071519.305237605,21.3957318527247,1071519.305237605,21.45930631317541,1071519.305237605,21.51822557989646
1073989.412341243,2.675857680636546,1073989.412341243,9.089622029150513,1073989.412341243,13.12632442305625,1073989.412341243,16.05668828614295,1073989.412341243,18.13020879440165,1073989.412341243,19.47904870972372,1073989.412341243,20.28675158296538,1073989.412341243,20.74418847478668,1073989.412341243,20.99794598806763,1073989.412341243,21.14648255940776,1073989.412341243,21.24686876985416,1073989.412341243,21.32637264866155,1073989.412341243,21.3957318364874,1073989.412341243,21.4593062968286,1073989.412341243,21.5182255634344
1076465.213629833,2.675857670504038,1076465.213629833,9.089622018587777,1076465.213629833,13.12632441175181,1076465.213629833,16.05668827382562,1076465.213629833,18.13020878097216,1076465.213629833,19.47904869532295,1076465.213629833,20.28675156786758,1076465.213629833,20.74418845925121,1076465.213629833,20.99794597227128,1076465.213629833,21.14648254344517,1076465.213629833,21.24686875376409,1076465.213629833,21.32637263245909,1076465.213629833,21.39573182017515,1076465.213629833,21.45930628040633,1076465.213629833,21.51822554689636
1078946.722229827,2.67585766032476,1078946.722229827,9.089622007976281,1078946.722229827,13.12632440039517,1078946.722229827,16.05668826145143,1078946.722229827,18.13020876748069,1078946.722229827,19.4790486808557,1078946.722229827,20.28675155270009,1078946.722229827,20.74418844364405,1078946.722229827,20.99794595640202,1078946.722229827,21.14648252740891,1078946.722229827,21.24686873759975,1078946.722229827,21.32637261618184,1078946.722229827,21.3957318037876,1078946.722229827,21.45930626390827,1078946.722229827,21.51822553028197
1081433.951297936,2.675857650098502,1081433.951297936,9.089621997315806,1081433.951297936,13.12632438898612,1081433.951297936,16.05668824902013,1081433.951297936,18.13020875392695,1081433.951297936,19.47904866632168,1081433.951297936,20.28675153746259,1081433.951297936,20.74418842796483,1081433.951297936,20.9979459404595,1081433.951297936,21.14648251129863,1081433.951297936,21.24686872136081,1081433.951297936,21.32637259982945,1081433.951297936,21.39573178732441,1081433.951297936,21.45930624733405,1081433.951297936,21.5182255135909
1083926.914021201,2.675857639825036,1083926.914021201,9.089621986606124,1083926.914021201,13.12632437752442,1083926.914021201,16.05668823653145,1083926.914021201,18.13020874031065,1083926.914021201,19.47904865172057,1083926.914021201,20.28675152215476,1083926.914021201,20.74418841221325,1083926.914021201,20.99794592444341,1083926.914021201,21.14648249511399,1083926.914021201,21.2468687050469,1083926.914021201,21.32637258340159,1083926.914021201,21.39573177078523,1083926.914021201,21.45930623068333,1083926.914021201,21.51822549682278
