;Version, 1, 0
;ac_phase (VCTRL=0.02),;ac_phase (VCTRL=0.04),;ac_phase (VCTRL=0.06),;ac_phase (VCTRL=0.08),;ac_phase (VCTRL=0.1),;ac_phase (VCTRL=0.12),;ac_phase (VCTRL=0.14),;ac_phase (VCTRL=0.16),;ac_phase (VCTRL=0.18),;ac_phase (VCTRL=0.2),;ac_phase (VCTRL=0.22),;ac_phase (VCTRL=0.24),;ac_phase (VCTRL=0.26),;ac_phase (VCTRL=0.28),;ac_phase (VCTRL=0.3)
;X, Y,;X, Y,;X, Y,;X, Y,;X, Y,;X, Y,;X, Y,;X, Y,;X, Y,;X, Y,;X, Y,;X, Y,;X, Y,;X, Y,;X, Y
;Re, Re,;Re, Re,;Re, Re,;Re, Re,;Re, Re,;Re, Re,;Re, Re,;Re, Re,;Re, Re,;Re, Re,;Re, Re,;Re, Re,;Re, Re,;Re, Re,;Re, Re
;freq, V,;freq, V,;freq, V,;freq, V,;freq, V,;freq, V,;freq, V,;freq, V,;freq, V,;freq, V,;freq, V,;freq, V,;freq, V,;freq, V,;freq, V
;Hz, deg,;Hz, deg,;Hz, deg,;Hz, deg,;Hz, deg,;Hz, deg,;Hz, deg,;Hz, deg,;Hz, deg,;Hz, deg,;Hz, deg,;Hz, deg,;Hz, deg,;Hz, deg,;Hz, deg
1000000,-0.06666210964220895,1000000,-0.06872059368822568,1000000,-0.07181604301698893,1000000,-0.07521705519086995,1000000,-0.07812773431639636,1000000,-0.08011639226509258,1000000,-0.08128909961755222,1000000,-0.08193489924019223,1000000,-0.08231616622661457,1000000,-0.0825914090092318,1000000,-0.08283291182346637,1000000,-0.08306860433314897,1000000,-0.0833078400741166,1000000,-0.08355444273576589,1000000,-0.08381091364594265
1002305.2380779,-0.06681578163670121,1002305.2380779,-0.06887901097339048,1002305.2380779,-0.07198159604112608,1002305.2380779,-0.07539044834680075,1002305.2380779,-0.07830783727005589,1002305.2380779,-0.08030107954080269,1002305.2380779,-0.08147649025790421,1002305.2380779,-0.08212377859954795,1002305.2380779,-0.08250592449538093,1002305.2380779,-0.08278180177682823,1002305.2380779,-0.08302386131137297,1002305.2380779,-0.0832600971472489,1002305.2380779,-0.08349988438237549,1002305.2380779,-0.08374705552064422,1002305.2380779,-0.08400411765604394
1004615.790278395,-0.06696980788145632,1004615.790278395,-0.06903779344780724,1004615.790278395,-0.07214753070403218,1004615.790278395,-0.07556424121479477,1004615.790278395,-0.07848835540338626,1004615.790278395,-0.0804861925640821,1004615.790278395,-0.0816643128776899,1004615.790278395,-0.08231309337016923,1004615.790278395,-0.08269612020149598,1004615.790278395,-0.08297263344443516,1004615.790278395,-0.0832152509826548,1004615.790278395,-0.08345203139721226,1004615.790278395,-0.08369237139781496,1004615.790278395,-0.0839401123231686,1004615.790278395,-0.08419776704669726
1006931.668851804,-0.06712418919310352,1006931.668851804,-0.06919694195332204,1006931.668851804,-0.07231384788547296,1006931.668851804,-0.07573843471628042,1006931.668851804,-0.07866928967347184,1006931.668851804,-0.0806717323163763,1006931.668851804,-0.08185256847272054,1006931.668851804,-0.08250284455577828,1006931.668851804,-0.08288675435335256,1006931.668851804,-0.08316390502381707,1006931.668851804,-0.08340708185203469,1006931.668851804,-0.08364440810064921,1006931.668851804,-0.08388530214097582,1006931.668851804,-0.08413361416690067,1006931.668851804,-0.08439186284460605
1009252.886076684,-0.06727892639015473,1009252.886076684,-0.06935645733372159,1009252.886076684,-0.07248054846724207,1009252.886076684,-0.07591302977481024,1009252.886076684,-0.07885064103960335,1009252.886076684,-0.08085769978139336,1009252.886076684,-0.08204125804110296,1009252.886076684,-0.08269303316241121,1009252.886076684,-0.08307782796166811,1009252.886076684,-0.08335561752907092,1009252.886076684,-0.08359935493657486,1009252.886076684,-0.08383722827751572,1009252.886076684,-0.08407867763475145,1009252.886076684,-0.08432756207776167,1009252.886076684,-0.08458640607884046
1011579.454259898,-0.06743402029300857,1011579.454259898,-0.06951634043473763,1011579.454259898,-0.07264763333316603,1011579.454259898,-0.07608802731606568,1011579.454259898,-0.07903241046328283,1011579.454259898,-0.08104409594510882,1011579.454259898,-0.08223038258324478,1011579.454259898,-0.08288366019842326,1011579.454259898,-0.08326934203948981,1011579.454259898,-0.08354777197663114,1011579.454259898,-0.0837920712556819,1011579.454259898,-0.084030492950119,1011579.454259898,-0.0842724989043931,1011579.454259898,-0.08452195708403767,1011579.454259898,-0.08478139778084302
1013911.385736679,-0.06758947172395496,1013911.385736679,-0.06967659210405162,1013911.385736679,-0.07281510336910869,1013911.385736679,-0.07626342826786205,1013911.385736679,-0.07921459890822885,1013911.385736679,-0.08123092179577135,1013911.385736679,-0.08241994310185975,1013911.385736679,-0.08307472667449403,1013911.385736679,-0.0834612976022002,1013911.385736679,-0.08374036938527549,1013911.385736679,-0.08398523183111231,1013911.385736679,-0.08422420314312275,1013911.385736679,-0.08446676697751564,1013911.385736679,-0.08471680021638538,1013911.385736679,-0.08497683898443369
1016248.692870695,-0.0677452815071793,1016248.692870695,-0.06983721319129906,1016248.692870695,-0.07298295946297606,1016248.692870695,-0.07643923356015364,1016248.692870695,-0.07939720734038144,1016248.692870695,-0.08141817832390742,1016248.692870695,-0.08260994060197317,1016248.692870695,-0.08326623360363308,1016248.692870695,-0.08365369566752259,1016248.692870695,-0.08393341077613006,1016248.692870695,-0.08417883768697808,1016248.692870695,-0.08441835988355298,1016248.692870695,-0.08466148288410251,1016248.692870695,-0.08491209250783709,1016248.692870695,-0.0851727307258158
1018591.388054117,-0.06790145046876707,1018591.388054117,-0.069998204548074,1018591.388054117,-0.07315120250472092,1018591.388054117,-0.07661544412503836,1018591.388054117,-0.07958023672790744,1018591.388054117,-0.08160586652232713,1018591.388054117,-0.08280037609092707,1018591.388054117,-0.08345818200118509,1018591.388054117,-0.08384653725552625,1018591.388054117,-0.08412689717267491,1018591.388054117,-0.08437288984975193,1018591.388054117,-0.084612964200803,1018591.388054117,-0.08485664765651181,1018591.388054117,-0.08510783499380667,1018591.388054117,-0.08536907404358129
1020939.483707679,-0.06805797943670787,1020939.483707679,-0.07015956702793366,1020939.483707679,-0.07331983338634761,1020939.483707679,-0.0767920608967628,1020939.483707679,-0.07976368804120554,1020939.483707679,-0.08179398738612915,1020939.483707679,-0.08299125057838555,1020939.483707679,-0.08365057288483531,1020939.483707679,-0.08403982338863196,1020939.483707679,-0.08432082960074948,1020939.483707679,-0.08456738934827275,1020939.483707679,-0.08480801712663913,1020939.483707679,-0.08505226232948124,1020939.483707679,-0.08530402871209471,1020939.483707679,-0.08556586997871625
1023292.992280754,-0.06821486924090012,1023292.992280754,-0.07032130148640285,1023292.992280754,-0.07348885300191671,1023292.992280754,-0.07696908481172721,1023292.992280754,-0.07994756225291123,1023292.992280754,-0.08198254191270601,1023292.992280754,-0.08318256507634041,1023292.992280754,-0.08384340727461498,1023292.992280754,-0.08423355509161733,1023292.992280754,-0.08451520908855782,1023292.992280754,-0.0847623372137512,1023292.992280754,-0.08500351969520611,1023292.992280754,-0.08524832794013378,1023292.992280754,-0.0855006747028942,1023292.992280754,-0.08576311957460646
1025651.926251407,-0.06837212071315528,1025651.926251407,-0.07048340878097863,1025651.926251407,-0.07365826224754986,1025651.926251407,-0.07714651680849048,1025651.926251407,-0.08013186033790232,1025651.926251407,-0.08217153110174941,1025651.926251407,-0.08337432059911604,1025651.926251407,-0.08403668619290677,1025651.926251407,-0.08442773339162234,1025651.926251407,-0.08471003666667447,1025651.926251407,-0.08495773447977507,1025651.926251407,-0.08519947294303271,1025651.926251407,-0.0854448455279832,1025651.926251407,-0.085697774008796,1025651.926251407,-0.0859608238770429
1028016.298126473,-0.06852973468720233,1028016.298126473,-0.07064588977113474,1028016.298126473,-0.07382806202143444,1028016.298126473,-0.077324357827775,1028016.298126473,-0.08031658327330381,1028016.298126473,-0.08236095595525572,1028016.298126473,-0.08356651816337526,1028016.298126473,-0.08423041066445013,1028016.298126473,-0.0846223593181548,1028016.298126473,-0.08490531336804928,1028016.298126473,-0.08515358218231474,1028016.298126473,-0.08539587790903697,1028016.298126473,-0.08564181613493968,1028016.298126473,-0.08589532767479431,1028016.298126473,-0.08615898393422736
1030386.120441615,-0.06868771199869227,1030386.120441615,-0.07080874531832616,1030386.120441615,-0.07399825322382826,1030386.120441615,-0.07750260881247188,1030386.120441615,-0.08050173203849322,1030386.120441615,-0.0825508174775309,1030386.120441615,-0.08375915878812439,1030386.120441615,-0.08442458171634669,1030386.120441615,-0.08481743390309562,1030386.120441615,-0.08510104022801371,1030386.120441615,-0.0853498813597288,1030386.120441615,-0.08559273563453192,1030386.120441615,-0.08583924080531506,1030386.120441615,-0.08609333674829225,1030386.120441615,-0.08635760079677796
1032761.405761397,-0.06884605348520231,1032761.405761397,-0.07097197628599375,1032761.405761397,-0.07416883675706452,1032761.405761397,-0.07768127070764563,1032761.405761397,-0.0806873076151057,1032761.405761397,-0.08274111667519624,1032761.405761397,-0.08395224349471883,1032761.405761397,-0.08461920037806581,1032761.405761397,-0.08501295818070453,1032761.405761397,-0.08529721828428552,1032761.405761397,-0.0855466330527694,1032761.405761397,-0.08579004716323102,1032761.405761397,-0.08603712058582863,1032761.405761397,-0.08629180227910752,1032761.405761397,-0.08655667551773458
1035142.166679343,-0.0690047599862406,1035142.166679343,-0.07113558353956875,1035142.166679343,-0.07433981352555646,1035142.166679343,-0.07786034446053935,1035142.166679343,-0.0808733109870394,1035142.166679343,-0.08293185455719339,1035142.166679343,-0.08414577330686837,1035142.166679343,-0.08481426768144999,1035142.166679343,-0.08520893318762535,1035142.166679343,-0.08549384857697472,1035142.166679343,-0.08574383830458786,1035142.166679343,-0.0859878135412537,1035142.166679343,-0.08623545652561251,1035142.166679343,-0.08649072531947767,1035142.166679343,-0.0867562091525647
1037528.415818012,-0.06916383234325041,1037528.415818012,-0.0712995679464775,1037528.415818012,-0.07451118443580217,1037528.415818012,-0.07803983102057985,1037528.415818012,-0.08105974314046037,1037528.415818012,-0.08312303213478976,1037528.415818012,-0.08433974925064271,1037528.415818012,-0.08500978466072036,1037528.415818012,-0.08540535996289161,1037528.415818012,-0.08569093214858908,1037528.415818012,-0.08594149816074016,1037528.415818012,-0.0861860358171309,1037528.415818012,-0.08643424967621742,1037528.415818012,-0.08669010692406606,1037528.415818012,-0.08695620275916885
1039920.165829058,-0.06932327139961483,1039920.165829058,-0.07146393037614586,1039920.165829058,-0.07468295039638946,1039920.165829058,-0.07821973133938244,1039920.165829058,-0.08124660506380818,1039920.165829058,-0.08331465042158415,1039920.165829058,-0.08453417235447683,1039920.165829058,-0.08520575235248207,1039920.165829058,-0.085602239547932,1039920.165829058,-0.08588847004403945,1039920.165829058,-0.08613961366919251,1039920.165829058,-0.08638471504181065,1039920.165829058,-0.08663350109161792,1039920.165829058,-0.08688994814996724,1039920.165829058,-0.08715665739788624
1042317.429393303,-0.06948307800066116,1042317.429393303,-0.07162867170000393,1042317.429393303,-0.07485511231800057,1042317.429393303,-0.07840004637075627,1042317.429393303,-0.08143389774780076,1042317.429393303,-0.08350671043351171,1042317.429393303,-0.08472904364917651,1042317.429393303,-0.08540217179572998,1042317.429393303,-0.08579957298657609,1042317.429393303,-0.08608646331064546,1042317.429393303,-0.08633818588032698,1042317.429393303,-0.08658385226866364,1042317.429393303,-0.08683321182821842,1042317.429393303,-0.08709025005671249,1042317.429393303,-0.08735757413150036
1044720.219220799,-0.06964325299366518,1044720.219220799,-0.07179379279149067,1044720.219220799,-0.07502767111341715,1044720.219220799,-0.07858077707070903,1044720.219220799,-0.08162162218544006,1044720.219220799,-0.08369921318884965,1044720.219220799,-0.08492436416792362,1044720.219220799,-0.08559904403185387,1044720.219220799,-0.08599736132505939,1044720.219220799,-0.0862849129981411,1044720.219220799,-0.08653721584694685,1044720.219220799,-0.08678344855348884,1044720.219220799,-0.0870333829448583,1044720.219220799,-0.08729101370627554,1044720.219220799,-0.08755895402524452
1047128.548050899,-0.06980379722785603,1047128.548050899,-0.07195929452605844,1047128.548050899,-0.07520062769752486,1047128.548050899,-0.07876192439745239,1047128.548050899,-0.0818097793720169,1047128.548050899,-0.08389215970822247,1047128.548050899,-0.0851201349462819,1047128.548050899,-0.08579637010464433,1047128.548050899,-0.08619560561202942,1047128.548050899,-0.08648382015868009,1047128.548050899,-0.08673670462428236,1047128.548050899,-0.08698350495451886,1047128.548050899,-0.08723401550281805,1047128.548050899,-0.08749224016307826,1047128.548050899,-0.08776079814680782
1049542.428652321,-0.06996471155442034,1049542.428652321,-0.07212517778117786,1049542.428652321,-0.07537398298731855,1049542.428652321,-0.07894348931140675,1049542.428652321,-0.0819983703051166,1049542.428652321,-0.08408555101460743,1049542.428652321,-0.08531635702220215,1049542.428652321,-0.08599415106029792,1049542.428652321,-0.08639430689855099,1049542.428652321,-0.08668318584684155,1049542.428652321,-0.08693665326999635,1049542.428652321,-0.08718402253242601,1049542.428652321,-0.08743511056582441,1049542.428652321,-0.08769393049399614,1049542.428652321,-0.0879631075663405
1051961.873823222,-0.07012599682650718,1051961.873823222,-0.07229144343634217,1051961.873823222,-0.07554773790190684,1051961.873823222,-0.07912547277520662,1051961.873823222,-0.08218739598462413,1051961.873823222,-0.08427938813334003,1051961.873823222,-0.08551303143602788,1051961.873823222,-0.08619238794742316,1051961.873823222,-0.08659346623811182,1051961.873823222,-0.08688301111963587,1051961.873823222,-0.08713706284418968,1051961.873823222,-0.08738500235032752,1051961.873823222,-0.08763666920005642,1051961.873823222,-0.08789608576836414,1051961.873823222,-0.0881658833564597
1054386.896391258,-0.07028765389923197,1054386.896391258,-0.07245809237307205,1054386.896391258,-0.07572189336251708,1054386.896391258,-0.07930787575370547,1054386.896391258,-0.08237685741272932,1054386.896391258,-0.08447367209211923,1054386.896391258,-0.08571015923050092,1054386.896391258,-0.08639108181704545,1054386.896391258,-0.08679308468662815,1054386.896391258,-0.08708329703650973,1054386.896391258,-0.08733793440940707,1054386.896391258,-0.08758644547379128,1054386.896391258,-0.08783869247415066,1054386.896391258,-0.08809870705798206,1054386.896391258,-0.08836912659225514
1056817.509213657,-0.07044968362968164,1056817.509213657,-0.07262512547492034,1056817.509213657,-0.07589645029250031,1056817.509213657,-0.07949069921398105,1056817.509213657,-0.0825667555939323,1056817.509213657,-0.08466840392101325,1056817.509213657,-0.0859077414507667,1056817.509213657,-0.08659023372261343,1056817.509213657,-0.0869931633024503,1056817.509213657,-0.08728404465935236,1056817.509213657,-0.08753926903064257,1056817.509213657,-0.08778835297084167,1056817.509213657,-0.08804118145920735,1056817.509213657,-0.08830179543712079,1056817.509213657,-0.08857283835129491
1059253.725177287,-0.07061208687691867,1059253.725177287,-0.07279254362747663,1059253.725177287,-0.07607140961733598,1059253.725177287,-0.07967394412534035,1059253.725177287,-0.08275709153504873,1059253.725177287,-0.0848635846524646,1059253.725177287,-0.08610577914437992,1059253.725177287,-0.08678984472000374,1059253.725177287,-0.0871937031463683,1059253.725177287,-0.08748525505250056,1059253.725177287,-0.08774106777534524,1059253.725177287,-0.087990725911965,1059253.725177287,-0.08824413722879566,1059253.725177287,-0.08850535198252715,1059253.725177287,-0.08877701971363094
1061695.557198723,-0.07077486450198615,1061695.557198723,-0.07296034771837197,1061695.557198723,-0.07624677226463721,1061695.557198723,-0.07985761145932489,1061695.557198723,-0.08294786624521536,1061695.557198723,-0.08505921532129603,1061695.557198723,-0.08630427336131026,1061695.557198723,-0.08698991586752738,1061695.557198723,-0.08739470528161754,1061695.557198723,-0.08768692928274499,1061695.557198723,-0.08794333171342485,1061695.557198723,-0.08819356537011529,1061695.557198723,-0.08844756085895961,1061695.557198723,-0.08870937777343042,1061695.557198723,-0.08898167176180527
1064143.018224314,-0.07093801736791176,1064143.018224314,-0.07312853863728358,1064143.018224314,-0.07642253916415512,1064143.018224314,-0.08004170218971576,1064143.018224314,-0.08313908073589496,1064143.018224314,-0.08525529696471557,1064143.018224314,-0.08650322515394759,1064143.018224314,-0.0871904482259348,1064143.018224314,-0.08759617077388443,1064143.018224314,-0.08788906841933511,1064143.018224314,-0.08814606191725753,1064143.018224314,-0.08839687242071986,1064143.018224314,-0.08865145342822371,1064143.018224314,-0.0889138738915477,1064143.018224314,-0.08918679558085499
1066596.121230256,-0.07110154633971286,1066596.121230256,-0.0732971172759397,1066596.121230256,-0.07659871124778447,1066596.121230256,-0.0802262172925389,1066596.121230256,-0.08333073602088217,1066596.121230256,-0.08545183062232237,1066596.121230256,-0.08670263557710794,1066596.121230256,-0.08739144285842181,1066596.121230256,-0.08779810069131191,1066596.121230256,-0.08809167353398553,1066596.121230256,-0.08834925946169143,1066596.121230256,-0.08860064814168531,1066596.121230256,-0.08885581601759877,1066596.121230256,-0.08911884142108949,1066596.121230256,-0.08939239225831873
1069054.879222656,-0.07126545228440073,1069054.879222656,-0.07346608452812407,1069054.879222656,-0.07677528944956798,1069054.879222656,-0.08041115774607005,1069054.879222656,-0.08352283311630845,1069054.879222656,-0.08564881733611192,1069054.879222656,-0.08690250568803883,1069054.879222656,-0.08759290083063491,1069054.879222656,-0.08800049610450528,1069054.879222656,-0.08829474570088117,1069054.879222656,-0.08855292542405248,1069054.879222656,-0.08880489361340274,1069054.879222656,-0.08906064971058743,1069054.879222656,-0.08932428144876574,1069054.879222656,-0.08959846288424196
1071519.305237605,-0.07142973607098539,1071519.305237605,-0.07363544128968079,1071519.305237605,-0.07695227470570155,1071519.305237605,-0.08059652453084019,1071519.305237605,-0.08371537304064777,1071519.305237605,-0.08584625815048182,1071519.305237605,-0.08710283654642488,1071519.305237605,-0.08779482321067736,1071519.305237605,-0.08820335808653773,1071519.305237605,-0.08849828599668333,1071519.305237605,-0.08875706088415003,1071519.305237605,-0.08900960991875409,1071519.305237605,-0.08926595559319003,1071519.305237605,-0.08953019506379147,1071519.305237605,-0.08980500855118292
1073989.412341243,-0.07159439857048014,1073989.412341243,-0.07380518845851922,1073989.412341243,-0.07712966795453947,1073989.412341243,-0.08078231862964061,1073989.412341243,-0.08390835681472192,1073989.412341243,-0.08604415411223734,1073989.412341243,-0.08730362921439362,1073989.412341243,-0.08799721106911443,1073989.412341243,-0.08840668771295619,1073989.412341243,-0.08870229550053507,1073989.412341243,-0.0889616669242827,1073989.412341243,-0.08921479814311728,1073989.412341243,-0.08947173475391047,1073989.412341243,-0.08973658335789253,1073989.412341243,-0.09001203035421848
1076465.213629833,-0.07175944065590609,1076465.213629833,-0.07397532693461842,1076465.213629833,-0.07730747013659875,1076465.213629833,-0.08096854102752814,1076465.213629833,-0.08410178546170578,1076465.213629833,-0.08624250627059662,1076465.213629833,-0.08750488475652105,1076465.213629833,-0.08820006547897941,1076465.213629833,-0.08861048606178688,1076465.213629833,-0.08890677529406717,1076465.213629833,-0.08916674462924387,1076465.213629833,-0.0894204593743724,1076465.213629833,-0.08967798828376186,1076465.213629833,-0.08994344742531148,1076465.213629833,-0.0902195293909499
