;Version, 1, 0
;(VS("/out+") - VS("/out-")) (VCTRL=0.02),;(VS("/out+") - VS("/out-")) (VCTRL=0.04),;(VS("/out+") - VS("/out-")) (VCTRL=0.06),;(VS("/out+") - VS("/out-")) (VCTRL=0.08),;(VS("/out+") - VS("/out-")) (VCTRL=0.1),;(VS("/out+") - VS("/out-")) (VCTRL=0.12),;(VS("/out+") - VS("/out-")) (VCTRL=0.14),;(VS("/out+") - VS("/out-")) (VCTRL=0.16),;(VS("/out+") - VS("/out-")) (VCTRL=0.18),;(VS("/out+") - VS("/out-")) (VCTRL=0.2),;(VS("/out+") - VS("/out-")) (VCTRL=0.22),;(VS("/out+") - VS("/out-")) (VCTRL=0.24),;(VS("/out+") - VS("/out-")) (VCTRL=0.26),;(VS("/out+") - VS("/out-")) (VCTRL=0.28),;(VS("/out+") - VS("/out-")) (VCTRL=0.3)
;X, Y,;X, Y,;X, Y,;X, Y,;X, Y,;X, Y,;X, Y,;X, Y,;X, Y,;X, Y,;X, Y,;X, Y,;X, Y,;X, Y,;X, Y
;Re, Re,;Re, Re,;Re, Re,;Re, Re,;Re, Re,;Re, Re,;Re, Re,;Re, Re,;Re, Re,;Re, Re,;Re, Re,;Re, Re,;Re, Re,;Re, Re,;Re, Re
;vin, V,;vin, V,;vin, V,;vin, V,;vin, V,;vin, V,;vin, V,;vin, V,;vin, V,;vin, V,;vin, V,;vin, V,;vin, V,;vin, V,;vin, V
;xunit, V,;xunit, V,;xunit, V,;xunit, V,;xunit, V,;xunit, V,;xunit, V,;xunit, V,;xunit, V,;xunit, V,;xunit, V,;xunit, V,;xunit, V,;xunit, V,;xunit, V
-0.4,-0.0767918774271461,-0.4,-0.1535601173997523,-0.4,-0.2301841779862708,-0.4,-0.3064716785623176,-0.4,-0.3822357489201939,-0.4,-0.4572810707284415,-0.4,-0.5313850286442295,-0.4,-0.604283970184963,-0.4,-0.67565508742096,-0.4,-0.7451174266220573,-0.4,-0.8122108644874857,-0.4,-0.8763982436781765,-0.4,-0.9370695224761085,-0.4,-0.9935633167032741,-0.4,-1.045211022817969
-0.399,-0.07678521685627993,-0.399,-0.1535570483841537,-0.399,-0.2301804201197311,-0.399,-0.3064674326858408,-0.399,-0.3822309077770054,-0.399,-0.4572753893120228,-0.399,-0.5313781093820117,-0.399,-0.604274076769639,-0.399,-0.6756440004384126,-0.399,-0.7451031022303386,-0.399,-0.8121922938068724,-0.399,-0.8763742122920344,-0.399,-0.9370386726701697,-0.399,-0.9935241257913558,-0.399,-1.045161966227392
-0.398,-0.07678335282171123,-0.398,-0.1535539307314966,-0.398,-0.2301766071933917,-0.398,-0.3064631151267305,-0.398,-0.3822259933502238,-0.398,-0.4572696136202211,-0.398,-0.53137107814509,-0.398,-0.6042652677646375,-0.398,-0.6756327443366164,-0.398,-0.7450885646799957,-0.398,-0.812173452991253,-0.398,-0.8763498502727396,-0.398,-0.9370073886146649,-0.398,-0.9934843895857093,-0.398,-1.04511223272682
-0.397,-0.07678145843062723,-0.397,-0.1535507613066269,-0.397,-0.2301727298784113,-0.397,-0.3064587241635963,-0.397,-0.3822209958427866,-0.397,-0.4572637419568311,-0.397,-0.5313639330206887,-0.397,-0.604256320210952,-0.397,-0.675621316360036,-0.397,-0.7450738110651786,-0.397,-0.8121543385632406,-0.397,-0.8763251410975846,-0.397,-0.9369756653786345,-0.397,-0.9934441019157954,-0.397,-1.045061815006605
-0.396,-0.07677953313548302,-0.396,-0.153547539156778,-0.396,-0.2301687869749895,-0.396,-0.3064542584350285,-0.396,-0.3822159137511827,-0.396,-0.4572577726591429,-0.396,-0.5313566721488675,-0.396,-0.6042472319964444,-0.396,-0.6756097140732538,-0.396,-0.7450588385355028,-0.396,-0.8121349471431346,-0.396,-0.876300080718164,-0.396,-0.9369434980808699,-0.396,-0.9934032568846087,-0.396,-1.045010705966955
-0.395,-0.07677757637889804,-0.395,-0.1535442633117543,-0.395,-0.2301647772612334,-0.395,-0.3064497165548501,-0.395,-0.3822107455453796,-0.395,-0.4572517040365264,-0.395,-0.5313492936405,-0.395,-0.6042380009785649,-0.395,-0.6755979350092486,-0.395,-0.7450436442077349,-0.395,-0.8121152753170434,-0.395,-0.8762746650503055,-0.395,-0.9369108818024554,-0.395,-0.9933618485549581,-0.395,-1.044958898464711
-0.394,-0.07677558759346614,-0.394,-0.1535409327835984,-0.394,-0.2301606994927421,-0.394,-0.3064450971116566,-0.394,-0.3822054896683442,-0.394,-0.4572455343699435,-0.394,-0.5313417955767834,-0.394,-0.6042286249838699,-0.394,-0.6755859766689226,-0.394,-0.745028225165342,-0.394,-0.8120953196364322,-0.394,-0.8762488899736472,-0.394,-0.9368778115863665,-0.394,-0.9933198709490786,-0.394,-1.044906385312987
-0.393,-0.07677356620156206,-0.393,-0.1535375465662563,-0.393,-0.2301565524021787,-0.393,-0.3064403986683528,-0.393,-0.382200144535557,-0.393,-0.4572392619114557,-0.393,-0.5313341760087508,-0.393,-0.6042191018075227,-0.393,-0.6755738365206113,-0.393,-0.7450125784580072,-0.393,-0.8120750766176732,-0.393,-0.8762227513312016,-0.393,-0.9368442824370565,-0.393,-0.9932773180482434,-0.393,-1.044853159280786
-0.392,-0.07677151161515727,-0.392,-0.1535341036352327,-0.392,-0.2301523346988366,-0.392,-0.3064356197616696,-0.392,-0.3821947085345146,-0.392,-0.4572328848837143,-0.392,-0.5313264329567506,-0.392,-0.6042094292127919,-0.392,-0.6755615119995849,-0.392,-0.7449967011011475,-0.392,-0.8120545427415685,-0.392,-0.8761962449289025,-0.392,-0.9368102893200279,-0.392,-0.9932341837923474,-0.392,-1.044799213092594
-0.391,-0.07676942323561686,-0.391,-0.1535306029472383,-0.391,-0.2301480450681976,-0.391,-0.3064307589016753,-0.391,-0.3821891800242194,-0.391,-0.4572264014794459,-0.391,-0.531318564409938,-0.391,-0.6041996049305328,-0.391,-0.6755490005075421,-0.391,-0.7449805900754152,-0.391,-0.8120337144528691,-0.391,-0.8761693665351392,-0.391,-0.9367758271613796,-0.391,-0.9931904620794753,-0.391,-1.04474453942795
-0.39,-0.07676730045350078,-0.39,-0.1535270434398306,-0.39,-0.2301436821714706,-0.39,-0.3064258145712779,-0.39,-0.3821835573346608,-0.39,-0.4572198098609226,-0.39,-0.5313105683257363,-0.39,-0.6041896266586547,-0.39,-0.6755362994120805,-0.39,-0.7449642423261803,-0.39,-0.8120125881597747,-0.39,-0.8761421118802781,-0.39,-0.9367408908473489,-0.39,-0.9931461467654507,-0.39,-1.044689130921004
-0.389,-0.07676514264835621,-0.389,-0.1535234240310477,-0.389,-0.2301392446451342,-0.389,-0.3064207852257104,-0.389,-0.3821778387662786,-0.389,-0.457213108159423,-0.389,-0.5313024426292966,-0.389,-0.6041794920615832,-0.389,-0.6755234060461649,-0.389,-0.7449476547630084,-0.389,-0.8119911602334229,-0.389,-0.8761144766561626,-0.389,-0.9367054752238264,-0.389,-0.9931012316633662,-0.389,-1.044632980160038
-0.388,-0.07676294918851001,-0.388,-0.1535197436190279,-0.388,-0.230134731100454,-0.388,-0.3064156692920077,-0.388,-0.3821720225894244,-0.388,-0.457206294474674,-0.388,-0.5312941852129413,-0.388,-0.6041691987697007,-0.388,-0.675510317707576,-0.388,-0.7449308242591202,-0.388,-0.8119694270073612,-0.388,-0.8760864565156009,-0.388,-0.9366695750958611,-0.388,-0.9930557105430947,-0.388,-1.04457607968698
-0.387,-0.07676071943084972,-0.387,-0.153516001081627,-0.387,-0.2301301401229972,-0.387,-0.3064104651684696,-0.387,-0.3821661070438032,-0.387,-0.4571993668742891,-0.387,-0.5312857939355915,-0.387,-0.6041587443787917,-0.387,-0.6754970316583498,-0.387,-0.7449137476508361,-0.387,-0.8119473847770041,-0.387,-0.8760580470718413,-0.387,-0.936633185227142,-0.387,-0.993009577130779,-0.387,-1.044518421996885
-0.386,-0.07675845272060799,-0.386,-0.1535121952760246,-0.386,-0.230125470272138,-0.386,-0.3064051712241171,-0.386,-0.3821600903378986,-0.386,-0.4571923233931878,-0.386,-0.5312772666221921,-0.386,-0.6041481264605736,-0.386,-0.6754835451241968,-0.386,-0.7448964217370102,-0.386,-0.8119250297990785,-0.386,-0.8760292438980243,-0.386,-0.9365963003394655,-0.386,-0.9929628251083047,-0.386,-1.044459999537398
-0.385,-0.07675614839113098,-0.385,-0.1535083250383176,-0.385,-0.2301207200805422,-0.385,-0.306399785798126,-0.385,-0.382153970648395,-0.385,-0.4571851620330039,-0.385,-0.5312686010631105,-0.385,-0.6041373425459805,-0.385,-0.6754698552939182,-0.385,-0.7448788432784456,-0.385,-0.8119023582910487,-0.385,-0.876000042526625,-0.385,-0.9365589151121853,-0.385,-0.9929154481127491,-0.385,-1.044400804708194
-0.384,-0.0767538057636532,-0.384,-0.1535043891831143,-0.384,-0.2301158880536482,-0.384,-0.3063943071992559,-0.384,-0.3821477461195802,-0.384,-0.4571778807614778,-0.384,-0.5312597950135253,-0.384,-0.6041263901239449,-0.384,-0.6754559593187935,-0.384,-0.7448610089972971,-0.384,-0.8118793664305314,-0.384,-0.8759704384488703,-0.384,-0.9365210241816432,-0.384,-0.9928674397358157,-0.384,-1.044340829860392
-0.383,-0.07675142414706038,-0.383,-0.1535003865031028,-0.383,-0.2301109726691344,-0.383,-0.306388733705262,-0.383,-0.3821414148627338,-0.383,-0.4571704775118373,-0.383,-0.5312508461928079,-0.383,-0.6041152666463793,-0.383,-0.6754418543119639,-0.383,-0.744842915576457,-0.383,-0.8118560503546863,-0.383,-0.8759404271141507,-0.383,-0.9364826221405775,-0.383,-0.9928187935232407,-0.383,-1.044280067295951
-0.382,-0.07674900283764607,-0.382,-0.1534963157686264,-0.382,-0.2301059723763652,-0.382,-0.3063830635622926,-0.382,-0.3821349749555024,-0.382,-0.4571629501821598,-0.382,-0.5312417522838793,-0.382,-0.6041039695275381,-0.382,-0.6754275373477974,-0.382,-0.7448245596589261,-0.382,-0.8118324061595994,-0.382,-0.8759100039294002,-0.382,-0.9364437035375195,-0.382,-0.9927695029741864,-0.382,-1.044218509267039
-0.381,-0.07674654111886614,-0.381,-0.1534921757272374,-0.381,-0.2301008855958417,-0.381,-0.3063772949842754,-0.381,-0.3821284244412583,-0.381,-0.4571552966347278,-0.381,-0.5312325109325553,-0.381,-0.6040924961433668,-0.381,-0.6754130054612346,-0.381,-0.7448059378471682,-0.381,-0.8118084298996433,-0.381,-0.8758791642584732,-0.381,-0.9364042628761671,-0.381,-0.9927195615406081,-0.381,-1.044156147975379
-0.38,-0.07674403826108733,-0.38,-0.1534879651032466,-0.38,-0.2300957107186192,-0.38,-0.3063714261522845,-0.38,-0.3821217613284462,-0.38,-0.457147514695357,-0.38,-0.5312231197468812,-0.38,-0.6040808438308232,-0.38,-0.6753982556471237,-0.38,-0.7447870467024504,-0.38,-0.8117841175868225,-0.38,-0.8758479034214917,-0.38,-0.9363642946147371,-0.38,-0.9926689626266019,-0.38,-1.044092975571574
-0.379,-0.07674149352132398,-0.379,-0.1534836825972565,-0.379,-0.2300904461057238,-0.379,-0.306365455213895,-0.379,-0.3821149835899124,-0.379,-0.4571396021527161,-0.379,-0.5312135762964408,-0.379,-0.6040690098871951,-0.379,-0.6753832848595338,-0.379,-0.7447678827441573,-0.379,-0.8117594651900986,-0.379,-0.8758162166941786,-0.379,-0.936323793165302,-0.379,-0.9926176995877316,-0.379,-1.044028984154404
-0.378,-0.07673890614297862,-0.378,-0.1534793268856882,-0.378,-0.2300850900875504,-0.378,-0.3063593802825217,-0.378,-0.3821080891622146,-0.378,-0.4571315567576308,-0.378,-0.5312038781116548,-0.378,-0.6040569915693934,-0.378,-0.675368090011058,-0.378,-0.7447484424491004,-0.378,-0.8117344686347047,-0.378,-0.8757840993071756,-0.378,-0.9362827528931044,-0.378,-0.9925657657303368,-0.378,-1.043964165770104
-0.377,-0.07673627535556671,-0.377,-0.1534748966202963,-0.377,-0.2300796409632477,-0.377,-0.306353199436743,-0.377,-0.382101075944922,-0.377,-0.4571233762223683,-0.377,-0.5311940226830615,-0.377,-0.6040447860932332,-0.377,-0.6753526679720886,-0.377,-0.7447287222508021,-0.377,-0.8117091238014282,-0.377,-0.8757515464453338,-0.377,-0.9362411681158531,-0.377,-0.9925131543108106,-0.377,-1.043898512411613
-0.376,-0.07673360037444121,-0.376,-0.1534703904276682,-0.376,-0.230074097000087,-0.376,-0.3063469107196035,-0.376,-0.382093941799891,-0.376,-0.4571150582199008,-0.376,-0.5311840074605809,-0.376,-0.6040323906326911,-0.376,-0.6753370155700875,-0.376,-0.7447087185387614,-0.376,-0.8116834265258929,-0.376,-0.8757185532469937,-0.376,-0.9361990331029948,-0.376,-0.9924598585348643,-0.376,-1.043832016017805
-0.375,-0.07673088040050624,-0.375,-0.1534658069087176,-0.375,-0.2300684564328128,-0.375,-0.3063405121379066,-0.375,-0.382086684550529,-0.375,-0.4571066003831591,-0.375,-0.5311738298527577,-0.375,-0.6040198023191461,-0.375,-0.6753211295888217,-0.375,-0.7446884276577046,-0.375,-0.8116573725978019,-0.375,-0.875685114803237,-0.375,-0.9361563420749711,-0.375,-0.9924058715567676,-0.375,-1.043764668472689
-0.374,-0.07672811461992879,-0.374,-0.1534611446381573,-0.374,-0.230062717462987,-0.374,-0.3063340016614813,-0.374,-0.3820793019810343,-0.374,-0.4570980003042638,-0.374,-0.5311634872259855,-0.374,-0.6040070182406079,-0.374,-0.6753050067676002,-0.374,-0.7446678459068105,-0.374,-0.8116309577601782,-0.374,-0.8756512261571273,-0.374,-0.9361130892024478,-0.374,-0.9923511864785634,-0.374,-1.043696461604593
-0.373,-0.07672530220383722,-0.373,-0.1534564021639695,-0.373,-0.2300568782583046,-0.373,-0.3063273772224409,-0.373,-0.3820717918356231,-0.373,-0.4570892555337317,-0.373,-0.5311529769037159,-0.373,-0.6039940354409178,-0.373,-0.6752886438004706,-0.373,-0.7446469695389231,-0.373,-0.8116041777085752,-0.373,-0.8756168823029207,-0.373,-0.9360692686055291,-0.373,-0.992295796349264,-0.373,-1.043627387185315
-0.372,-0.07672244230801861,-0.372,-0.1534515780068531,-0.372,-0.2300509369518986,-0.372,-0.3063206367144116,-0.372,-0.3820641518177335,-0.372,-0.4570803635796766,-0.372,-0.5311422961656456,-0.372,-0.6039808509189308,-0.372,-0.675272037335411,-0.372,-0.7446257947597413,-0.372,-0.8115770280902658,-0.372,-0.8755820781852628,-0.372,-0.9360248743529441,-0.372,-0.9922396941640205,-0.372,-1.043557436929254
-0.371,-0.07671953407260412,-0.371,-0.1534466706596651,-0.371,-0.2300448916416304,-0.371,-0.306313777991752,-0.371,-0.3820563795892113,-0.371,-0.4570713219069734,-0.371,-0.5311314422468812,-0.371,-0.6039674616276816,-0.371,-0.675255183973495,-0.371,-0.7446043177269872,-0.371,-0.8115495045034227,-0.371,-0.8755468086983603,-0.371,-0.9359799004612173,-0.371,-0.9921828728632747,-0.371,-1.043486602492518
-0.37,-0.07671657662174947,-0.37,-0.1534416785868433,-0.37,-0.2300387403893578,-0.37,-0.3063067988687469,-0.37,-0.3820484727694721,-0.37,-0.4570621279364152,-0.37,-0.5311204123370863,-0.37,-0.6039538644735294,-0.37,-0.6752380802680327,-0.37,-0.7445825345495489,-0.37,-0.8115216024962598,-0.37,-0.8755110686851325,-0.37,-0.9359343408938112,-0.37,-0.9921253253318819,-0.37,-1.043414875472004
-0.369,-0.07671356906330806,-0.369,-0.1534366002238179,-0.369,-0.230032481220185,-0.369,-0.3062996971187839,-0.369,-0.3820404289346471,-0.369,-0.4570527790438401,-0.369,-0.5311092035796047,-0.369,-0.6039400563152725,-0.369,-0.6752207227236988,-0.369,-0.7445604412866114,-0.369,-0.8114933175661653,-0.369,-0.8754748529363398,-0.369,-0.9358881895602509,-0.369,-0.9920670443982132,-0.369,-1.043342247404452
-0.368,-0.07671051048849065,-0.368,-0.1534314339764038,-0.368,-0.2300261121216958,-0.368,-0.3062924704735066,-0.368,-0.3820322456167032,-0.368,-0.4570432725592404,-0.368,-0.5310978130705635,-0.368,-0.6039260339632508,-0.368,-0.675203107795628,-0.368,-0.7445380339467584,-0.368,-0.8114646451588066,-0.368,-0.8754381561896901,-0.368,-0.9358414403152221,-0.368,-0.9920080228332366,-0.368,-1.043268709765482
-0.367,-0.07670739997152398,-0.367,-0.1534261782201858,-0.367,-0.2300196310431675,-0.367,-0.3062851166219478,-0.367,-0.3820239203025446,-0.367,-0.4570336057658465,-0.367,-0.5310862378579508,-0.367,-0.6039117941784212,-0.367,-0.6751852318884964,-0.367,-0.7445153084870498,-0.367,-0.8114355806672143,-0.367,-0.8754009731289222,-0.367,-0.9357940869576474,-0.367,-0.9919482533495654,-0.367,-1.043194253968595
-0.366,-0.07670423656929848,-0.366,-0.1534208312998804,-0.366,-0.2300130358947612,-0.366,-0.3062776332096409,-0.366,-0.3820154504330877,-0.366,-0.4570237758991916,-0.366,-0.5310744749406733,-0.366,-0.6038973336714102,-0.366,-0.6751670913555696,-0.366,-0.7444922608120832,-0.366,-0.8114061194308374,-0.366,-0.8753632983828645,-0.366,-0.9357461232297396,-0.366,-0.9918877286004955,-0.366,-1.043118871364158
-0.365,-0.07670101932100426,-0.365,-0.1534153915286853,-0.365,-0.2300063245466966,-0.365,-0.3062700178377069,-0.365,-0.3820068334023106,-0.365,-0.4570137801461469,-0.365,-0.5310625212675877,-0.365,-0.6038826491015371,-0.365,-0.6751486824977395,-0.365,-0.7444688867730208,-0.365,-0.8113762567345832,-0.365,-0.875325126524471,-0.365,-0.9356975428160298,-0.365,-0.9918264411790053,-0.365,-1.043042553238356
-0.364,-0.07669774724776035,-0.364,-0.1534098571876135,-0.364,-0.229999494828401,-0.364,-0.3062622680619189,-0.364,-0.3819980665562878,-0.364,-0.457003615643936,-0.364,-0.5310503737365052,-0.364,-0.6038677370758233,-0.364,-0.6751300015625258,-0.364,-0.7444451821666027,-0.364,-0.811345987807826,-0.364,-0.875286452069832,-0.364,-0.9356483393423696,-0.364,-0.9917643836167376,-0.364,-1.042965290812124
-0.363,-0.07669441935223653,-0.363,-0.1534042265248066,-0.363,-0.2299925445276412,-0.363,-0.3062543813917438,-0.363,-0.3819891471921888,-0.363,-0.4569932794791202,-0.363,-0.5310380291931742,-0.363,-0.6038525941479641,-0.363,-0.6751110447430552,-0.363,-0.7444211427341255,-0.363,-0.8113153078233921,-0.363,-0.8752472694771601,-0.363,-0.9355985063749105,-0.363,-0.9917015483829593,-0.363,-1.042887075240055
-0.362,-0.07669103461826055,-0.362,-0.1533984977548355,-0.362,-0.2299854713896272,-0.362,-0.3062463552893557,-0.362,-0.3819800725572529,-0.362,-0.4569827686865626,-0.362,-0.5310254844302342,-0.362,-0.6038372168172806,-0.362,-0.6750918081770177,-0.362,-0.7443967641603995,-0.362,-0.8112842118965206,-0.362,-0.8752075731457504,-0.362,-0.9355480374190569,-0.362,-0.991637927883486,-0.362,-1.042807897609271
-0.361,-0.0766875920104233,-0.361,-0.1533926690579794,-0.361,-0.2299782731160982,-0.361,-0.3062381871686237,-0.361,-0.3819708398477436,-0.361,-0.4569720802483606,-0.361,-0.5310127361861451,-0.361,-0.6038216015276441,-0.361,-0.6750722879455902,-0.361,-0.7443720420726776,-0.361,-0.8112526950837923,-0.361,-0.8751673574149127,-0.361,-0.9354969259183951,-0.361,-0.9915735144595891,-0.361,-1.042727748938283
-0.36,-0.07668409047366431,-0.36,-0.1533867385794891,-0.36,-0.229970947364381,-0.36,-0.3062298743940794,-0.36,-0.3819614462078712,-0.36,-0.4569612110927513,-0.36,-0.5309997811440836,-0.36,-0.6038057446663699,-0.36,-0.6750524800722842,-0.36,-0.744346972039559,-0.36,-0.8112207523820427,-0.36,-0.8751266165628805,-0.36,-0.9354451652535903,-0.36,-0.9915083003868731,-0.36,-1.042646620175811
-0.359,-0.07668052893285604,-0.359,-0.1533807044288293,-0.359,-0.2299634917464293,-0.359,-0.3062214142798521,-0.359,-0.3819518887286824,-0.359,-0.4569501580929907,-0.359,-0.5309866159308136,-0.359,-0.6037896425630846,-0.359,-0.6750323804783384,-0.359,-0.7443215495698621,-0.359,-0.8111883787272305,-0.359,-0.8750853448056897,-0.359,-0.9353927487412644,-0.359,-0.9914422778741294,-0.359,-1.042564502199592
-0.358,-0.07667690629237245,-0.358,-0.1533745646789022,-0.358,-0.2299559038278276,-0.358,-0.3062128040885701,-0.358,-0.381942164446931,-0.358,-0.4569389180661986,-0.358,-0.5309732371155308,-0.358,-0.6037732914885604,-0.358,-0.6750119851455915,-0.358,-0.7442957701114664,-0.358,-0.8111555689932959,-0.358,-0.8750435362960315,-0.358,-0.9353396696328392,-0.358,-0.9913754390621589,-0.358,-1.042481385815142
-0.357,-0.07667322143564559,-0.357,-0.1533683173652529,-0.357,-0.2299481811267814,-0.357,-0.3062040410302482,-0.357,-0.3819322703439066,-0.357,-0.4569274877721776,-0.357,-0.5309596412086705,-0.357,-0.6037566876535244,-0.357,-0.6749912899321239,-0.357,-0.7442696290501296,-0.357,-0.811122317990973,-0.357,-0.8750011851220731,-0.357,-0.9352859211133574,-0.357,-0.9913077760225701,-0.357,-1.042397261754513
-0.356,-0.07666947322471418,-0.356,-0.1533619604852507,-0.356,-0.2299403211130713,-0.356,-0.3061951222611301,-0.356,-0.3819222033442453,-0.356,-0.4569158639122002,-0.356,-0.5309458246606816,-0.356,-0.6037398272074275,-0.356,-0.6749702906193843,-0.356,-0.7442431217082708,-0.356,-0.8110886204665841,-0.356,-0.8749582853062519,-0.356,-0.9352314963002721,-0.356,-0.99123928075655,-0.356,-1.042312120675001
-0.355,-0.07666566049976176,-0.355,-0.1533554919972517,-0.355,-0.2299323212069837,-0.355,-0.30618604488251,-0.355,-0.3819119603146958,-0.355,-0.4569040431277553,-0.355,-0.5309317838607798,-0.355,-0.6037227062371925,-0.355,-0.6749489829252248,-0.355,-0.7442162433437225,-0.355,-0.8110544711007935,-0.355,-0.8749148308040394,-0.355,-0.9351763882422052,-0.355,-0.9911699451936027,-0.355,-1.04222595315785
-0.354,-0.0766617820786355,-0.354,-0.1533489098197391,-0.354,-0.2299241787782125,-0.354,-0.3061768059395169,-0.354,-0.3819015380628583,-0.354,-0.4568920219992767,-0.354,-0.530917515135658,-0.354,-0.6037053207659175,-0.354,-0.6749273625026162,-0.354,-0.7441889891484486,-0.354,-0.8110198645073399,-0.354,-0.8748708155026738,-0.354,-0.935120589917681,-0.354,-0.9910997611902654,-0.354,-1.042138749706901
