;Version, 1, 0
;phase((VF("/out+") - VF("/out-"))) (VCTRL=0.02),;phase((VF("/out+") - VF("/out-"))) (VCTRL=0.04),;phase((VF("/out+") - VF("/out-"))) (VCTRL=0.06),;phase((VF("/out+") - VF("/out-"))) (VCTRL=0.08),;phase((VF("/out+") - VF("/out-"))) (VCTRL=0.1),;phase((VF("/out+") - VF("/out-"))) (VCTRL=0.12),;phase((VF("/out+") - VF("/out-"))) (VCTRL=0.14),;phase((VF("/out+") - VF("/out-"))) (VCTRL=0.16),;phase((VF("/out+") - VF("/out-"))) (VCTRL=0.18),;phase((VF("/out+") - VF("/out-"))) (VCTRL=0.2),;phase((VF("/out+") - VF("/out-"))) (VCTRL=0.22),;phase((VF("/out+") - VF("/out-"))) (VCTRL=0.24),;phase((VF("/out+") - VF("/out-"))) (VCTRL=0.26),;phase((VF("/out+") - VF("/out-"))) (VCTRL=0.28),;phase((VF("/out+") - VF("/out-"))) (VCTRL=0.3)
;X, Y,;X, Y,;X, Y,;X, Y,;X, Y,;X, Y,;X, Y,;X, Y,;X, Y,;X, Y,;X, Y,;X, Y,;X, Y,;X, Y,;X, Y
;Re, Re,;Re, Re,;Re, Re,;Re, Re,;Re, Re,;Re, Re,;Re, Re,;Re, Re,;Re, Re,;Re, Re,;Re, Re,;Re, Re,;Re, Re,;Re, Re,;Re, Re
;freq, V,;freq, V,;freq, V,;freq, V,;freq, V,;freq, V,;freq, V,;freq, V,;freq, V,;freq, V,;freq, V,;freq, V,;freq, V,;freq, V,;freq, V
;Hz, deg,;Hz, deg,;Hz, deg,;Hz, deg,;Hz, deg,;Hz, deg,;Hz, deg,;Hz, deg,;Hz, deg,;Hz, deg,;Hz, deg,;Hz, deg,;Hz, deg,;Hz, deg,;Hz, deg
1000000,-0.0264076627699502,1000000,-0.02646532894867905,1000000,-0.02656750921826282,1000000,-0.02672385024792595,1000000,-0.02694875200042388,1000000,-0.02726150775364009,1000000,-0.02768447579169697,1000000,-0.02823647270846984,1000000,-0.02891289293853159,1000000,-0.02967004549490175,1000000,-0.03041952423380806,1000000,-0.03106074014499748,1000000,-0.03156019525159034,1000000,-0.03191756611524956,1000000,-0.03217328121108206
1002305.2380779,-0.02646853871779863,1002305.2380779,-0.02652633783079042,1002305.2380779,-0.02662875365020814,1002305.2380779,-0.02678545508314372,1002305.2380779,-0.0270108752876923,1002305.2380779,-0.02732435201733218,1002305.2380779,-0.02774829509734787,1002305.2380779,-0.02830156449833606,1002305.2380779,-0.02897954403793918,1002305.2380779,-0.02973844201104987,1002305.2380779,-0.03048964847670041,1002305.2380779,-0.03113234254304807,1002305.2380779,-0.03163294901241872,1002305.2380779,-0.03199114370088176,1002305.2380779,-0.03224744828079772
1004615.790278395,-0.02652955499918665,1004615.790278395,-0.02658748735288657,1004615.790278395,-0.02669013926513658,1004615.790278395,-0.02684720193215979,1004615.790278395,-0.02707314178391424,1004615.790278395,-0.02738734115199975,1004615.790278395,-0.02781226152167764,1004615.790278395,-0.02836680634025952,1004615.790278395,-0.02904634878398284,1004615.790278395,-0.02980699619743407,1004615.790278395,-0.03055993437264905,1004615.790278395,-0.0312041100016533,1004615.790278395,-0.031705870487966,1004615.790278395,-0.03206489090034435,1004615.790278395,-0.03232178632324428
1006931.668851804,-0.02659071193761652,1006931.668851804,-0.02664877783917605,1006931.668851804,-0.02675166638850849,1006931.668851804,-0.02690909112234975,1006931.668851804,-0.02713555181922031,1006931.668851804,-0.0274504754916048,1006931.668851804,-0.02787637540382972,1006931.668851804,-0.02843219858014588,1006931.668851804,-0.02911330753085458,1006931.668851804,-0.02987570841752167,1006931.668851804,-0.03063038229430264,1006931.668851804,-0.03127604290131688,1006931.668851804,-0.03177896006485439,1006931.668851804,-0.03213880810463742,1006931.668851804,-0.03239629573255443
1009252.886076684,-0.0266520098573361,1009252.886076684,-0.02671020961461481,1009252.886076684,-0.02681333534653438,1009252.886076684,-0.0269711229818437,1009252.886076684,-0.02719810572450219,1009252.886076684,-0.02751375537087917,1009252.886076684,-0.02794063708372944,1009252.886076684,-0.02849774156469809,1009252.886076684,-0.02918042063356282,1009252.886076684,-0.02994457903561788,1009252.886076684,-0.03070099261516889,1009252.886076684,-0.03134814162341974,1009252.886076684,-0.03185221813059738,1009252.886076684,-0.03221289570566244,1009252.886076684,-0.03247097690376942
1011579.454259898,-0.02671344908334076,1011579.454259898,-0.02677178300490788,1011579.454259898,-0.02687514646617681,1011579.454259898,-0.02703329783952838,1011579.454259898,-0.02726080383141437,1011579.454259898,-0.02757718112532636,1011579.454259898,-0.02800504690208569,1011579.454259898,-0.02856343564141842,1011579.454259898,-0.02924768844793441,1011579.454259898,-0.03001360841686768,1011579.454259898,-0.0307717657096165,1011579.454259898,-0.03142040655022193,1011579.454259898,-0.0319256450736017,1011579.454259898,-0.0322871540962243,1011579.454259898,-0.0325458302328412
1013911.385736679,-0.02677502994137503,1013911.385736679,-0.02683349833651113,1013911.385736679,-0.02693710007515203,1013911.385736679,-0.02709561602504845,1013911.385736679,-0.02732364647237577,1013911.385736679,-0.02764075309122324,1013911.385736679,-0.02806960520039276,1013911.385736679,-0.02862928115861018,1013911.385736679,-0.02931511133061646,1013911.385736679,-0.03008279692725781,1013911.385736679,-0.0308427019528772,1013911.385736679,-0.03149283806486469,1013911.385736679,-0.03199924128316951,1013911.385736679,-0.03236158367003336,1013911.385736679,-0.03262085611663443
1016248.692870695,-0.02683675275793443,1016248.692870695,-0.02689535593663294,1016248.692870695,-0.02699919650193181,1016248.692870695,-0.02715807786880868,1016248.692870695,-0.02738663398057171,1016248.692870695,-0.02770447160562198,1016248.692870695,-0.02813431232093216,1016248.692870695,-0.02869527846537958,1016248.692870695,-0.02938268963907823,1016248.692870695,-0.03015214493361872,1016248.692870695,-0.03091380172104774,1016248.692870695,-0.03156543655137255,1016248.692870695,-0.03207300714950041,1016248.692870695,-0.03243618482170765,1016248.692870695,-0.0326960549529287
1018591.388054117,-0.02689861786026683,1018591.388054117,-0.0269573561332361,1018591.388054117,-0.0270614360757451,1018591.388054117,-0.02722068370197539,1018591.388054117,-0.02744976668995557,1018591.388054117,-0.0277683370063516,1018591.388054117,-0.02819916860677452,1018591.388054117,-0.02876142791163764,1018591.388054117,-0.02945042373161302,1018591.388054117,-0.03022165280362645,1018591.388054117,-0.03098506539109177,1018591.388054117,-0.03163820239465521,1018591.388054117,-0.03214694306369345,1018591.388054117,-0.03251095794677478,1018591.388054117,-0.0327714271404205
1020939.483707679,-0.02696062557637498,1020939.483707679,-0.02701949925503931,1020939.483707679,-0.0271238191265798,1020939.483707679,-0.02728343385647831,1020939.483707679,-0.02751304493525055,1020939.483707679,-0.02783234963201998,1020939.483707679,-0.02826417440178122,1020939.483707679,-0.02882772984810199,1020939.483707679,-0.0295183139673401,1020939.483707679,-0.03029132090580465,1020939.483707679,-0.03105649334084205,1020939.483707679,-0.03171113598050981,1020939.483707679,-0.03222104941774933,1020939.483707679,-0.03258590344167427,1020939.483707679,-0.03284697307872549
1023292.992280754,-0.02702277623501735,1023292.992280754,-0.02708178563151904,1023292.992280754,-0.02718634598518447,1023292.992280754,-0.02734632866501241,1023292.992280754,-0.0275764690519515,1023292.992280754,-0.02789650982201555,1023292.992280754,-0.0283293300506064,1023292.992280754,-0.02889418462629875,1023292.992280754,-0.02958636070620657,1023292.992280754,-0.0303611496095265,1023292.992280754,-0.03112808594900228,1023292.992280754,-0.03178423769562271,1023292.992280754,-0.03229532660457232,1023292.992280754,-0.03266102170375942,1023292.992280754,-0.03292269316838047
1025651.926251407,-0.02708507016571059,1025651.926251407,-0.02714421559291138,1025651.926251407,-0.0272490169830702,1025651.926251407,-0.02740936846103961,1025651.926251407,-0.02764003937632658,1025651.926251407,-0.02796081791650911,1025651.926251407,-0.02839463589869867,1025651.926251407,-0.02896079259856441,1025651.926251407,-0.02965456430898932,1025651.926251407,-0.03043113928501665,1025651.926251407,-0.03119984359514915,1025651.926251407,-0.03185750792757176,1025651.926251407,-0.03236977501797248,1025651.926251407,-0.03273631313129961,1025651.926251407,-0.03299858781084563
1028016.298126473,-0.02714750769873054,1028016.298126473,-0.02720678947021357,1028016.298126473,-0.02731183245251222,1028016.298126473,-0.02747255357879045,1028016.298126473,-0.02770375624541923,1028016.298126473,-0.02802527425645566,1028016.298126473,-0.02846009229230299,1028016.298126473,-0.02902755411804762,1028016.298126473,-0.02972292513729691,1028016.298126473,-0.03050129030335324,1028016.298126473,-0.03127176665973435,1028016.298126473,-0.03193094706482823,1028016.298126473,-0.03244439505266768,1028016.298126473,-0.03281177812348223,1028016.298126473,-0.03307465740850654
1030386.120441615,-0.02721008916511465,1030386.120441615,-0.02726950759518607,1030386.120441615,-0.02737479272655174,1030386.120441615,-0.02753588435326603,1030386.120441615,-0.02776761999704979,1030386.120441615,-0.02808987918359615,1030386.120441615,-0.02852569957846252,1030386.120441615,-0.02909446953871118,1030386.120441615,-0.02979144355357148,1030386.120441615,-0.0305716030364698,1030386.120441615,-0.03134385552408666,1030386.120441615,-0.03200455549675894,1030386.120441615,-0.03251918710428572,1030386.120441615,-0.03288741708041497,1030386.120441615,-0.03315090236467647
1032761.405761397,-0.02727281489666358,1032761.405761397,-0.02733237030035391,1032761.405761397,-0.02743789813899784,1032761.405761397,-0.02759936112023964,1032761.405761397,-0.02783163096981739,1032761.405761397,-0.02815463304045929,1032761.405761397,-0.02859145810502037,1032761.405761397,-0.02916153921533383,1032761.405761397,-0.02986011992109067,1032761.405761397,-0.03064207785715729,1032761.405761397,-0.03141611057041387,1032761.405761397,-0.03207833361362826,1032761.405761397,-0.03259415156936637,1032761.405761397,-0.03296323040312784,1032761.405761397,-0.03322732308359832
1035142.166679343,-0.02733568522594307,1035142.166679343,-0.02739537791900879,1035142.166679343,-0.02750114902442883,1035142.166679343,-0.02766298421625863,1035142.166679343,-0.02789578950310168,1035142.166679343,-0.02821953617036349,1035142.166679343,-0.02865736822062159,1035142.166679343,-0.02922876350351217,1035142.166679343,-0.0299289546039696,1035142.166679343,-0.030712715139066,1035142.166679343,-0.03148853218180483,1035142.166679343,-0.03215228180660022,1035142.166679343,-0.03266928884536359,1035142.166679343,-0.03303921849357529,1035142.166679343,-0.03330391997044695
1037528.415818012,-0.02739870048628474,1037528.415818012,-0.02745853078521064,1037528.415818012,-0.02756454571819466,1037528.415818012,-0.02772675397864626,1037528.415818012,-0.02796009593706469,1037528.415818012,-0.02828458891741852,1037528.415818012,-0.02872343027471489,1037528.415818012,-0.02929614275966251,1037528.415818012,-0.02999794796716275,1037528.415818012,-0.0307835152567076,1037528.415818012,-0.03156112074223156,1037528.415818012,-0.03222640046774057,1037528.415818012,-0.03274459933064754,1037528.415818012,-0.0331153817546384,1037528.415818012,-0.03338069343133116
1039920.165829058,-0.02746186101178935,1039920.165829058,-0.02752182923378961,1039920.165829058,-0.02762808855641801,1039920.165829058,-0.02779067074550329,1039920.165829058,-0.02802455061265261,1039920.165829058,-0.02834979162652745,1039920.165829058,-0.02878964461755458,1039920.165829058,-0.02936367734102284,1039920.165829058,-0.03006710037646589,1039920.165829058,-0.03085447858545709,1039920.165829058,-0.03163387663655116,1039920.165829058,-0.03230068999001887,1039920.165829058,-0.03282008342450664,1039920.165829058,-0.03319172059012698,1039920.165829058,-0.033457643873296
1042317.429393303,-0.02752516713732748,1042317.429393303,-0.02758527360034768,1042317.429393303,-0.02769177787599661,1042317.429393303,-0.02785473485570988,1042317.429393303,-0.02808915387159752,1042317.429393303,-0.02841514464338837,1042317.429393303,-0.02885601160020235,1042317.429393303,-0.02943136760565462,1042317.429393303,-0.03013641219851805,1042317.429393303,-0.0309256055015548,1042317.429393303,-0.03170680025050799,1042317.429393303,-0.0323751507673106,1042317.429393303,-0.03289574152714988,1042317.429393303,-0.03326823540478172,1042317.429393303,-0.03353477170432482
1044720.219220799,-0.0275886191985418,1044720.219220799,-0.02764886422126029,1044720.219220799,-0.02775561401460474,1044720.219220799,-0.02791894664892745,1044720.219220799,-0.02815390605641939,1044720.219220799,-0.02848064831449634,1044720.219220799,-0.02892253157452915,1044720.219220799,-0.0294992139124447,1044720.219220799,-0.03020588380080343,1044720.219220799,-0.03099689638210836,1044720.219220799,-0.03177989197073555,1044720.219220799,-0.03244978319439916,1044720.219220799,-0.03297157403970875,1044720.219220799,-0.03334492660427632,1044720.219220799,-0.03361207733334147
1047128.548050899,-0.02765221753184883,1047128.548050899,-0.02771260143367852,1047128.548050899,-0.0278195973106951,1047128.548050899,-0.02798330646560043,1047128.548050899,-0.02821880751042764,1047128.548050899,-0.02854630298714517,1047128.548050899,-0.02898920489321717,1047128.548050899,-0.02956721662110734,1047128.548050899,-0.03027551555165339,1047128.548050899,-0.03106835160509477,1047128.548050899,-0.03185315218475871,1047128.548050899,-0.03252458766697802,1047128.548050899,-0.03304758136423949,1047128.548050899,-0.03342179459521967,1047128.548050899,-0.03368956117021245
1049542.428652321,-0.0277159624744403,1049542.428652321,-0.0277764855755306,1049542.428652321,-0.02788372810350062,1049542.428652321,-0.02804781464695793,1049542.428652321,-0.02828385857772326,1049542.428652321,-0.02861210900942921,1049542.428652321,-0.02905603190976151,1049542.428652321,-0.02963537609218593,1049542.428652321,-0.03034530782024837,1049542.428652321,-0.0311399715493623,1049542.428652321,-0.03192658128099561,1049542.428652321,-0.03259956458165288,1049542.428652321,-0.03312376390372512,1049542.428652321,-0.03349883978515795,1049542.428652321,-0.03376722362574915
1051961.873823222,-0.02777985436428528,1051961.873823222,-0.0278405169855237,1051961.873823222,-0.02794800673303627,1051961.873823222,-0.02811247153501586,1051961.873823222,-0.0283490596032003,1051961.873823222,-0.02867806673024533,1051961.873823222,-0.02912301297847221,1051961.873823222,-0.02970369268705506,1051961.873823222,-0.03041526097661988,1051961.873823222,-0.03121175659463262,1051961.873823222,-0.03200017964875985,1051961.873823222,-0.03267471433594369,1051961.873823222,-0.0332001220620777,1051961.873823222,-0.03357606258257691,1051961.873823222,-0.03384506511170991
1054386.896391258,-0.02784389354013241,1054386.896391258,-0.02790469600314591,1054386.896391258,-0.02801243354010076,1054386.896391258,-0.02817727747257841,1054386.896391258,-0.02841441093254801,1054386.896391258,-0.02874417649929465,1054386.896391258,-0.02919014845447611,1054386.896391258,-0.02977216676792235,1054386.896391258,-0.03048537539165239,1054386.896391258,-0.03128370712150266,1054386.896391258,-0.03207394767826242,1054386.896391258,-0.03275003732828667,1054386.896391258,-0.03327665624414031,1054386.896391258,-0.03365346339690384,1054386.896391258,-0.03392308604080232
1056817.509213657,-0.02790808034151067,1056817.509213657,-0.02796902296866775,1056817.509213657,-0.02807700886627846,1056817.509213657,-0.02824223280324007,1056817.509213657,-0.0284799129122525,1056817.509213657,-0.02881043866708443,1056817.509213657,-0.02925743869371862,1056817.509213657,-0.0298407986978304,1056817.509213657,-0.03055565143708538,1056817.509213657,-0.03135582351144682,1056817.509213657,-0.0321478857606139,1056817.509213657,-0.0328255339580367,1056817.509213657,-0.0333533668556894,1056817.509213657,-0.03373104263850998,1056817.509213657,-0.03400128682668535
1059253.725177287,-0.02797241510873187,1059253.725177287,-0.02803349822314436,1059253.725177287,-0.02814173305394124,1059253.725177287,-0.02830733787138741,1059253.725177287,-0.02854556588959856,1059253.725177287,-0.02887685358492991,1059253.725177287,-0.02932488405296577,1059253.725177287,-0.02990958884065868,1059253.725177287,-0.03062608948551529,1059253.725177287,-0.03142810614681878,1059253.725177287,-0.03222199428782637,1059253.725177287,-0.03290120462546913,1059253.725177287,-0.03343025430343672,1059253.725177287,-0.03380880071871248,1059253.725177287,-0.03407966788397149
1061695.557198723,-0.02803689818289261,1061695.557198723,-0.02809812210841688,1061695.557198723,-0.02820660644625007,1061695.557198723,-0.02837259302220081,1061695.557198723,-0.0286113702126716,1061695.557198723,-0.02894342160495621,1061695.557198723,-0.02939248488980595,1061695.557198723,-0.02997853756112557,1061695.557198723,-0.03069668991039745,1061695.557198723,-0.03150055541085375,1061695.557198723,-0.03229627365281576,1061695.557198723,-0.03297704973178212,1061695.557198723,-0.03350731899503166,1061695.557198723,-0.03388673804977671,1061695.557198723,-0.03415822962822916
1064143.018224314,-0.02810152990587554,1064143.018224314,-0.02816289496711463,1064143.018224314,-0.02827162938715714,1064143.018224314,-0.02843799860165649,1064143.018224314,-0.02867732623035946,1064143.018224314,-0.02901014308010025,1064143.018224314,-0.02946024156265191,1064143.018224314,-0.03004764522479009,1064143.018224314,-0.03076745308604811,1064143.018224314,-0.03157317168767029,1064143.018224314,-0.03237072424940361,1064143.018224314,-0.03305306967909863,1064143.018224314,-0.03358456133906331,1064143.018224314,-0.0339648550449184,1064143.018224314,-0.03423697247598458
1066596.121230256,-0.02816631062035137,1066596.121230256,-0.02822781714265672,1066596.121230256,-0.02833680222140742,1066596.121230256,-0.0285035549565282,1066596.121230256,-0.02874343429235419,1066596.121230256,-0.02907701836411248,1066596.121230256,-0.02952815443074266,1066596.121230256,-0.03011691219805407,1066596.121230256,-0.03083837938764642,1066596.121230256,-0.03164595536227247,1066596.121230256,-0.03244534647231939,1066596.121230256,-0.03312926487046867,1066596.121230256,-0.03366198174506268,1066596.121230256,-0.03404315211830588,1066596.121230256,-0.03431589684472427
1069054.879222656,-0.02823124066978094,1069054.879222656,-0.02829288897925379,1069054.879222656,-0.02840212529454071,1069054.879222656,-0.02856926243438902,1069054.879222656,-0.02880969474915402,1069054.879222656,-0.02914404781155879,1069054.879222656,-0.02959622385414527,1069054.879222656,-0.03018633884816393,1069054.879222656,-0.03090946919123639,1069054.879222656,-0.03171890682055193,1069054.879222656,-0.03252014071720249,1069054.879222656,-0.03320563570987133,1069054.879222656,-0.03373958062350482,1069054.879222656,-0.03412162968506217,1069054.879222656,-0.03439500315289714
1071519.305237605,-0.02829632039841676,1071519.305237605,-0.02835811082191027,1071519.305237605,-0.02846759895289321,1071519.305237605,-0.02863512138361331,1071519.305237605,-0.02887610795206516,1071519.305237605,-0.02921123177782253,1071519.305237605,-0.02966445019375691,1071519.305237605,-0.03025592554321269,1071519.305237605,-0.03098072287372889,1071519.305237605,-0.03179202644928981,1071519.305237605,-0.03259510738060432,1071519.305237605,-0.03328218260221698,1071519.305237605,-0.03381735838581101,1071519.305237605,-0.03420028816126727,1071519.305237605,-0.0344742918199167
1073989.412341243,-0.02836155015130479,1073989.412341243,-0.02842348301642567,1073989.412341243,-0.02853322354359961,1073989.412341243,-0.02870113215337848,1073989.412341243,-0.02894267425320365,1073989.412341243,-0.02927857061910622,1073989.412341243,-0.02973283381130666,1073989.412341243,-0.03032567265214188,1073989.412341243,-0.03105214081290367,1073989.412341243,-0.03186531463615895,1073989.412341243,-0.03267024685999047,1073989.412341243,-0.03335890595334937,1073989.412341243,-0.03389531544435098,1073989.412341243,-0.03427912796396034,1073989.412341243,-0.03455376326616331
