;Version, 1, 0
;ac_gain_buf (VCTRL=0.02),;ac_gain_buf (VCTRL=0.04),;ac_gain_buf (VCTRL=0.06),;ac_gain_buf (VCTRL=0.08),;ac_gain_buf (VCTRL=0.1),;ac_gain_buf (VCTRL=0.12),;ac_gain_buf (VCTRL=0.14),;ac_gain_buf (VCTRL=0.16),;ac_gain_buf (VCTRL=0.18),;ac_gain_buf (VCTRL=0.2),;ac_gain_buf (VCTRL=0.22),;ac_gain_buf (VCTRL=0.24),;ac_gain_buf (VCTRL=0.26),;ac_gain_buf (VCTRL=0.28),;ac_gain_buf (VCTRL=0.3)
;X, Y,;X, Y,;X, Y,;X, Y,;X, Y,;X, Y,;X, Y,;X, Y,;X, Y,;X, Y,;X, Y,;X, Y,;X, Y,;X, Y,;X, Y
;Re, Re,;Re, Re,;Re, Re,;Re, Re,;Re, Re,;Re, Re,;Re, Re,;Re, Re,;Re, Re,;Re, Re,;Re, Re,;Re, Re,;Re, Re,;Re, Re,;Re, Re
;freq, V,;freq, V,;freq, V,;freq, V,;freq, V,;freq, V,;freq, V,;freq, V,;freq, V,;freq, V,;freq, V,;freq, V,;freq, V,;freq, V,;freq, V
;Hz, dB,;Hz, dB,;Hz, dB,;Hz, dB,;Hz, dB,;Hz, dB,;Hz, dB,;Hz, dB,;Hz, dB,;Hz, dB,;Hz, dB,;Hz, dB,;Hz, dB,;Hz, dB,;Hz, dB
1000000,-3.351913506271679,1000000,3.057643468306858,1000000,7.087272457946129,1000000,10.00906088825333,1000000,12.06943499358483,1000000,13.40443065193638,1000000,14.19739270129278,1000000,14.63972763829789,1000000,14.87833750239419,1000000,15.01183958414151,1000000,15.09710928049253,1000000,15.16186312276615,1000000,15.21660098199605,1000000,15.26591773662531,1000000,15.31046001767121
1002305.2380779,-3.351913515044784,1002305.2380779,3.057643459160796,1002305.2380779,7.087272448157082,1002305.2380779,10.00906087758623,1002305.2380779,12.06943498195363,1002305.2380779,13.40443063946323,1002305.2380779,14.19739268821544,1002305.2380779,14.63972762484124,1002305.2380779,14.87833748871148,1002305.2380779,15.01183957031481,1002305.2380779,15.09710926655543,1002305.2380779,15.16186310873172,1002305.2380779,15.21660096786656,1002305.2380779,15.26591772240057,1002305.2380779,15.3104600033462
1004615.790278395,-3.351913523858387,1004615.790278395,3.05764344997251,1004615.790278395,7.087272438322854,1004615.790278395,10.00906086686988,1004615.790278395,12.06943497026874,1004615.790278395,13.40443062693249,1004615.790278395,14.19739267507774,1004615.790278395,14.63972761132247,1004615.790278395,14.87833747496561,1004615.790278395,15.01183955642428,1004615.790278395,15.09710925255399,1004615.790278395,15.16186309463251,1004615.790278395,15.21660095367185,1004615.790278395,15.26591770811016,1004615.790278395,15.31045998895506
1006931.668851804,-3.351913532712663,1006931.668851804,3.057643440741819,1006931.668851804,7.087272428443232,1006931.668851804,10.00906085610407,1006931.668851804,12.06943495852992,1006931.668851804,13.40443061434391,1006931.668851804,14.1973926618794,1006931.668851804,14.63972759774131,1006931.668851804,14.87833746115629,1006931.668851804,15.01183954246963,1006931.668851804,15.09710923848792,1006931.668851804,15.16186308046822,1006931.668851804,15.21660093941162,1006931.668851804,15.26591769375379,1006931.668851804,15.31045997449751
1009252.886076684,-3.351913541607816,1009252.886076684,3.057643431468521,1009252.886076684,7.087272418518006,1009252.886076684,10.00906084528857,1009252.886076684,12.06943494673692,1009252.886076684,13.40443060169724,1009252.886076684,14.19739264862014,1009252.886076684,14.63972758409745,1009252.886076684,14.87833744728324,1009252.886076684,15.01183952845058,1009252.886076684,15.09710922435693,1009252.886076684,15.16186306623855,1009252.886076684,15.21660092508557,1009252.886076684,15.26591767933116,1009252.886076684,15.31045995997321
1011579.454259898,-3.35191355054402,1011579.454259898,3.057643422152414,1011579.454259898,7.087272408546969,1011579.454259898,10.00906083442314,1011579.454259898,12.06943493488948,1011579.454259898,13.40443058899218,1011579.454259898,14.19739263529967,1011579.454259898,14.63972757039062,1011579.454259898,14.87833743334614,1011579.454259898,15.01183951436682,1011579.454259898,15.09710921016071,1011579.454259898,15.1618630519432,1011579.454259898,15.21660091069338,1011579.454259898,15.26591766484195,1011579.454259898,15.31045994538188
1013911.385736679,-3.351913559521473,1013911.385736679,3.057643412793312,1013911.385736679,7.087272398529909,1013911.385736679,10.00906082350757,1013911.385736679,12.06943492298736,1013911.385736679,13.40443057622849,1013911.385736679,14.19739262191772,1013911.385736679,14.63972755662052,1013911.385736679,14.87833741934472,1013911.385736679,15.01183950021804,1013911.385736679,15.09710919589897,1013911.385736679,15.16186303758187,1013911.385736679,15.21660089623478,1013911.385736679,15.26591765028586,1013911.385736679,15.3104599307232
1016248.692870695,-3.351913568540369,1016248.692870695,3.057643403391009,1016248.692870695,7.087272388466608,1016248.692870695,10.00906081254161,1016248.692870695,12.06943491103029,1016248.692870695,13.40443056340587,1016248.692870695,14.197392608474,1016248.692870695,14.63972754278686,1016248.692870695,14.87833740527866,1016248.692870695,15.01183948600396,1016248.692870695,15.09710918157139,1016248.692870695,15.16186302315424,1016248.692870695,15.21660088170943,1016248.692870695,15.26591763566258,1016248.692870695,15.31045991599686
1018591.388054117,-3.351913577600889,1018591.388054117,3.0576433939453,1018591.388054117,7.087272378356855,1018591.388054117,10.00906080152503,1018591.388054117,12.06943489901804,1018591.388054117,13.40443055052408,1018591.388054117,14.19739259496823,1018591.388054117,14.63972752888935,1018591.388054117,14.87833739114769,1018591.388054117,15.01183947172428,1018591.388054117,15.09710916717768,1018591.388054117,15.16186300866003,1018591.388054117,15.21660086711703,1018591.388054117,15.26591762097181,1018591.388054117,15.31045990120254
1020939.483707679,-3.351913586703234,1020939.483707679,3.057643384455998,1020939.483707679,7.087272368200447,1020939.483707679,10.00906079045761,1020939.483707679,12.06943488695034,1020939.483707679,13.40443053758281,1020939.483707679,14.19739258140012,1020939.483707679,14.63972751492769,1020939.483707679,14.87833737695148,1020939.483707679,15.01183945737868,1020939.483707679,15.09710915271754,1020939.483707679,15.1618629940989,1020939.483707679,15.21660085245728,1020939.483707679,15.26591760621323,1020939.483707679,15.31045988633994
1023292.992280754,-3.351913595847595,1023292.992280754,3.057643374922894,1023292.992280754,7.087272357997153,1023292.992280754,10.00906077933909,1023292.992280754,12.06943487482694,1023292.992280754,13.40443052458182,1023292.992280754,14.19739256776938,1023292.992280754,14.63972750090158,1023292.992280754,14.87833736268976,1023292.992280754,15.01183944296686,1023292.992280754,15.09710913819065,1023292.992280754,15.16186297947057,1023292.992280754,15.21660083772987,1023292.992280754,15.26591759138652,1023292.992280754,15.31045987140873
1025651.926251407,-3.35191360503416,1025651.926251407,3.05764336534579,1025651.926251407,7.087272347746759,1025651.926251407,10.00906076816926,1025651.926251407,12.06943486264758,1025651.926251407,13.40443051152082,1025651.926251407,14.19739255407572,1025651.926251407,14.63972748681073,1025651.926251407,14.87833734836219,1025651.926251407,15.01183942848852,1025651.926251407,15.09710912359671,1025651.926251407,15.16186296477472,1025651.926251407,15.21660082293448,1025651.926251407,15.26591757649138,1025651.926251407,15.3104598564086
1028016.298126473,-3.351913614263132,1028016.298126473,3.057643355724478,1028016.298126473,7.087272337449058,1028016.298126473,10.00906075694787,1028016.298126473,12.069434850412,1028016.298126473,13.40443049839953,1028016.298126473,14.19739254031886,1028016.298126473,14.63972747265485,1028016.298126473,14.8783373339685,1028016.298126473,15.01183941394335,1028016.298126473,15.0971091089354,1028016.298126473,15.16186295001103,1028016.298126473,15.21660080807079,1028016.298126473,15.26591756152749,1028016.298126473,15.31045984133924
1030386.120441615,-3.3519136235347,1030386.120441615,3.057643346058751,1030386.120441615,7.087272327103824,1030386.120441615,10.00906074567469,1030386.120441615,12.06943483811995,1030386.120441615,13.40443048521768,1030386.120441615,14.1973925264985,1030386.120441615,14.63972745843362,1030386.120441615,14.87833731950837,1030386.120441615,15.01183939933104,1030386.120441615,15.09710909420642,1030386.120441615,15.1618629351792,1030386.120441615,15.2166007931385,1030386.120441615,15.26591754649452,1030386.120441615,15.31045982620032
1032761.405761397,-3.351913632849066,1032761.405761397,3.057643336348415,1032761.405761397,7.08727231671084,1032761.405761397,10.00906073434947,1032761.405761397,12.06943482577116,1032761.405761397,13.40443047197498,1032761.405761397,14.19739251261435,1032761.405761397,14.63972744414675,1032761.405761397,14.87833730498149,1032761.405761397,15.01183938465129,1032761.405761397,15.09710907940945,1032761.405761397,15.16186292027891,1032761.405761397,15.21660077813728,1032761.405761397,15.26591753139217,1032761.405761397,15.31045981099152
1035142.166679343,-3.351913642206422,1035142.166679343,3.057643326593257,1035142.166679343,7.087272306269879,1035142.166679343,10.00906072297197,1035142.166679343,12.06943481336537,1035142.166679343,13.40443045867116,1035142.166679343,14.19739249866611,1035142.166679343,14.63972742979394,1035142.166679343,14.87833729038757,1035142.166679343,15.01183936990378,1035142.166679343,15.09710906454419,1035142.166679343,15.16186290530984,1035142.166679343,15.21660076306681,1035142.166679343,15.2659175162201,1035142.166679343,15.31045979571252
1037528.415818012,-3.351913651606972,1037528.415818012,3.05764331679307,1037528.415818012,7.08727229578073,1037528.415818012,10.00906071154196,1037528.415818012,12.06943480090232,1037528.415818012,13.40443044530592,1037528.415818012,14.19739248465349,1037528.415818012,14.63972741537487,1037528.415818012,14.87833727572628,1037528.415818012,15.0118393550882,1037528.415818012,15.09710904961031,1037528.415818012,15.16186289027168,1037528.415818012,15.21660074792679,1037528.415818012,15.26591750097801,1037528.415818012,15.31045978036299
1039920.165829058,-3.35191366105091,1039920.165829058,3.057643306947654,1039920.165829058,7.087272285243163,1039920.165829058,10.00906070005919,1039920.165829058,12.06943478838173,1039920.165829058,13.404430431879,1039920.165829058,14.19739247057619,1039920.165829058,14.63972740088925,1039920.165829058,14.87833726099731,1039920.165829058,15.01183934020423,1039920.165829058,15.0971090346075,1039920.165829058,15.1618628751641,1039920.165829058,15.21660073271689,1039920.165829058,15.26591748566556,1039920.165829058,15.31045976494262
1042317.429393303,-3.351913670538442,1042317.429393303,3.057643297056787,1042317.429393303,7.087272274656957,1042317.429393303,10.00906068852342,1042317.429393303,12.06943477580336,1042317.429393303,13.4044304183901,1042317.429393303,14.19739245643391,1042317.429393303,14.63972738633677,1042317.429393303,14.87833724620036,1042317.429393303,15.01183932525156,1042317.429393303,15.09710901953543,1042317.429393303,15.16186285998679,1042317.429393303,15.21660071743678,1042317.429393303,15.26591747028243,1042317.429393303,15.31045974945107
1044720.219220799,-3.351913680069769,1044720.219220799,3.057643287120264,1044720.219220799,7.087272264021886,1044720.219220799,10.0090606769344,1044720.219220799,12.06943476316693,1044720.219220799,13.40443040483895,1044720.219220799,14.19739244222636,1044720.219220799,14.63972737171712,1044720.219220799,14.87833723133512,1044720.219220799,15.01183931022987,1044720.219220799,15.09710900439381,1044720.219220799,15.16186284473943,1044720.219220799,15.21660070208614,1044720.219220799,15.2659174548283,1044720.219220799,15.31045973388801
1047128.548050899,-3.351913689645081,1047128.548050899,3.057643277137877,1047128.548050899,7.087272253337724,1047128.548050899,10.00906066529189,1047128.548050899,12.06943475047217,1047128.548050899,13.40443039122524,1047128.548050899,14.19739242795322,1047128.548050899,14.63972735702998,1047128.548050899,14.87833721640125,1047128.548050899,15.01183929513885,1047128.548050899,15.09710898918229,1047128.548050899,15.16186282942168,1047128.548050899,15.21660068666464,1047128.548050899,15.26591743930284,1047128.548050899,15.31045971825312
1049542.428652321,-3.3519136992646,1049542.428652321,3.057643267109416,1049542.428652321,7.087272242604254,1049542.428652321,10.00906065359564,1049542.428652321,12.06943473771881,1049542.428652321,13.40443037754869,1049542.428652321,14.1973924136142,1049542.428652321,14.63972734227506,1049542.428652321,14.87833720139845,1049542.428652321,15.01183927997817,1049542.428652321,15.09710897390056,1049542.428652321,15.16186281403323,1049542.428652321,15.21660067117196,1049542.428652321,15.26591742370571,1049542.428652321,15.31045970254605
1051961.873823222,-3.351913708928524,1051961.873823222,3.057643257034665,1051961.873823222,7.087272231821236,1051961.873823222,10.0090606418454,1051961.873823222,12.06943472490659,1051961.873823222,13.40443036380901,1051961.873823222,14.197392399209,1051961.873823222,14.63972732745202,1051961.873823222,14.87833718632641,1051961.873823222,15.0118392647475,1051961.873823222,15.09710895854828,1051961.873823222,15.16186279857375,1051961.873823222,15.21660065560777,1051961.873823222,15.26591740803659,1051961.873823222,15.31045968676649
1054386.896391258,-3.351913718637049,1054386.896391258,3.057643246913409,1054386.896391258,7.087272220988443,1054386.896391258,10.00906063004093,1054386.896391258,12.06943471203523,1054386.896391258,13.40443035000592,1054386.896391258,14.19739238473731,1054386.896391258,14.63972731256057,1054386.896391258,14.87833717118479,1054386.896391258,15.01183924944654,1054386.896391258,15.09710894312515,1054386.896391258,15.16186278304292,1054386.896391258,15.21660063997174,1054386.896391258,15.26591739229515,1054386.896391258,15.3104596709141
1056817.509213657,-3.351913728390381,1056817.509213657,3.057643236745439,1056817.509213657,7.08727221010565,1056817.509213657,10.00906061818197,1056817.509213657,12.06943469910446,1056817.509213657,13.40443033613911,1056817.509213657,14.19739237019882,1056817.509213657,14.63972729760038,1056817.509213657,14.87833715597329,1056817.509213657,15.01183923407496,1056817.509213657,15.09710892763082,1056817.509213657,15.1618627674404,1056817.509213657,15.21660062426354,1056817.509213657,15.26591737648104,1056817.509213657,15.31045965498853
1059253.725177287,-3.351913738188733,1059253.725177287,3.057643226530538,1059253.725177287,7.087272199172626,1059253.725177287,10.00906060626827,1059253.725177287,12.069434686114,1059253.725177287,13.4044303222083,1059253.725177287,14.19739235559321,1059253.725177287,14.63972728257115,1059253.725177287,14.87833714069157,1059253.725177287,15.01183921863242,1059253.725177287,15.09710891206498,1059253.725177287,15.16186275176586,1059253.725177287,15.21660060848283,1059253.725177287,15.26591736059394,1059253.725177287,15.31045963898946
1061695.557198723,-3.351913748032324,1061695.557198723,3.057643216268485,1061695.557198723,7.087272188189133,1061695.557198723,10.00906059429957,1061695.557198723,12.06943467306358,1061695.557198723,13.40443030821318,1061695.557198723,14.1973923409202,1061695.557198723,14.63972726747253,1061695.557198723,14.87833712533931,1061695.557198723,15.01183920311859,1061695.557198723,15.09710889642729,1061695.557198723,15.16186273601898,1061695.557198723,15.21660059262927,1061695.557198723,15.26591734463351,1061695.557198723,15.31045962291653
1064143.018224314,-3.351913757921343,1064143.018224314,3.057643205959062,1064143.018224314,7.087272177154952,1064143.018224314,10.00906058227564,1064143.018224314,12.06943465995292,1064143.018224314,13.40443029415347,1064143.018224314,14.19739232617946,1064143.018224314,14.63972725230422,1064143.018224314,14.8783371099162,1064143.018224314,15.01183918753317,1064143.018224314,15.09710888071742,1064143.018224314,15.1618627201994,1064143.018224314,15.21660057670255,1064143.018224314,15.2659173285994,1064143.018224314,15.31045960676941
1066596.121230256,-3.35191376785601,1066596.121230256,3.05764319560205,1066596.121230256,7.087272166069836,1066596.121230256,10.0090605701962,1066596.121230256,12.06943464678175,1066596.121230256,13.40443028002886,1066596.121230256,14.19739231137068,1066596.121230256,14.6397272370659,1066596.121230256,14.87833709442189,1066596.121230256,15.0118391718758,1066596.121230256,15.09710886493503,1066596.121230256,15.16186270430681,1066596.121230256,15.21660056070231,1066596.121230256,15.26591731249129,1066596.121230256,15.31045959054777
1069054.879222656,-3.351913777836526,1069054.879222656,3.05764318519724,1069054.879222656,7.087272154933542,1069054.879222656,10.00906055806101,1069054.879222656,12.06943463354978,1069054.879222656,13.40443026583904,1069054.879222656,14.19739229649354,1069054.879222656,14.63972722175725,1069054.879222656,14.87833707885606,1069054.879222656,15.01183915614616,1069054.879222656,15.0971088490798,1069054.879222656,15.16186268834086,1069054.879222656,15.21660054462821,1069054.879222656,15.26591729630883,1069054.879222656,15.31045957425125
1071519.305237605,-3.351913787863114,1071519.305237605,3.057643174744396,1071519.305237605,7.087272143745861,1071519.305237605,10.00906054586981,1071519.305237605,12.06943462025674,1071519.305237605,13.40443025158375,1071519.305237605,14.19739228154773,1071519.305237605,14.63972720637793,1071519.305237605,14.87833706321839,1071519.305237605,15.01183914034392,1071519.305237605,15.09710883315138,1071519.305237605,15.16186267230121,1071519.305237605,15.21660052847993,1071519.305237605,15.26591728005167,1071519.305237605,15.3104595578795
1073989.412341243,-3.351913797935982,1073989.412341243,3.057643164243308,1073989.412341243,7.087272132506528,1073989.412341243,10.00906053362233,1073989.412341243,12.06943460690234,1073989.412341243,13.40443023726264,1073989.412341243,14.19739226653294,1073989.412341243,14.63972719092762,1073989.412341243,14.87833704750853,1073989.412341243,15.01183912446874,1073989.412341243,15.09710881714944,1073989.412341243,15.16186265618752,1073989.412341243,15.2166005122571,1073989.412341243,15.26591726371948,1073989.412341243,15.31045954143219
1076465.213629833,-3.351913808055353,1076465.213629833,3.057643153693751,1076465.213629833,7.087272121215323,1076465.213629833,10.00906052131832,1076465.213629833,12.06943459348629,1076465.213629833,13.40443022287544,1076465.213629833,14.19739225144884,1076465.213629833,14.639727175406,1076465.213629833,14.87833703172616,1076465.213629833,15.01183910852028,1076465.213629833,15.09710880107364,1076465.213629833,15.16186263999947,1076465.213629833,15.2166004959594,1076465.213629833,15.26591724731189,1076465.213629833,15.31045952490897
1078946.722229827,-3.351913818221424,1078946.722229827,3.057643143095496,1078946.722229827,7.087272109871997,1078946.722229827,10.00906050895751,1078946.722229827,12.06943458000832,1078946.722229827,13.40443020842182,1078946.722229827,14.19739223629512,1078946.722229827,14.63972715981274,1078946.722229827,14.87833701587094,1078946.722229827,15.0118390924982,1078946.722229827,15.09710878492363,1078946.722229827,15.16186262373669,1078946.722229827,15.21660047958646,1078946.722229827,15.26591723082858,1078946.722229827,15.31045950830947
1081433.951297936,-3.351913828434421,1081433.951297936,3.057643132448323,1081433.951297936,7.087272098476316,1081433.951297936,10.00906049653966,1081433.951297936,12.06943456646814,1081433.951297936,13.4044301939015,1081433.951297936,14.19739222107145,1081433.951297936,14.6397271441475,1081433.951297936,14.87833699994254,1081433.951297936,15.01183907640218,1081433.951297936,15.09710876869909,1081433.951297936,15.16186260739884,1081433.951297936,15.21660046313795,1081433.951297936,15.26591721426917,1081433.951297936,15.31045949163335
