;Version, 1, 0
;dc_buf (VCTRL=0.02),;dc_buf (VCTRL=0.04),;dc_buf (VCTRL=0.06),;dc_buf (VCTRL=0.08),;dc_buf (VCTRL=0.1),;dc_buf (VCTRL=0.12),;dc_buf (VCTRL=0.14),;dc_buf (VCTRL=0.16),;dc_buf (VCTRL=0.18),;dc_buf (VCTRL=0.2),;dc_buf (VCTRL=0.22),;dc_buf (VCTRL=0.24),;dc_buf (VCTRL=0.26),;dc_buf (VCTRL=0.28),;dc_buf (VCTRL=0.3)
;X, Y,;X, Y,;X, Y,;X, Y,;X, Y,;X, Y,;X, Y,;X, Y,;X, Y,;X, Y,;X, Y,;X, Y,;X, Y,;X, Y,;X, Y
;Re, Re,;Re, Re,;Re, Re,;Re, Re,;Re, Re,;Re, Re,;Re, Re,;Re, Re,;Re, Re,;Re, Re,;Re, Re,;Re, Re,;Re, Re,;Re, Re,;Re, Re
;vin, V,;vin, V,;vin, V,;vin, V,;vin, V,;vin, V,;vin, V,;vin, V,;vin, V,;vin, V,;vin, V,;vin, V,;vin, V,;vin, V,;vin, V
;xunit, V,;xunit, V,;xunit, V,;xunit, V,;xunit, V,;xunit, V,;xunit, V,;xunit, V,;xunit, V,;xunit, V,;xunit, V,;xunit, V,;xunit, V,;xunit, V,;xunit, V
-0.4,-0.09662238464378775,-0.4,-0.1902165574880237,-0.4,-0.2769372760115026,-0.4,-0.3528658767468306,-0.4,-0.4136553881962769,-0.4,-0.4581073675061088,-0.4,-0.4898390611592723,-0.4,-0.5130984122743368,-0.4,-0.5310752529669939,-0.4,-0.5455298499288012,-0.4,-0.5572194886755508,-0.4,-0.5665131922904971,-0.4,-0.573700889802544,-0.4,-0.579071512249832,-0.4,-0.5829197175254766
-0.399,-0.09662800319740442,-0.399,-0.1901324779853254,-0.399,-0.276965372430362,-0.399,-0.3529193698210821,-0.399,-0.4137466467301211,-0.399,-0.4582327785840793,-0.399,-0.4899801646382371,-0.399,-0.5132390858106413,-0.399,-0.531203889350862,-0.399,-0.5456409380048163,-0.399,-0.5573104749274518,-0.399,-0.5665859846123049,-0.399,-0.5737564753162913,-0.399,-0.5791122461086607,-0.399,-0.5829485306676291
-0.398,-0.09663364661425106,-0.398,-0.190146379288559,-0.398,-0.2769936337911318,-0.398,-0.3529732185131271,-0.398,-0.4138386141179399,-0.398,-0.4583593264299141,-0.398,-0.4901226336468489,-0.398,-0.513381158357752,-0.398,-0.5313340085280095,-0.398,-0.545753167344776,-0.398,-0.5574031311654182,-0.398,-0.5666595154602181,-0.398,-0.5738126142435044,-0.398,-0.5791534572327908,-0.398,-0.5829776136969527
-0.397,-0.09663931388493813,-0.397,-0.1901603493682549,-0.397,-0.2770220564142669,-0.397,-0.3530274157179333,-0.397,-0.413931270140226,-0.397,-0.4584869736780368,-0.397,-0.4902664449586279,-0.397,-0.5135246263188074,-0.397,-0.5314654409229892,-0.397,-0.5458665351895539,-0.397,-0.5574967233760715,-0.397,-0.5667337809182175,-0.397,-0.5738693040442965,-0.397,-0.5791950622839684,-0.397,-0.5830069650028661
-0.396,-0.09664500396914943,-0.396,-0.1901743860238769,-0.396,-0.277050636568464,-0.396,-0.3530819556131673,-0.396,-0.4140246073698191,-0.396,-0.4586157145314045,-0.396,-0.4904115955182706,-0.396,-0.5136694883206048,-0.396,-0.5315981865401866,-0.396,-0.5459810416589471,-0.396,-0.557591251413771,-0.396,-0.5668087804840126,-0.396,-0.5739265438976652,-0.396,-0.5792370602224322,-0.396,-0.5830365834596521
-0.395,-0.09665071580046136,-0.395,-0.190188486997265,-0.395,-0.2770793704178858,-0.395,-0.353136832193864,-0.395,-0.4141186180804876,-0.395,-0.4587455428154704,-0.395,-0.49055808189832,-0.395,-0.5138157426317334,-0.395,-0.5317322450823847,-0.395,-0.5460966866112417,-0.395,-0.5576867149082929,-0.395,-0.5668845134662714,-0.395,-0.5739843328272809,-0.395,-0.5792794498841303,-0.395,-0.5830664678450468
-0.394,-0.09665644828639461,-0.394,-0.1902026499727667,-0.394,-0.2771082540224914,-0.394,-0.3531920392728779,-0.394,-0.4142132942465507,-0.394,-0.4588764519755201,-0.394,-0.4907059002956802,-0.394,-0.513963387158173,-0.394,-0.5318676159470505,-0.394,-0.5462134696398954,-0.394,-0.5577831132618859,-0.394,-0.5669609789821168,-0.394,-0.5740426696994297,-0.394,-0.5793222299790964,-0.394,-0.5830966168390043
-0.393,-0.09666220030848144,-0.393,-0.1902168725774272,-0.393,-0.2771372833384225,-0.393,-0.3532475704814428,-0.393,-0.41430862754266,-0.393,-0.4590084350741568,-0.393,-0.490855046528254,-0.393,-0.5141124194389715,-0.393,-0.5320042982227186,-0.393,-0.5463313900702811,-0.393,-0.5578804456463921,-0.393,-0.567038175954662,-0.393,-0.5741015532209869,-0.393,-0.5793653990898516,-0.393,-0.5831270290224794
-0.392,-0.09666797072234273,-0.392,-0.1902311523812044,-0.392,-0.2771664542184578,-0.392,-0.353303419269839,-0.392,-0.4144046093437513,-0.392,-0.4591414847889449,-0.392,-0.4910055160317097,-0.392,-0.5142628366420094,-0.392,-0.5321422906854508,-0.392,-0.5464504469565097,-0.392,-0.5579787110004277,-0.392,-0.5671161031105948,-0.392,-0.5741609819374297,-0.392,-0.5794089556698335,-0.392,-0.5831577028762339
-0.391,-0.09667375835778266,-0.391,-0.190245486897222,-0.391,-0.2771957624125194,-0.391,-0.3533595789081702,-0.391,-0.4145012307251693,-0.391,-0.4592755934102113,-0.391,-0.4911573038563744,-0.391,-0.5144146355598491,-0.391,-0.5322815917953886,-0.391,-0.5465706390783172,-0.391,-0.5580779080266208,-0.391,-0.5671947589778096,-0.391,-0.574220954230885,-0.391,-0.5794528980418547,-0.391,-0.5831886367796592
-0.39,-0.09667956201889386,-0.39,-0.1902598735820475,-0.39,-0.2772252035682464,-0.39,-0.3534160424872456,-0.39,-0.4145984824629537,-0.39,-0.4594107528390056,-0.39,-0.4913104046642596,-0.39,-0.514567812605667,-0.39,-0.5324221996933813,-0.39,-0.5466919649380324,-0.39,-0.5581780351889094,-0.39,-0.5672741418830836,-0.39,-0.5742814683182139,-0.39,-0.5794972243965896,-0.39,-0.5832198290096237
-0.389,-0.09668538048417555,-0.389,-0.1902743098360078,-0.389,-0.2772547732316188,-0.389,-0.3534728029195747,-0.389,-0.4146963550343029,-0.389,-0.4595469545852254,-0.389,-0.491464812726214,-0.389,-0.5147223638092725,-0.389,-0.5325641121977118,-0.389,-0.5468144227576147,-0.389,-0.5582790907099022,-0.389,-0.5673542499498077,-0.389,-0.5743425222491375,-0.389,-0.5795419327910922,-0.389,-0.583251277739341
-0.388,-0.09669121250666488,-0.388,-0.1902887930035249,-0.388,-0.277284466847649,-0.388,-0.353529852636827,-0.388,-0.4147948386182032,-0.388,-0.4596841897659019,-0.388,-0.4916205219192138,-0.388,-0.5148782848132143,-0.388,-0.5327073268008977,-0.388,-0.5469380104757658,-0.388,-0.5583810725683007,-0.388,-0.5674350810957625,-0.388,-0.5744041139043999,-0.388,-0.5795870211473426,-0.388,-0.5832829810372615
-0.387,-0.09669705681408239,-0.387,-0.1903033203734943,-0.387,-0.2773142797611251,-0.387,-0.3535871849978922,-0.387,-0.4148939230962287,-0.387,-0.4598224491036549,-0.387,-0.4917775257237792,-0.387,-0.5150355708689713,-0.387,-0.5328518406665903,-0.387,-0.547062725745124,-0.387,-0.5584839784963834,-0.387,-0.5675166330309492,-0.387,-0.5744662409939734,-0.387,-0.5796324872508264,-0.387,-0.5833149368659875
-0.386,-0.09670291210898613,-0.386,-0.1903178891796815,-0.386,-0.2773442072174147,-0.386,-0.3536447926720706,-0.386,-0.4149935980535182,-0.386,-0.4599617229253132,-0.386,-0.4919358172215322,-0.386,-0.5151942168332325,-0.386,-0.5329976506265601,-0.386,-0.5471885659295307,-0.386,-0.5585878059775601,-0.386,-0.5675989032554718,-0.386,-0.5745289010553036,-0.386,-0.5796783287491496,-0.386,-0.5833471430812123
-0.385,-0.09670877706894296,-0.385,-0.1903324966011554,-0.385,-0.2773742443633242,-0.385,-0.3537026678579255,-0.385,-0.415093852779912,-0.385,-0.4601020011607072,-0.385,-0.4920953890928825,-0.385,-0.5153542171642616,-0.385,-0.5331447531777679,-0.385,-0.5473155281013786,-0.385,-0.5586925522439852,-0.385,-0.5676818890574726,-0.385,-0.5745920914516015,-0.385,-0.5797245431506807,-0.385,-0.5833795974306847
-0.384,-0.09671465034670693,-0.384,-0.1903471397627462,-0.384,-0.2774043862480134,-0.384,-0.3537608025815402,-0.384,-0.4151946762712692,-0.384,-0.4602432733416255,-0.384,-0.4922562336148542,-0.384,-0.515515565918351,-0.384,-0.5332931444795327,-0.384,-0.5474436090390368,-0.384,-0.5587982142742419,-0.384,-0.5677655875111229,-0.384,-0.5746558093701741,-0.384,-0.5797711278232335,-0.384,-0.5834122975531986
-0.383,-0.09672053057041355,-0.383,-0.1903618157355343,-0.383,-0.2774346278239673,-0.383,-0.3538191886981433,-0.383,-0.4152960572309493,-0.383,-0.4603855286009526,-0.383,-0.492418342659043,-0.383,-0.5156782567463594,-0.383,-0.5334428203507883,-0.383,-0.5475728052243604,-0.383,-0.5589047887910938,-0.383,-0.5678499954746687,-0.383,-0.5747200518208041,-0.383,-0.5798180799927812,-0.383,-0.5834452409776101
-0.382,-0.09672641634378421,-0.382,-0.1903765215373642,-0.382,-0.2774649639480198,-0.382,-0.3538778178938456,-0.382,-0.4153979840714647,-0.382,-0.4605287556719712,-0.382,-0.4925817076897138,-0.382,-0.5158422828903385,-0.382,-0.5335937762674269,-0.382,-0.5477031128402748,-0.382,-0.5590122722593029,-0.382,-0.5679351095885331,-0.382,-0.5747848156341708,-0.382,-0.579865396742209,-0.382,-0.5834784251218794
-0.381,-0.09673230624634138,-0.381,-0.1903912541333893,-0.381,-0.2774953893824327,-0.381,-0.3539366816874731,-0.381,-0.4155004449163022,-0.381,-0.460672942887845,-0.381,-0.4927463197620341,-0.381,-0.5160076371802447,-0.381,-0.5337460073597448,-0.381,-0.5478345277684481,-0.381,-0.5591206608835186,-0.381,-0.5680209262734753,-0.381,-0.5748500974603228,-0.381,-0.5799130750101024,-0.381,-0.5835118472921434
-0.38,-0.0967381988336356,-0.38,-0.1904060104366399,-0.38,-0.2775258987960232,-0.38,-0.3539957714324987,-0.38,-0.415603427601911,-0.38,-0.4608180781812732,-0.38,-0.49291216952044,-0.38,-0.5161743120307338,-0.38,-0.5338995084099698,-0.38,-0.5479670455870417,-0.38,-0.5592299506062369,-0.38,-0.5681074417288116,-0.38,-0.5749158937671937,-0.38,-0.5799611115895732,-0.38,-0.5835455046818135
-0.379,-0.09674409263748271,-0.379,-0.1904207873086196,-0.379,-0.2775564867653503,-0.379,-0.3540550783190746,-0.379,-0.4157069196798596,-0.379,-0.4609641490843239,-0.379,-0.4930792471971451,-0.379,-0.5163422994380351,-0.379,-0.5340542738498879,-0.379,-0.5481006615685448,-0.379,-0.5593401371058311,-0.379,-0.5681946519306902,-0.379,-0.5749822008391693,-0.379,-0.5800095031271257,-0.379,-0.5835793943707048
-0.378,-0.09674998616621275,-0.378,-0.1904355815599259,-0.378,-0.2775871477759407,-0.378,-0.3541145933761556,-0.378,-0.4158109084191561,-0.378,-0.4611111427284441,-0.378,-0.4932475426107815,-0.378,-0.5165115909767964,-0.378,-0.5342102977585601,-0.378,-0.5482353706776943,-0.378,-0.5594512157946516,-0.378,-0.5682825526304293,-0.378,-0.5750490147757028,-0.378,-0.5800582461215614,-0.378,-0.5836135133241929
-0.377,-0.09675587790492768,-0.377,-0.1904503899508955,-0.377,-0.277617876223572,-0.377,-0.354174307473717,-0.377,-0.4159153808087331,-0.377,-0.4612590458446461,-0.377,-0.4934170451651791,-0.377,-0.5166827856325453,-0.377,-0.5343675738601333,-0.377,-0.5483711675694745,-0.377,-0.5595631818172022,-0.377,-0.5683711393529172,-0.377,-0.57511633148998,-0.377,-0.580107336922924,-0.377,-0.5836478583924039
-0.376,-0.09676176631577224,-0.376,-0.190465209192276,-0.376,-0.2776486664156019,-0.376,-0.3542342113250667,-0.376,-0.4160203235600973,-0.376,-0.4614078447638773,-0.376,-0.4935877438482826,-0.376,-0.5168558224391657,-0.376,-0.5345260955217424,-0.376,-0.5485080465872064,-0.376,-0.5596760300483871,-0.376,-0.5684604073950728,-0.376,-0.5751841467076375,-0.376,-0.5801567717314872,-0.376,-0.5836824263094306
-0.375,-0.09676764983820793,-0.375,-0.1904800359459182,-0.375,-0.2776795125723385,-0.375,-0.3542942954892443,-0.375,-0.416125723110136,-0.375,-0.4615575254175643,-0.375,-0.4937596272312025,-0.375,-0.5170301492843207,-0.375,-0.5346858557515056,-0.375,-0.5486460017607172,-0.375,-0.5597897550918305,-0.375,-0.5685503518243668,-0.375,-0.5752524559655318,-0.375,-0.5802065465967817,-0.375,-0.5837172136925852
-0.374,-0.09677352688930327,-0.374,-0.1904948668254927,-0.374,-0.277710408828463,-0.374,-0.3543545503735078,-0.374,-0.4162315656240869,-0.374,-0.4617080733383411,-0.374,-0.4939326834674024,-0.374,-0.5172057564795848,-0.374,-0.5348468471966162,-0.374,-0.5487850268045967,-0.374,-0.5599043512782754,-0.374,-0.5686409674774126,-0.374,-0.5753212546105605,-0.374,-0.5802566574166693,-0.374,-0.5837522170416812
-0.373,-0.09677939586403131,-0.373,-0.1905096983972255,-0.373,-0.2777413492344936,-0.373,-0.3544149662359066,-0.373,-0.4163378369986632,-0.373,-0.4618594736609576,-0.373,-0.4941069002920248,-0.373,-0.5173826339286735,-0.373,-0.5350090621415202,-0.373,-0.5489251151165413,-0.373,-0.5600198126640532,-0.373,-0.5687322489586144,-0.373,-0.575390537798539,-0.373,-0.5803070999364554,-0.373,-0.5837874327383477
-0.372,-0.0967852551355711,-0.372,-0.1905245271806622,-0.372,-0.277772327758288,-0.372,-0.3544755331879368,-0.372,-0.4164445228653339,-0.372,-0.4620117111233673,-0.372,-0.4942822650213483,-0.372,-0.5175607711273342,-0.372,-0.5351724925061927,-0.372,-0.5490662597757795,-0.372,-0.5601361330296297,-0.372,-0.5688241906388849,-0.372,-0.5754603004931319,-0.372,-0.5803578697480524,-0.372,-0.5838228570453784
-0.371,-0.09679110305562272,-0.371,-0.190539349649444,-0.371,-0.2778033382865926,-0.371,-0.3545362411972762,-0.371,-0.4165516085937577,-0.371,-0.4621647700679976,-0.371,-0.49445876455238,-0.371,-0.5177401571623418,-0.371,-0.535337129844502,-0.371,-0.5492084535415853,-0.371,-0.5602533058782297,-0.371,-0.5689167866544271,-0.371,-0.575530537464838,-0.371,-0.5804089622891823,-0.371,-0.5838584861061147
-0.37,-0.09679693795472832,-0.37,-0.1905541622321075,-0.37,-0.2778343746266278,-0.37,-0.354597080090601,-0.37,-0.4166590792953668,-0.37,-0.462318634443205,-0.37,-0.4946363853625858,-0.37,-0.5179207807106215,-0.37,-0.5355029653426685,-0.37,-0.5493516888518802,-0.37,-0.5603713244345356,-0.37,-0.5690100309055851,-0.37,-0.5756012432900347,-0.37,-0.5804603728426301,-0.37,-0.5838943159438605
-0.369,-0.09680275814260228,-0.369,-0.1905689613129027,-0.369,-0.2778654305077125,-0.369,-0.3546580395564733,-0.369,-0.4167669198271,-0.369,-0.4624732878049064,-0.369,-0.494815113509749,-0.369,-0.5181026300384974,-0.369,-0.535669989817815,-0.369,-0.5494959578219165,-0.369,-0.5604901816434653,-0.369,-0.5691039170557586,-0.369,-0.5756724123500767,-0.369,-0.5805120965355408,-0.369,-0.5839303424613345
-0.368,-0.09680856190846254,-0.368,-0.1905837432326306,-0.368,-0.2778964995829247,-0.368,-0.3547191091483043,-0.368,-0.4168751147952802,-0.368,-0.4626287133183976,-0.368,-0.4949949346319642,-0.368,-0.5182856930010696,-0.368,-0.5358381937166034,-0.368,-0.5496412522430502,-0.368,-0.5606098701690261,-0.368,-0.5691984385303872,-0.368,-0.5757440388304542,-0.368,-0.5805641283387657,-0.368,-0.583966561440157
-0.367,-0.09681434752137721,-0.367,-0.1905985042894927,-0.367,-0.2779275754307963,-0.367,-0.3547802782873903,-0.367,-0.4169836485596355,-0.367,-0.4627848937603538,-0.367,-0.4951758339477641,-0.367,-0.5184699570417183,-0.367,-0.5360075671139688,-0.367,-0.5497875635816,-0.367,-0.5607303823932489,-0.367,-0.5692935885160046,-0.367,-0.5758161167200108,-0.367,-0.5806164630662567,-0.367,-0.5840029685403733
-0.366,-0.09682011323061093,-0.366,-0.1906132407399626,-0.366,-0.2779586515570437,-0.366,-0.3548415362660128,-0.366,-0.4170925052374617,-0.366,-0.4629418115210094,-0.366,-0.4953577962563765,-0.366,-0.5186554091917315,-0.366,-0.5361780997119407,-0.366,-0.5499348829777932,-0.366,-0.5608517104151994,-0.366,-0.5693893599593617,-0.366,-0.5758886398102173,-0.366,-0.5806690953745096,-0.366,-0.5840395593000097
-0.365,-0.096825857265979,-0.365,-0.1906279487996705,-0.365,-0.2779897213963277,-0.365,-0.354902872250604,-0.365,-0.4172016687079185,-0.365,-0.4630994486065241,-0.365,-0.4955408059381121,-0.365,-0.5188420360700617,-0.365,-0.5363497808385513,-0.365,-0.5500832012447942,-0.365,-0.5609738460500687,-0.365,-0.5694857455666171,-0.365,-0.5759616016945118,-0.365,-0.5807220197620568,-0.365,-0.5840763291346738
-0.364,-0.09683157783821816,-0.364,-0.1906426246442984,-0.364,-0.2780207783140427,-0.364,-0.3549642752849793,-0.364,-0.4173111226164634,-0.364,-0.4632577866415289,-0.364,-0.4957248469548822,-0.364,-0.5190298238832056,-0.364,-0.5365225994468376,-0.364,-0.5502325088678267,-0.364,-0.5610967808283441,-0.364,-0.5695827378026026,-0.364,-0.5760349957676942,-0.364,-0.580775230569011,-0.364,-0.584113273337184
-0.363,-0.09683727313938689,-0.363,-0.1906572644104949,-0.363,-0.2780518156081405,-0.363,-0.3550257342936239,-0.363,-0.4174208503794158,-0.363,-0.463416806871854,-0.363,-0.4959099028508479,-0.363,-0.5192187584252086,-0.363,-0.5366965441139268,-0.363,-0.5503827960033757,-0.363,-0.561220505995058,-0.363,-0.5696803288901569,-0.363,-0.5761088152253873,-0.363,-0.5808287219766596,-0.363,-0.584150387077241
-0.362,-0.09684294134307328,-0.362,-0.190671864196799,-0.362,-0.2780828265109723,-0.362,-0.3550872380850392,-0.362,-0.417530835188646,-0.362,-0.4635764901674419,-0.362,-0.4960959567531927,-0.362,-0.5194088250777912,-0.362,-0.5368716030402143,-0.362,-0.5505340524784775,-0.362,-0.5613450125091199,-0.362,-0.5697785108095319,-0.362,-0.5761830530635585,-0.362,-0.5808824880071098,-0.362,-0.5841876654011378
-0.361,-0.09684858060494567,-0.361,-0.190686420064575,-0.361,-0.2781138041911614,-0.361,-0.3551487753551431,-0.361,-0.4176410600163937,-0.361,-0.463736817025438,-0.361,-0.4962829913730281,-0.361,-0.5196000088106052,-0.361,-0.5370477640486258,-0.361,-0.5506862677901001,-0.361,-0.5614702910427251,-0.361,-0.5698772752978737,-0.361,-0.5762577020781045,-0.361,-0.5809365225229884,-0.361,-0.5842251032315061
-0.36,-0.09685418906306928,-0.36,-0.1907009280389601,-0.36,-0.2781447417554985,-0.36,-0.3552103346907211,-0.36,-0.4177515076202032,-0.36,-0.4638977675734647,-0.36,-0.4964709890064243,-0.36,-0.5197922941816028,-0.36,-0.537225014583965,-0.36,-0.5508394311046032,-0.36,-0.561596331980848,-0.36,-0.5699766138487721,-0.36,-0.576332754864501,-0.36,-0.5809908192271923,-0.36,-0.5842626953671023
-0.359,-0.09685976483828704,-0.359,-0.1907153841098171,-0.359,-0.2781756322508591,-0.359,-0.3552719045729231,-0.359,-0.4178621605479775,-0.359,-0.4640593215730768,-0.359,-0.4966599315355636,-0.359,-0.5199856653375341,-0.359,-0.5374033417123499,-0.359,-0.5509935312572894,-0.359,-0.5617231254208128,-0.359,-0.5700765177118879,-0.359,-0.5764082038175143,-0.359,-0.5810453716626932,-0.359,-0.5843004364826329
-0.358,-0.09686530603460175,-0.358,-0.1907297842327038,-0.358,-0.2782064686661376,-0.358,-0.3553334733808108,-0.358,-0.4179730011431477,-0.358,-0.4642214584233957,-0.358,-0.4968498004300267,-0.358,-0.5201801060145621,-0.358,-0.5375827321207319,-0.358,-0.5511485567520394,-0.358,-0.5618506611719489,-0.358,-0.5701769778926541,-0.358,-0.576484041130982,-0.358,-0.5811001732123964,-0.358,-0.5843383211286186
-0.357,-0.096870810739563,-0.357,-0.1907441243298405,-0.357,-0.2782372439342048,-0.357,-0.3553950293949419,-0.357,-0.4180840115499506,-0.357,-0.4643841571649257,-0.357,-0.497040576748195,-0.357,-0.5203755995389986,-0.357,-0.5377631721164995,-0.357,-0.5513044957610331,-0.357,-0.561978928755326,-0.357,-0.5702779851520481,-0.357,-0.576560258797655,-0.357,-0.581155217099054,-0.357,-0.5843763437313017
-0.356,-0.0968762770246539,-0.356,-0.1907584002910912,-0.356,-0.2782679509338771,-0.356,-0.355456560800996,-0.356,-0.4181951737188134,-0.356,-0.4645473964835451,-0.356,-0.4972322411387855,-0.356,-0.5205721288281566,-0.356,-0.5379446476271625,-0.356,-0.5514613361245547,-0.356,-0.5621079174035697,-0.356,-0.5703795300064427,-0.356,-0.5766368486091086,-0.356,-0.5812104963852335,-0.356,-0.5844144985925855
-0.355,-0.09688170294567969,-0.355,-0.1907726079749455,-0.355,-0.2782985824919045,-0.355,-0.3555180556934366,-0.355,-0.4183064694118415,-0.355,-0.4647111547146823,-0.355,-0.4974247738425009,-0.355,-0.5207696763913222,-0.355,-0.5381271442001256,-0.355,-0.5516190653508866,-0.355,-0.5622376160607632,-0.355,-0.5704816027275316,-0.355,-0.5767138021557195,-0.355,-0.5812660039733402,-0.355,-0.5844527798900244
-0.354,-0.09688708654315861,-0.354,-0.1907867432095104,-0.354,-0.2783291313849689,-0.354,-0.3555795020792065,-0.354,-0.4184178802084048,-0.354,-0.4648754098476622,-0.354,-0.4976181546938091,-0.354,-0.5209682243308412,-0.354,-0.5383106470025346,-0.354,-0.5517776706162834,-0.354,-0.5623680133824266,-0.354,-0.5705841933423295,-0.354,-0.5767911108267095,-0.354,-0.5813217326056982,-0.354,-0.5844911816768461
