;Version, 1, 0
;phase((VF("/out+") - VF("/out-"))) (VCTRL=0.02),;phase((VF("/out+") - VF("/out-"))) (VCTRL=0.04),;phase((VF("/out+") - VF("/out-"))) (VCTRL=0.06),;phase((VF("/out+") - VF("/out-"))) (VCTRL=0.08),;phase((VF("/out+") - VF("/out-"))) (VCTRL=0.1),;phase((VF("/out+") - VF("/out-"))) (VCTRL=0.12),;phase((VF("/out+") - VF("/out-"))) (VCTRL=0.14),;phase((VF("/out+") - VF("/out-"))) (VCTRL=0.16),;phase((VF("/out+") - VF("/out-"))) (VCTRL=0.18),;phase((VF("/out+") - VF("/out-"))) (VCTRL=0.2)
;X, Y,;X, Y,;X, Y,;X, Y,;X, Y,;X, Y,;X, Y,;X, Y,;X, Y,;X, Y
;Re, Re,;Re, Re,;Re, Re,;Re, Re,;Re, Re,;Re, Re,;Re, Re,;Re, Re,;Re, Re,;Re, Re
;freq, V,;freq, V,;freq, V,;freq, V,;freq, V,;freq, V,;freq, V,;freq, V,;freq, V,;freq, V
;Hz, deg,;Hz, deg,;Hz, deg,;Hz, deg,;Hz, deg,;Hz, deg,;Hz, deg,;Hz, deg,;Hz, deg,;Hz, deg
1000000,-0.02523494509176217,1000000,-0.0252893235411948,1000000,-0.02538554791118297,1000000,-0.02553243077068291,1000000,-0.02574292793658043,1000000,-0.02603390699631222,1000000,-0.02642366793353605,1000000,-0.02692141819500502,1000000,-0.02752639534274269,1000000,-0.02817956736790546
1002305.2380779,-0.02529311764620832,1002305.2380779,-0.02534762145090567,1002305.2380779,-0.02544406764096218,1002305.2380779,-0.02559128910040217,1002305.2380779,-0.0258022715123514,1002305.2380779,-0.02609392134804807,1002305.2380779,-0.02648458077696442,1002305.2380779,-0.02698347847120584,1002305.2380779,-0.02758985023518973,1002305.2380779,-0.02824452797724326
1004615.790278395,-0.02535142430222896,1004615.790278395,-0.02540605375116477,1004615.790278395,-0.0255027222726377,1004615.790278395,-0.02565028311257104,1004615.790278395,-0.02586175188917947,1004615.790278395,-0.02615407404713897,1004615.790278395,-0.02654563403898468,1004615.790278395,-0.02704568181110369,1004615.790278395,-0.02765345140625553,1004615.790278395,-0.0283096383362348
1006931.668851804,-0.02540986536896017,1006931.668851804,-0.02546462075177434,1006931.668851804,-0.02556151211719037,1006931.668851804,-0.02570941311996973,1006931.668851804,-0.02592136938242351,1006931.668851804,-0.02621436541250841,1006931.668851804,-0.02660682804329503,1006931.668851804,-0.02710802854449434,1006931.668851804,-0.02771719919314699,1006931.668851804,-0.02837489879008857
1009252.886076684,-0.02546844115625065,1009252.886076684,-0.0255233227632506,1009252.886076684,-0.02562043748631803,1009252.886076684,-0.0257686794360996,1009252.886076684,-0.02598112430816939,1009252.886076684,-0.0262747957638151,1009252.886076684,-0.02666816311433984,1009252.886076684,-0.02717051900193385,1009252.886076684,-0.02778109393384841,1009252.886076684,-0.02844030968480881
1011579.454259898,-0.02552715197466313,1011579.454259898,-0.02558216009682566,1011579.454259898,-0.02567949869243688,1011579.454259898,-0.02582808237518458,1011579.454259898,-0.0260410169832317,1011579.454259898,-0.02633536542145461,1011579.454259898,-0.02672963957731142,1011579.454259898,-0.02723315351474027,1011579.454259898,-0.02784513596712317,1011579.454259898,-0.02850587136719746
1013911.385736679,-0.02558599813547639,1013911.385736679,-0.02564113306444902,1013911.385736679,-0.02573869604868353,1013911.385736679,-0.02588762225217306,1013911.385736679,-0.02610104772515529,1013911.385736679,-0.02639607470656112,1013911.385736679,-0.02679125775815176,1013911.385736679,-0.02729593241499539,1013911.385736679,-0.02790932563251564,1013911.385736679,-0.02857158418485587
1016248.692870695,-0.02564497995068693,1016248.692870695,-0.02570024197878951,1016248.692870695,-0.02579802986891635,1016248.692870695,-0.02594729938273934,1016248.692870695,-0.02616121685221703,1016248.692870695,-0.02645692394100907,1016248.692870695,-0.02685301798355413,1016248.692870695,-0.02735885603554657,1016248.692870695,-0.02797366327035288,1016248.692870695,-0.02863744848618668
1018591.388054117,-0.02570409773301028,1018591.388054117,-0.02575948715323641,1018591.388054117,-0.02585750046771717,1018591.388054117,-0.0260071140832856,1018591.388054117,-0.02622152468342756,1018591.388054117,-0.0265179134474149,1018591.388054117,-0.026914920580965,1018591.388054117,-0.02742192471000841,1018591.388054117,-0.02803814922174649,1018591.388054117,-0.02870346462039572
1020939.483707679,-0.02576335179588286,1020939.483707679,-0.02581886890190173,1020939.483707679,-0.02591710816039306,1020939.483707679,-0.02606706667094325,1020939.483707679,-0.02628197153853282,1020939.483707679,-0.02657904354913878,1020939.483707679,-0.02697696587858563,1020939.483707679,-0.02748513877276463,1020939.483707679,-0.02810278382859441,1020939.483707679,-0.0287696329374938
1023292.992280754,-0.02582274245346375,1023292.992280754,-0.02587838753962142,1023292.992280754,-0.02597685326297797,1023292.992280754,-0.02612715746357478,1023292.992280754,-0.02634255773801593,1023292.992280754,-0.0266403145702863,1023292.992280754,-0.02703915420537386,1023292.992280754,-0.02754849855896975,1023292.992280754,-0.02816756743358274,1023292.992280754,-0.0288359537882986
1025651.926251407,-0.02588227002063612,1025651.926251407,-0.02593804338195723,1025651.926251407,-0.02603673609223437,1025651.926251407,-0.02618738677977551,1025651.926251407,-0.02640328360309872,1025651.926251407,-0.02670172683571017,1025651.926251407,-0.02710148589104589,1025651.926251407,-0.02761200440455089,1025651.926251407,-0.02823250038018757,1025651.926251407,-0.02890242752443647
1028016.298126473,-0.02594193481300907,1028016.298126473,-0.02599783674519849,1028016.298126473,-0.02609675696565496,1028016.298126473,-0.02624775493887511,1028016.298126473,-0.02646414945574357,1028016.298126473,-0.02676328067101197,1028016.298126473,-0.02716396126607797,1028016.298126473,-0.02767565664620961,1028016.298126473,-0.02829758301267674,1028016.298126473,-0.02896905449834443
1030386.120441615,-0.02600173714691945,1030386.120441615,-0.02605776794636335,1030386.120441615,-0.02615691620146419,1030386.120441615,-0.02630826226093947,1030386.120441615,-0.02652515561865505,1030386.120441615,-0.02682497640254389,1030386.120441615,-0.02722658066170817,1030386.120441615,-0.02773945562142357,1030386.120441615,-0.02836281567611176,1030386.120441615,-0.02903583506327188
1032761.405761397,-0.02606167733943287,1032761.405761397,-0.02611783730320104,1032761.405761397,-0.02621721411862033,1032761.405761397,-0.0263689090667722,1032761.405761397,-0.02658630241528159,1032761.405761397,-0.02688681435741039,1032761.405761397,-0.02728934440993816,1032761.405761397,-0.02780340166844848,1032761.405761397,-0.02842819871634955,1032761.405761397,-0.02910276957328254
1035142.166679343,-0.02612175570834621,1035142.166679343,-0.02617804513419318,1035142.166679343,-0.02627765103681674,1035142.166679343,-0.02642969567791653,1035142.166679343,-0.02664759016981731,1035142.166679343,-0.02694879486347005,1035142.166679343,-0.02735225284353495,1035142.166679343,-0.02786749512631972,1035142.166679343,-0.02849373248004431,1035142.166679343,-0.02916985838325639
1037528.415818012,-0.02618197257218913,1037528.415818012,-0.02623839175855554,1037528.415818012,-0.02633822727648382,1037528.415818012,-0.02649062241665686,1037528.415818012,-0.02670901920720365,1037528.415818012,-0.02701091824933718,1037528.415818012,-0.02741530629603262,1037528.415818012,-0.02793173633485431,1037528.415818012,-0.02855941731464941,1037528.415818012,-0.02923710184889143
1039920.165829058,-0.02624232825022485,1039920.165829058,-0.02629887749623978,1039920.165829058,-0.02639894315879063,1039920.165829058,-0.02655168960602058,1039920.165829058,-0.02677058985313112,1039920.165829058,-0.02707318484438363,1039920.165829058,-0.02747850510173418,1039920.165829058,-0.02799612563465258,1039920.165829058,-0.02862525356841913,1039920.165829058,-0.02930450032670568
1042317.429393303,-0.02630282306245352,1042317.429393303,-0.02635950266793518,1042317.429393303,-0.02645979900564662,1042317.429393303,-0.02661289756977974,1042317.429393303,-0.02683230243404097,1042317.429393303,-0.02713559497874058,1042317.429393303,-0.02754184959571324,1042317.429393303,-0.02806066336710004,1042317.429393303,-0.02869124159041056,1042317.429393303,-0.02937205417403896
1044720.219220799,-0.02636345732961215,1044720.219220799,-0.02642026759507018,1044720.219220799,-0.02652079513970328,1044720.219220799,-0.02667424663245269,1044720.219220799,-0.02689415727712708,1044720.219220799,-0.02719814898330019,1044720.219220799,-0.02760534011381588,1044720.219220799,-0.02812534987436918,1044720.219220799,-0.02875738173048548,1044720.219220799,-0.02943976374905489
1047128.548050899,-0.02642423137317763,1047128.548050899,-0.02648117259981423,1047128.548050899,-0.0265819318843559,1047128.548050899,-0.02673573711930591,1047128.548050899,-0.0269561547103375,1047128.548050899,-0.02726084718971745,1047128.548050899,-0.02766897699266234,1047128.548050899,-0.02819018549942123,1047128.548050899,-0.02882367433931215,1047128.548050899,-0.02950762941074272
1049542.428652321,-0.02648514551536751,1049542.428652321,-0.02654221800507954,1049542.428652321,-0.02664320956374528,1049542.428652321,-0.02679736935635572,1049542.428652321,-0.02701829506237634,1049542.428652321,-0.02732368993041181,1049542.428652321,-0.02773276056964887,1049542.428652321,-0.02825517058600812,1049542.428652321,-0.02889011976836724,1049542.428652321,-0.02957565151891927
1051961.873823222,-0.02654620007914264,1051961.873823222,-0.0266034041345225,1051961.873823222,-0.02670462850275947,1051961.873823222,-0.02685914367037,1051961.873823222,-0.02708057866270537,1051961.873823222,-0.02738667753856911,1051961.873823222,-0.02779669118294952,1051961.873823222,-0.02832030547867412,1051961.873823222,-0.02895671836993763,1051961.873823222,-0.0296438304342308
1054386.896391258,-0.02660739538820813,1054386.896391258,-0.02666473131254586,1054386.896391258,-0.02676618902703538,1054386.896391258,-0.02692106038886979,1054386.896391258,-0.02714300584154592,1054386.896391258,-0.02744981034814325,1054386.896391258,-0.02786076917151784,1054386.896391258,-0.02838559052275779,1054386.896391258,-0.0290234704971223,1054386.896391258,-0.02971216651815496
1056817.509213657,-0.02666873176701497,1056817.509213657,-0.02672619986430004,1056817.509213657,-0.02682789146296065,1056817.509213657,-0.02698311984013131,1056817.509213657,-0.02720557692988053,1056817.509213657,-0.02751308869385794,1056817.509213657,-0.02792499487508884,1056817.509213657,-0.02845102606439379,1056817.509213657,-0.02909037650383423,1056817.509213657,-0.02978066013300271
1059253.725177287,-0.02673020954076268,1059253.725177287,-0.02678781011568496,1059253.725177287,-0.02688973613767531,1059253.725177287,-0.02704532235318741,1059253.725177287,-0.02726829225945475,1059253.725177287,-0.02757651291120852,1059253.725177287,-0.02798936863418061,1059253.725177287,-0.02851661245051467,1059253.725177287,-0.02915743674480223,1059253.725177287,-0.02984931164192017
1061695.557198723,-0.02679182903539993,1061695.557198723,-0.0268495623933521,1061695.557198723,-0.02695172337907359,1061695.557198723,-0.02710766825782945,1061695.557198723,-0.02733115216277885,1061695.557198723,-0.02764008333646372,1061695.557198723,-0.02805389079009632,1061695.557198723,-0.02858235002885279,1061695.557198723,-0.02922465157557287,1061695.557198723,-0.02991812140889064
1064143.018224314,-0.02685359057762725,1064143.018224314,-0.02691145702470556,1064143.018224314,-0.02701385351580546,1064143.018224314,-0.02717015788460914,1064143.018224314,-0.02739415697312965,1064143.018224314,-0.02770380030666746,1064143.018224314,-0.0281185616849258,1064143.018224314,-0.02864823914794206,1064143.018224314,-0.02929202135251231,1064143.018224314,-0.02998708979873647
1066596.121230256,-0.02691549449489787,1066596.121230256,-0.02697349433790449,1066596.121230256,-0.02707612687727859,1066596.121230256,-0.02723279156484004,1066596.121230256,-0.02745730702455223,1066596.121230256,-0.02776766415964064,1066596.121230256,-0.02818338166154759,1066596.121230256,-0.02871428015711986,1066596.121230256,-0.02935954643280823,1066596.121230256,-0.03005621717712105
1069054.879222656,-0.02697754111542016,1069054.879222656,-0.02703567466186426,1069054.879222656,-0.02713854379366001,1069054.879222656,-0.02729556963059961,1069054.879222656,-0.02752060265186172,1069054.879222656,-0.02783167523398289,1069054.879222656,-0.02824835106363055,1069054.879222656,-0.02878047340652892,1069054.879222656,-0.02942722717447172,1069054.879222656,-0.03012550391055063
1071519.305237605,-0.02703973076815893,1071519.305237605,-0.02709799832625872,1071519.305237605,-0.02720110459587783,1071519.305237605,-0.02735849241473069,1071519.305237605,-0.02758404419064508,1071519.305237605,-0.02789583386907437,1071519.305237605,-0.02831347023563589,1071519.305237605,-0.02884681924711909,1071519.305237605,-0.02949506393633914,1071519.305237605,-0.03019495036637641
1073989.412341243,-0.02710206378283724,1073989.412341243,-0.0271604656615216,1073989.412341243,-0.02726380961562311,1073989.412341243,-0.02742156025084352,1073989.412341243,-0.02764763197726289,1073989.412341243,-0.02796014040507767,1073989.412341243,-0.02837873952281875,1073989.412341243,-0.02891331803064921,1073989.412341243,-0.02956305707807411,1073989.412341243,-0.03026455691279641
1076465.213629833,-0.02716454048993874,1076465.213629833,-0.02722307699884825,1076465.213629833,-0.02732665918535143,1076465.213629833,-0.02748477347331732,1076465.213629833,-0.02771136634885113,1076465.213629833,-0.02802459518293946,1076465.213629833,-0.02844415927123027,1076465.213629833,-0.02897997010968908,1076465.213629833,-0.0296312069601693,1076465.213629833,-0.0303343239188574
1078946.722229827,-0.02722716122070818,1078946.722229827,-0.02728583267019774,1078946.722229827,-0.02738965363828479,1078946.722229827,-0.02754813241730214,1078946.722229827,-0.02777524764332292,1078946.722229827,-0.02808919854439241,1078946.722229827,-0.02850972982771928,1078946.722229827,-0.02904677583762118,1078946.722229827,-0.02969951394394843,1078946.722229827,-0.03040425175445693
1081433.951297936,-0.02728992630715452,1081433.951297936,-0.02734873300829416,1081433.951297936,-0.02745279330841333,1081433.951297936,-0.02761163741872065,1081433.951297936,-0.02783927619937037,1081433.951297936,-0.02815395083195692,1081433.951297936,-0.02857545153993416,1081433.951297936,-0.0291137355686427,1081433.951297936,-0.02976797839156814,1081433.951297936,-0.03047434079034523
1083926.914021201,-0.02735283608205169,1083926.914021201,-0.02741177834662873,1083926.914021201,-0.02751607853049722,1083926.914021201,-0.02767528881426994,1083926.914021201,-0.02790345235646636,1083926.914021201,-0.02821885238894306,1083926.914021201,-0.02864132475632474,1083926.914021201,-0.02918084965776727,1083926.914021201,-0.02983660066601996,1083926.914021201,-0.03054459139812721
1086425.623617063,-0.02741589087894113,1086425.623617063,-0.02747496901946129,1086425.623617063,-0.02757950964006823,1086425.623617063,-0.02773908694142311,1086425.623617063,-0.02796777645486633,1086425.623617063,-0.02828390355945226,1086425.623617063,-0.02870734982614408,1086425.623617063,-0.02924811846082696,1086425.623617063,-0.02990538113113215,1086425.623617063,-0.03061500395026441
1088930.093333431,-0.02747909103213278,1088930.093333431,-0.02753830536182244,1088930.093333431,-0.02764308697343161,1088930.093333431,-0.02780303213843142,1088930.093333431,-0.02803224883561008,1088930.093333431,-0.02834910468837916,1088930.093333431,-0.02877352709945038,1088930.093333431,-0.02931554233447409,1088930.093333431,-0.02997432015157171,1088930.093333431,-0.03068557882007695
1091440.336448754,-0.02754243687670751,1091440.336448754,-0.02760178770951508,1091440.336448754,-0.02770681086766794,1091440.336448754,-0.02786712474432579,1091440.336448754,-0.02809686984052361,1091440.336448754,-0.0284144561214135,1091440.336448754,-0.02883985692710877,1091440.336448754,-0.02938312163618315,1091440.336448754,-0.03004341809284631,1091440.336448754,-0.03075631638174562
1093956.366272091,-0.02760592874851833,1093956.366272091,-0.02766541639911598,1093956.366272091,-0.02777068166063476,1093956.366272091,-0.02793136509891859,1093956.366272091,-0.02816163981222089,1093956.366272091,-0.02847995820504193,1093956.366272091,-0.02890633966079324,1093956.366272091,-0.02945085672425269,1093956.366272091,-0.03011267532130613,1093956.366272091,-0.03082721701031369
1096478.196143182,-0.02766956698419293,1096478.196143182,-0.02772919176797805,1096478.196143182,-0.02783469969096851,1096478.196143182,-0.02799575354280571,1096478.196143182,-0.02822655909410571,1096478.196143182,-0.0285456112865498,1096478.196143182,-0.02897297565298844,1096478.196143182,-0.02951874795780722,1096478.196143182,-0.03018209220414597,1096478.196143182,-0.03089828108168906
1099005.839432518,-0.02773335192113458,1099005.839432518,-0.02779311415423185,1099005.839432518,-0.02789886529808632,1099005.839432518,-0.02806029041736805,1099005.839432518,-0.02829162803037347,1099005.839432518,-0.02861141571402305,1099005.839432518,-0.02903976525699162,1099005.839432518,-0.02958679569679915,1099005.839432518,-0.03025166910940699,1099005.839432518,-0.03096950897264615
1101539.309541412,-0.02779728389752442,1101539.309541412,-0.02785718389678724,1101539.309541412,-0.02796317882218761,1101539.309541412,-0.02812497606477362,1101539.309541412,-0.02835684696601301,1101539.309541412,-0.02867737183635005,1101539.309541412,-0.02910670882691441,1101539.309541412,-0.02965500030201063,1101539.309541412,-0.03032140640597887,1101539.309541412,-0.03104090106082798
1104078.61990207,-0.02786136325232354,1104078.61990207,-0.02792140133533552,1104078.61990207,-0.02802764060425618,1104078.61990207,-0.02818981082797904,1104078.61990207,-0.02842221624680852,1104078.61990207,-0.02874348000322339,1104078.61990207,-0.02917380671768481,1104078.61990207,-0.02972336213505548,1104078.61990207,-0.0303913044636016,1104078.61990207,-0.03111245772474806
1106623.783977663,-0.0279255903252741,1106623.783977663,-0.02798576681035099,1106623.783977663,-0.02809225098606179,1106623.783977663,-0.0282547950507316,1106623.783977663,-0.0284877362193412,1106623.783977663,-0.02880974056514183,1106623.783977663,-0.02924105928504896,1106623.783977663,-0.02979188155838119,1106623.783977663,-0.03046136365286751,1106623.783977663,-0.03118417934379251
1109174.815262398,-0.02798996545690111,1109174.815262398,-0.0280502806630928,1109174.815262398,-0.02815701031016207,1109174.815262398,-0.02831992907757106,1109174.815262398,-0.02855340723099131,1109174.815262398,-0.02887615387341214,1109174.815262398,-0.02930846688557312,1109174.815262398,-0.02986055893527071,1109174.815262398,-0.03053158434522333,1109174.815262398,-0.03125606629822202
1111731.727281588,-0.02805448898851529,1111731.727281588,-0.02811494323560684,1111731.727281588,-0.02822191891990441,1111731.727281588,-0.02838521325383139,1111731.727281588,-0.0286192296299398,1111731.727281588,-0.02894272028015088,1111731.727281588,-0.02937602987664548,1111731.727281588,-0.0299293946298445,1111731.727281588,-0.03060196691297193,1111731.727281588,-0.03132811896917385
1114294.533591727,-0.02811916126221385,1114294.533591727,-0.02817975487072752,1114294.533591727,-0.02828697715942755,1114294.533591727,-0.02845064792564259,1114294.533591727,-0.0286852037651703,1114294.533591727,-0.02900944013828632,1114294.533591727,-0.02944374861647814,1114294.533591727,-0.02999838900706235,1114294.533591727,-0.03067251172927449,1114294.533591727,-0.03140033773866387
1116863.247780558,-0.02818398262088256,1116863.247780558,-0.02824471591207938,1116863.247780558,-0.02835218537366371,1116863.247780558,-0.02851623343993267,1116863.247780558,-0.02875132998647099,1116863.247780558,-0.02907631380156035,1116863.247780558,-0.02951162346410893,1116863.247780558,-0.03006754243272543,1116863.247780558,-0.03074321916815241,1116863.247780558,-0.03147272298958863
