;Version, 1, 0
;phase((VF("/out+") - VF("/out-"))) (VCTRL=0.02),;phase((VF("/out+") - VF("/out-"))) (VCTRL=0.04),;phase((VF("/out+") - VF("/out-"))) (VCTRL=0.06),;phase((VF("/out+") - VF("/out-"))) (VCTRL=0.08),;phase((VF("/out+") - VF("/out-"))) (VCTRL=0.1),;phase((VF("/out+") - VF("/out-"))) (VCTRL=0.12),;phase((VF("/out+") - VF("/out-"))) (VCTRL=0.14),;phase((VF("/out+") - VF("/out-"))) (VCTRL=0.16),;phase((VF("/out+") - VF("/out-"))) (VCTRL=0.18),;phase((VF("/out+") - VF("/out-"))) (VCTRL=0.2),;phase((VF("/out+") - VF("/out-"))) (VCTRL=0.22),;phase((VF("/out+") - VF("/out-"))) (VCTRL=0.24),;phase((VF("/out+") - VF("/out-"))) (VCTRL=0.26),;phase((VF("/out+") - VF("/out-"))) (VCTRL=0.28),;phase((VF("/out+") - VF("/out-"))) (VCTRL=0.3)
;X, Y,;X, Y,;X, Y,;X, Y,;X, Y,;X, Y,;X, Y,;X, Y,;X, Y,;X, Y,;X, Y,;X, Y,;X, Y,;X, Y,;X, Y
;Re, Re,;Re, Re,;Re, Re,;Re, Re,;Re, Re,;Re, Re,;Re, Re,;Re, Re,;Re, Re,;Re, Re,;Re, Re,;Re, Re,;Re, Re,;Re, Re,;Re, Re
;freq, V,;freq, V,;freq, V,;freq, V,;freq, V,;freq, V,;freq, V,;freq, V,;freq, V,;freq, V,;freq, V,;freq, V,;freq, V,;freq, V,;freq, V
;Hz, deg,;Hz, deg,;Hz, deg,;Hz, deg,;Hz, deg,;Hz, deg,;Hz, deg,;Hz, deg,;Hz, deg,;Hz, deg,;Hz, deg,;Hz, deg,;Hz, deg,;Hz, deg,;Hz, deg
1000000,-0.02608239302845172,1000000,-0.02614037712170757,1000000,-0.02624307072376082,1000000,-0.02640005095016244,1000000,-0.02662549020446162,1000000,-0.02693804174071067,1000000,-0.02735838099851738,1000000,-0.02789738800798242,1000000,-0.02855640966292169,1000000,-0.02927518923595821,1000000,-0.02996045103384457,1000000,-0.03054699997097665,1000000,-0.03098318471932901,1000000,-0.03128780804286172,1000000,-0.03150102760026398
1002305.2380779,-0.02614251915209924,1002305.2380779,-0.02620063691248672,1002305.2380779,-0.02630356724772744,1002305.2380779,-0.02646090935090199,1002305.2380779,-0.02668686829632137,1002305.2380779,-0.02700014033822538,1002305.2380779,-0.02742144857802712,1002305.2380779,-0.0279616981268812,1002305.2380779,-0.02862223898350804,1002305.2380779,-0.02934267551443251,1002305.2380779,-0.03002951700374393,1002305.2380779,-0.03061741807566328,1002305.2380779,-0.03105460833357845,1002305.2380779,-0.03135993388629926,1002305.2380779,-0.03157364496547154
1004615.790278395,-0.02620278388076317,1004615.790278395,-0.02626103561641684,1004615.790278395,-0.02636420323057119,1004615.790278395,-0.02652190804473068,1004615.790278395,-0.02674838787928175,1004615.790278395,-0.02706238208777747,1004615.790278395,-0.02748466154330791,1004615.790278395,-0.02802615649589951,1004615.790278395,-0.02868822005633467,1004615.790278395,-0.02941031736482844,1004615.790278395,-0.03009874218712857,1004615.790278395,-0.03068799851082672,1004615.790278395,-0.03112619659624274,1004615.790278395,-0.03143222599695646,1004615.790278395,-0.03164642973097294
1006931.668851804,-0.02626318753396085,1006931.668851804,-0.02632157355372557,1006931.668851804,-0.02642497899377789,1006931.668851804,-0.02658304735505732,1006931.668851804,-0.02681004927951332,1006931.668851804,-0.02712476731936636,1006931.668851804,-0.02754802022950853,1006931.668851804,-0.02809076345678909,1006931.668851804,-0.02875435323122649,1006931.668851804,-0.02947811514577616,1006931.668851804,-0.03016812695102338,1006931.668851804,-0.0307587416506772,1006931.668851804,-0.03119794988687552,1006931.668851804,-0.03150468475811867,1006931.668851804,-0.03171938228266555
1009252.886076684,-0.02632373043194651,1009252.886076684,-0.02638225104537894,1009252.886076684,-0.02648589485957446,1009252.886076684,-0.02664432760603633,1009252.886076684,-0.02687185282393859,1009252.886076684,-0.02718729636375219,1009252.886076684,-0.02761152497255025,1009252.886076684,-0.02815551935208949,1009252.886076684,-0.02882063885881486,1009252.886076684,-0.02954606921673265,1009252.886076684,-0.03023767166329928,1009252.886076684,-0.03082964787028768,1009252.886076684,-0.03126986858590543,1009252.886076684,-0.03157731055395486,1009252.886076684,-0.03179250300733636
1011579.454259898,-0.02638441289571229,1011579.454259898,-0.02644306841308288,1011579.454259898,-0.02654695115093061,1011579.454259898,-0.0267057491225694,1011579.454259898,-0.02693379884023365,1011579.454259898,-0.02724996955245762,1011579.454259898,-0.02767517610912877,1011579.454259898,-0.02822042452512984,1011579.454259898,-0.02888707729053943,1011579.454259898,-0.02961417993798341,1011579.454259898,-0.03030737669267524,1011579.454259898,-0.03090071754559566,1011579.454259898,-0.03134195307463803,1011579.454259898,-0.03165010376951954,1011579.454259898,-0.03186579229266395
1013911.385736679,-0.02644523524699057,1013911.385736679,-0.02650402597928492,1013911.385736679,-0.02660814819156064,1013911.385736679,-0.02676731223030715,1013911.385736679,-0.02699588765682997,1013911.385736679,-0.02731278721776949,1013911.385736679,-0.02773897397671594,1013911.385736679,-0.0282854793200308,1013911.385736679,-0.02895366887864999,1013911.385736679,-0.02968244767064456,1013911.385736679,-0.03037724240872023,1013911.385736679,-0.0309719510534053,1013911.385736679,-0.03141420373525796,1013911.385736679,-0.03172306479075492,1013911.385736679,-0.03193925052722062
1016248.692870695,-0.02650619780825509,1016248.692870695,-0.02656512406717584,1016248.692870695,-0.02666948630592502,1016248.692870695,-0.02682901725565096,1016248.692870695,-0.02705811960291615,1016248.692870695,-0.0273757496927407,1016248.692870695,-0.02780291891356156,1016248.692870695,-0.02835068408170622,1016248.692870695,-0.02902041397620835,1016248.692870695,-0.02975087277666467,1016248.692870695,-0.03044726918185514,1016248.692870695,-0.0310433487713894,1016248.692870695,-0.03148662095083079,1016248.692870695,-0.03179619400449286,1016248.692870695,-0.03201287810047443
1018591.388054117,-0.02656730090272325,1018591.388054117,-0.02662636300069141,1018591.388054117,-0.02673096581923223,1018591.388054117,-0.02689086452575449,1018591.388054117,-0.02712049500843965,1018591.388054117,-0.02743885731119189,1018591.388054117,-0.02786701125869519,1018591.388054117,-0.02841603915586516,1018591.388054117,-0.02908731293709026,1018591.388054117,-0.02981945561882668,1018591.388054117,-0.03051745738335476,1018591.388054117,-0.03111491107809135,1018591.388054117,-0.0315592051053052,1018591.388054117,-0.03186949179845697,1018591.388054117,-0.03208667540279122
1020939.483707679,-0.02662854485435748,1020939.483707679,-0.02668774310451434,1020939.483707679,-0.02679258705744028,1020939.483707679,-0.02695285436852579,1020939.483707679,-0.02718301420410853,1020939.483707679,-0.02750211040771322,1020939.483707679,-0.02793125135192792,1020939.483707679,-0.02848154488901353,1020939.483707679,-0.02915436611598715,1020939.483707679,-0.02988819656074981,1020939.483707679,-0.03058780738534979,1020939.483707679,-0.03118663835292719,1020939.483707679,-0.031631956583515,1020939.483707679,-0.03194295856126467,1020939.483707679,-0.03216064282543671
1023292.992280754,-0.02668992998786705,1023292.992280754,-0.02674926470407575,1023292.992280754,-0.02685435034725887,1023292.992280754,-0.02701498711262865,1023292.992280754,-0.02724567752139317,1023292.992280754,-0.02756550931766617,1023292.992280754,-0.02799563953385418,1023292.992280754,-0.0285472016284561,1023292.992280754,-0.02922157386840816,1023292.992280754,-0.02995709596689152,1023292.992280754,-0.03065831956082875,1023292.992280754,-0.0312585309761876,1023292.992280754,-0.03170487577118102,1023292.992280754,-0.03201659468242921,1023292.992280754,-0.03223478076057863
1025651.926251407,-0.02675145662870952,1025651.926251407,-0.02681092812555679,1025651.926251407,-0.02691625601615053,1025651.926251407,-0.02707726308748459,1025651.926251407,-0.02730848529252817,1025651.926251407,-0.02762905437718534,1025651.926251407,-0.02806017614585356,1025651.926251407,-0.02861300972229818,1025651.926251407,-0.02928893655068195,1025651.926251407,-0.03002615420254946,1025651.926251407,-0.03072899428364,1025651.926251407,-0.03133058932903994,1025651.926251407,-0.03177796305491339,1025651.926251407,-0.03209040055236177,1025651.926251407,-0.03230908960128875
1028016.298126473,-0.02681312510309302,1028016.298126473,-0.02687273369589066,1028016.298126473,-0.02697830439233298,1028016.298126473,-0.02713968262327446,1028016.298126473,-0.02737143785051386,1028016.298126473,-0.02769274592318013,1028016.298126473,-0.02812486153009262,1028016.298126473,-0.0286789695194476,1028016.298126473,-0.02935645451995859,1028016.298126473,-0.03009537163386334,1028016.298126473,-0.0307998319284937,1028016.298126473,-0.03140281379353021,1028016.298126473,-0.03185121882221339,1028016.298126473,-0.0321643765623735,1028016.298126473,-0.03238356974154488
1030386.120441615,-0.02687493573797741,1030386.120441615,-0.02693468174276428,1030386.120441615,-0.02704049580478028,1030386.120441615,-0.0272022460509403,1030386.120441615,-0.02743453552911838,1030386.120441615,-0.02775658429333664,1030386.120441615,-0.02818969602952666,1030386.120441615,-0.02874508136961649,1030386.120441615,-0.02942412813421147,1030386.120441615,-0.0301647486278169,1030386.120441615,-0.03087083287096381,1030386.120441615,-0.03147520475258517,1030386.120441615,-0.0319246434614756,1030386.120441615,-0.03223852310467764,1030386.120441615,-0.03245822157623313
1032761.405761397,-0.02693688886107648,1032761.405761397,-0.02699677259461983,1032761.405761397,-0.02710283058322503,1032761.405761397,-0.02726495370218709,1032761.405761397,-0.02749777866287915,1032761.405761397,-0.02782056982611946,1032761.405761397,-0.02825467998790162,1032761.405761397,-0.02881134562332311,1032761.405761397,-0.02949195775223922,1032761.405761397,-0.03023428555223992,1032761.405761397,-0.03094199748749007,1032761.405761397,-0.03154776259001423,1032761.405761397,-0.03199823736198996,1032761.405761397,-0.03231284057239159,1032761.405761397,-0.03253304550114987
1035142.166679343,-0.02699898480085939,1035142.166679343,-0.02705900658065668,1035142.166679343,-0.02716530905815982,1035142.166679343,-0.02732780590948436,1035142.166679343,-0.02756116758710486,1035142.166679343,-0.02788470286077334,1035142.166679343,-0.02831981374975582,1035142.166679343,-0.02887776263189384,1035142.166679343,-0.02955994373366752,1035142.166679343,-0.03030398277581004,1035142.166679343,-0.03101332615538002,1035142.166679343,-0.03162048769051168,1035142.166679343,-0.03207200091394379,1035142.166679343,-0.03238732935953893,1035142.166679343,-0.03260804191300389
1037528.415818012,-0.02706122388655248,1037528.415818012,-0.02712138403083316,1037528.415818012,-0.02722793156083926,1037528.415818012,-0.02739080300606814,1037528.415818012,-0.0276247026378771,1037528.415818012,-0.02794898373732509,1037528.415818012,-0.02838509766042182,1037528.415818012,-0.02894433274746485,1037528.415818012,-0.02962808643895113,1037528.415818012,-0.03037384066805485,1037528.415818012,-0.03108481925281095,1037528.415818012,-0.03169338043965853,1037528.415818012,-0.03214593450842389,1037528.415818012,-0.03246198986105159,1037528.415818012,-0.03268321120941846
1039920.165829058,-0.02712360644814112,1039920.165829058,-0.02718390527586809,1039920.165829058,-0.02729069842328142,1039920.165829058,-0.02745394532594262,1039920.165829058,-0.02768838415205229,1039920.165829058,-0.02801341279658537,1039920.165829058,-0.0284505320660283,1039920.165829058,-0.02901105632298412,1039920.165829058,-0.02969638622937572,1039920.165829058,-0.03044385959935375,1039920.165829058,-0.03115647715883198,1039920.165829058,-0.0317664412239247,1039920.165829058,-0.03222003853741862,1039920.165829058,-0.03253682247277193,1039920.165829058,-0.03275855378893352
1042317.429393303,-0.02718613281637122,1042317.429393303,-0.02724657064724284,1042317.429393303,-0.02735360997826982,1042317.429393303,-0.02751723320388194,1042317.429393303,-0.02775221246726331,1042317.429393303,-0.02807799038015055,1042317.429393303,-0.02851611731350178,1042317.429393303,-0.02907793371221327,1042317.429393303,-0.02976484346705984,1042317.429393303,-0.03051403994094,1042317.429393303,-0.03122830025336599,1042317.429393303,-0.03183967043067099,1042317.429393303,-0.03229431339381996,1042317.429393303,-0.03261182759145473,1042317.429393303,-0.0328340700510077
1044720.219220799,-0.02724880332275116,1044720.219220799,-0.0273093804772028,1044720.219220799,-0.02741666655935522,1044720.219220799,-0.02758066697543202,1044720.219220799,-0.02781618792192138,1044720.219220799,-0.02814271683040435,1044720.219220799,-0.02858185375056857,1044720.219220799,-0.02914496526972937,1044720.219220799,-0.02983345851495674,1044720.219220799,-0.03058438206490257,1044720.219220799,-0.03130028891721172,1044720.219220799,-0.03191306844815118,1044720.219220799,-0.03236875947142558,1044720.219220799,-0.0326870056147695,1044720.219220799,-0.03290976039602046
1047128.548050899,-0.02731161829955371,1047128.548050899,-0.02737233509875923,1047128.548050899,-0.02747986850085701,1047128.548050899,-0.02764424697691223,1047128.548050899,-0.02788031085521788,1047128.548050899,-0.02820759249051982,1047128.548050899,-0.02864774172575657,1047128.548050899,-0.02921215135092693,1047128.548050899,-0.02990223173685642,1047128.548050899,-0.03065488634418823,1047128.548050899,-0.03137244353204567,1047128.548050899,-0.03198663566551402,1047128.548050899,-0.03244337716494095,1047128.548050899,-0.0327623569413024,1047128.548050899,-0.03298562522527428
1049542.428652321,-0.02737457807981736,1049542.428652321,-0.02743543484569121,1049542.428652321,-0.02754321613786562,1049542.428652321,-0.0277079735454173,1049542.428652321,-0.02794458160712605,1049542.428652321,-0.0282726177044611,1049542.428652321,-0.02871378158839713,1049542.428652321,-0.02927949231201969,1049542.428652321,-0.02997116349738751,1049542.428652321,-0.03072555315260346,1049542.428652321,-0.03144476448042424,1049542.428652321,-0.03206037247280539,1049542.428652321,-0.03251816686998148,1049542.428652321,-0.03283788197055843,1049542.428652321,-0.03306166494099667
1051961.873823222,-0.02743768299734856,1051961.873823222,-0.02749868005254709,1051961.873823222,-0.02760670980624371,1051961.873823222,-0.02777184701881897,1051961.873823222,-0.02800900051840289,1051961.873823222,-0.0283377928169853,1051961.873823222,-0.02877997368862684,1051961.873823222,-0.02934698851004256,1051961.873823222,-0.03004025416201915,1051961.873823222,-0.0307963828648165,1051961.873823222,-0.03151725214578573,1051961.873823222,-0.03213427926097029,1051961.873823222,-0.03259312898307451,1051961.873823222,-0.03291358110296357,1051961.873823222,-0.03313787994634244
1054386.896391258,-0.02750093338672308,1054386.896391258,-0.02756207105464667,1054386.896391258,-0.02767034984262823,1054386.896391258,-0.02783586773576794,1054386.896391258,-0.02807356793059087,1054386.896391258,-0.02840311817364416,1054386.896391258,-0.02884631837738948,1054386.896391258,-0.02941464030285351,1054386.896391258,-0.03010950409706301,1054386.896391258,-0.03086737585635919,1054386.896391258,-0.0315899069124523,1054386.896391258,-0.03220835642185493,1054386.896391258,-0.03266826390166146,1054386.896391258,-0.03298945473986686,1054386.896391258,-0.03321427064539571
1056817.509213657,-0.02756432958328836,1056817.509213657,-0.02762560818808238,1056817.509213657,-0.02773413658443224,1056817.509213657,-0.0279000360356955,1056817.509213657,-0.02813828418601986,1056817.509213657,-0.02846859412078611,1056817.509213657,-0.02891281600643784,1056817.509213657,-0.02948244804913544,1056817.509213657,-0.03017891366967516,1056817.509213657,-0.03093853250362918,1056817.509213657,-0.03166272916563211,1056817.509213657,-0.03228260434820888,1056817.509213657,-0.03274357202410001,1056817.509213657,-0.03306550328354253,1056817.509213657,-0.03329083744317216
1059253.725177287,-0.02762787192316402,1059253.725177287,-0.02768929178972184,1059253.725177287,-0.02779807036984645,1059253.725177287,-0.02796435225881542,1059253.725177287,-0.02820314962780887,1059253.725177287,-0.02853422100555794,1059253.725177287,-0.02897946692833556,1059253.725177287,-0.02955041210839811,1059253.725177287,-0.03024848324785807,1059253.725177287,-0.03100985318389172,1059253.725177287,-0.03173571929142131,1059253.725177287,-0.03235702343368699,1059253.725177287,-0.03281905374966606,1059253.725177287,-0.03314172713719218,1059253.725177287,-0.03336758074562105
1061695.557198723,-0.02769156074324557,1061695.557198723,-0.02775312219720889,1061695.557198723,-0.02786215153784136,1061695.557198723,-0.0280288167461258,1061695.557198723,-0.02826816459986785,1061695.557198723,-0.02859999917590672,1061695.557198723,-0.02904627149645905,1061695.557198723,-0.02961853284098003,1061695.557198723,-0.03031821320046258,1061695.557198723,-0.03108133827528176,1061695.557198723,-0.03180887767680604,1061695.557198723,-0.03243161407285167,1061695.557198723,-0.03289470947855605,1061695.557198723,-0.03321812670494687,1061695.557198723,-0.03344450095962757
1064143.018224314,-0.02775539638120444,1064143.018224314,-0.02781709974896583,1064143.018224314,-0.02792638042816872,1064143.018224314,-0.02809342983941079,1064143.018224314,-0.02833332944689956,1064143.018224314,-0.02866592898058158,1064143.018224314,-0.02911323006499928,1064143.018224314,-0.02968681060805037,1064143.018224314,-0.03038810389718973,1064143.018224314,-0.03115298815680597,1064143.018224314,-0.03188220470966461,1064143.018224314,-0.03250637666117484,1064143.018224314,-0.03297053961188885,1064143.018224314,-0.03329470239186925,1064143.018224314,-0.03352159849301475
1066596.121230256,-0.02781937917549059,1066596.121230256,-0.02788122478419524,1066596.121230256,-0.02799075738136367,1066596.121230256,-0.02815819188124243,1066596.121230256,-0.02839864451440135,1066596.121230256,-0.02873201076913566,1066596.121230256,-0.02918034298896382,1066596.121230256,-0.02975524577161091,1066596.121230256,-0.03045815570859289,1066596.121230256,-0.03122480320834467,1066596.121230256,-0.03195570077876947,1066596.121230256,-0.0325813115950401,1066596.121230256,-0.03304654455170807,1066596.121230256,-0.03337145460395578,1066596.121230256,-0.0335988737545458
1069054.879222656,-0.0278835094653344,1069054.879222656,-0.02794549764288146,1069054.879222656,-0.02805528273874622,1069054.879222656,-0.02822310321498241,1069054.879222656,-0.02846411014866713,1069054.879222656,-0.02879824489192783,1069054.879222656,-0.02924761062417849,1069054.879222656,-0.02982383869449788,1069054.879222656,-0.03052836900607961,1069054.879222656,-0.03129678381065396,1069054.879222656,-0.03202936627378921,1069054.879222656,-0.03265641927174478,1069054.879222656,-0.0331227247009841,1069054.879222656,-0.03344838374813885,1069054.879222656,-0.03367632715392624
1071519.305237605,-0.02794778759074818,1071519.305237605,-0.02800991866579269,1071519.305237605,-0.02811995684242321,1071519.305237605,-0.02828816418478407,1071519.305237605,-0.02852972669678894,1071519.305237605,-0.02886463170012469,1071519.305237605,-0.02931503332728948,1071519.305237605,-0.02989258974038396,1071519.305237605,-0.03059874416191362,1071519.305237605,-0.03136893034536763,1071519.305237605,-0.03210320158529077,1071519.305237605,-0.03273170008950208,1071519.305237605,-0.03319908046361632,1071519.305237605,-0.03352549023228879,1071519.305237605,-0.03375395910180604
1073989.412341243,-0.02801221389252785,1073989.412341243,-0.02807448819448256,1073989.412341243,-0.02818478003529011,1073989.412341243,-0.02835337513559405,1073989.412341243,-0.02859549450665907,1073989.412341243,-0.02893117154570229,1073989.412341243,-0.02938261145576503,1073989.412341243,-0.0299614992737802,1073989.412341243,-0.0306692815492168,1073989.412341243,-0.0314412431949992,1073989.412341243,-0.03217720710474142,1073989.412341243,-0.03280715444744321,1073989.412341243,-0.03327561224443511,1073989.412341243,-0.03360277446521635,1073989.412341243,-0.03383177000978184
