;Version, 1, 0
;ac_phase_buf (VCTRL=0.02),;ac_phase_buf (VCTRL=0.04),;ac_phase_buf (VCTRL=0.06),;ac_phase_buf (VCTRL=0.08),;ac_phase_buf (VCTRL=0.1),;ac_phase_buf (VCTRL=0.12),;ac_phase_buf (VCTRL=0.14),;ac_phase_buf (VCTRL=0.16),;ac_phase_buf (VCTRL=0.18),;ac_phase_buf (VCTRL=0.2),;ac_phase_buf (VCTRL=0.22),;ac_phase_buf (VCTRL=0.24),;ac_phase_buf (VCTRL=0.26),;ac_phase_buf (VCTRL=0.28),;ac_phase_buf (VCTRL=0.3)
;X, Y,;X, Y,;X, Y,;X, Y,;X, Y,;X, Y,;X, Y,;X, Y,;X, Y,;X, Y,;X, Y,;X, Y,;X, Y,;X, Y,;X, Y
;Re, Re,;Re, Re,;Re, Re,;Re, Re,;Re, Re,;Re, Re,;Re, Re,;Re, Re,;Re, Re,;Re, Re,;Re, Re,;Re, Re,;Re, Re,;Re, Re,;Re, Re
;freq, V,;freq, V,;freq, V,;freq, V,;freq, V,;freq, V,;freq, V,;freq, V,;freq, V,;freq, V,;freq, V,;freq, V,;freq, V,;freq, V,;freq, V
;Hz, deg,;Hz, deg,;Hz, deg,;Hz, deg,;Hz, deg,;Hz, deg,;Hz, deg,;Hz, deg,;Hz, deg,;Hz, deg,;Hz, deg,;Hz, deg,;Hz, deg,;Hz, deg,;Hz, deg
1000000,-0.05603625937228718,1000000,-0.05706931622221451,1000000,-0.05875650095056145,1000000,-0.06090700534409331,1000000,-0.06310721853851414,1000000,-0.06491865695647024,1000000,-0.06616141856006931,1000000,-0.06691484502798578,1000000,-0.0673484185546764,1000000,-0.06761353948198913,1000000,-0.06781423985273619,1000000,-0.06798477142031063,1000000,-0.06814971343185144,1000000,-0.06831062008373069,1000000,-0.06848579287372845
1002305.2380779,-0.05616543627097883,1002305.2380779,-0.05720087456146671,1002305.2380779,-0.05889194864974244,1002305.2380779,-0.06104741046422797,1002305.2380779,-0.06325269566964216,1002305.2380779,-0.06506830988052971,1002305.2380779,-0.06631393634261097,1002305.2380779,-0.06706909963605488,1002305.2380779,-0.06750367265182655,1002305.2380779,-0.06776940474527332,1002305.2380779,-0.06797056777760035,1002305.2380779,-0.06814149246054173,1002305.2380779,-0.06830681470220042,1002305.2380779,-0.06846809228172686,1002305.2380779,-0.06864366888619126
1004615.790278395,-0.05629491095303641,1004615.790278395,-0.05733273617386242,1004615.790278395,-0.05902770858794983,1004615.790278395,-0.06118813925139928,1004615.790278395,-0.06339850815997022,1004615.790278395,-0.06521830778995918,1004615.790278395,-0.06646680571468351,1004615.790278395,-0.06722370983743836,1004615.790278395,-0.06765928464634355,1004615.790278395,-0.06792562931480275,1004615.790278395,-0.06812725607525105,1004615.790278395,-0.06829857477978041,1004615.790278395,-0.06846427812807454,1004615.790278395,-0.06862592749032129,1004615.790278395,-0.06880190884013725
1006931.668851804,-0.05642468410492049,1006931.668851804,-0.05746490175851735,1006931.668851804,-0.05916378148496775,1006931.668851804,-0.06132919245173539,1006931.668851804,-0.06354465678257962,1006931.668851804,-0.06536865148003035,1006931.668851804,-0.06662002748678258,1006931.668851804,-0.06737867645186141,1006931.668851804,-0.06781525536326402,1006931.668851804,-0.06808221401886186,1006931.668851804,-0.06828430557643125,1006931.668851804,-0.06845601921085867,1006931.668851804,-0.06862210454432636,1006931.668851804,-0.06878412654633766,1006931.668851804,-0.06896051357453592
1009252.886076684,-0.05655475641467413,1009252.886076684,-0.05759737201615896,1009252.886076684,-0.05930016806223964,1009252.886076684,-0.06147057081308455,1009252.886076684,-0.06369114231233375,1009252.886076684,-0.06551934174784814,1009252.886076684,-0.0667736024712723,1009252.886076684,-0.06753400030093905,1009252.886076684,-0.06797158562952649,1009252.886076684,-0.06823915968764439,1009252.886076684,-0.06844171711379897,1009252.886076684,-0.06861382658852842,1009252.886076684,-0.06878029478773304,1009252.886076684,-0.0689426902885288,1009252.886076684,-0.06911948393029101
1011579.454259898,-0.05668512857192644,1011579.454259898,-0.05773014764912995,1011579.454259898,-0.05943686904287199,1011579.454259898,-0.06161227508501902,1011579.454259898,-0.06383796552588215,1011579.454259898,-0.06567037939235509,1011579.454259898,-0.06692753148238945,1011579.454259898,-0.06768968220818017,1011579.454259898,-0.0681282762739757,1011579.454259898,-0.06839646715325792,1011579.454259898,-0.06859949152193177,1011579.454259898,-0.06877199774946589,1011579.454259898,-0.06893884969700062,1011579.454259898,-0.069101619557581,1011579.454259898,-0.06927882075024448
1013911.385736679,-0.05681580126789628,1013911.385736679,-0.05786322936139208,1013911.385736679,-0.05957388515163821,1013911.385736679,-0.06175430601883888,1013911.385736679,-0.06398512720166491,1013911.385736679,-0.06582176521433536,1013911.385736679,-0.06708181533624771,1013911.385736679,-0.06784572299899214,1013911.385736679,-0.06828532812736723,1013911.385736679,-0.06855413724972818,1013911.385736679,-0.06875762963733102,1013911.385736679,-0.06893053353227593,1013911.385736679,-0.06909777011276858,1013911.385736679,-0.06926091519611845,1013911.385736679,-0.06943852487918137
1016248.692870695,-0.05694677519539606,1016248.692870695,-0.05799661785852989,1016248.692870695,-0.05971121711498244,1016248.692870695,-0.0618966643675762,1016248.692870695,-0.06413262811991639,1016248.692870695,-0.06597350001641913,1016248.692870695,-0.06723645485084223,1016248.692870695,-0.06800212350068499,1016248.692870695,-0.06844274202237154,1016248.692870695,-0.06871217081300357,1016248.692870695,-0.06891613229842641,1016248.692870695,-0.06908943477749663,1016248.692870695,-0.06925705687761423,1016248.692870695,-0.06942057804870787,1016248.692870695,-0.06959859716383417
1018591.388054117,-0.05707805104883504,1018591.388054117,-0.05813031384775455,1018591.388054117,-0.05984886566102353,1018591.388054117,-0.06203935088599889,1018591.388054117,-0.06428046906266967,1018591.388054117,-0.06612558460308693,1018591.388054117,-0.06739145084605375,1018591.388054117,-0.06815888454247593,1018591.388054117,-0.06860051879357866,1018591.388054117,-0.06887056868095942,1018591.388054117,-0.06907500034558046,1018591.388054117,-0.06924870232760369,1018591.388054117,-0.06941671083605723,1018591.388054117,-0.06958060896186287,1018591.388054117,-0.06975903845288715
1020939.483707679,-0.05720962952422348,1020939.483707679,-0.0582643180379074,1020939.483707679,-0.05998683151955875,1020939.483707679,-0.06218236633061482,1020939.483707679,-0.0644286508137606,1020939.483707679,-0.06627801978067362,1020939.483707679,-0.06754680414365298,1020939.483707679,-0.06831600695549374,1020939.483707679,-0.06875865927750258,1020939.483707679,-0.06902933169340271,1020939.483707679,-0.06923423462109282,1020939.483707679,-0.06940833702701486,1020939.483707679,-0.06957673283456407,1020939.483707679,-0.06974100878404843,1020939.483707679,-0.06991984959698108
1023292.992280754,-0.05734151131917591,1023292.992280754,-0.05839863113946391,1023292.992280754,-0.06012511542206772,1023292.992280754,-0.06232571145967584,1023292.992280754,-0.06457717415883188,1023292.992280754,-0.06643080635737293,1023292.992280754,-0.06770251556730508,1023292.992280754,-0.068473491572783,1023292.992280754,-0.06891716431258559,1023292.992280754,-0.06918846069207625,1023292.992280754,-0.06939383596920493,1023292.992280754,-0.06956833972209459,1023292.992280754,-0.06973712372155241,1023292.992280754,-0.06990177836568545,1023292.992280754,-0.07008103144871761
1025651.926251407,-0.0574736971329152,1025651.926251407,-0.05853325386453724,1025651.926251407,-0.0602637181017163,1025651.926251407,-0.06246938703318159,1025651.926251407,-0.0647260398853374,1025651.926251407,-0.06658394514324163,1025651.926251407,-0.06785858594257388,1025651.926251407,-0.06863133922930877,1025651.926251407,-0.06907603473920275,1025651.926251407,-0.0693479565206632,1025651.926251407,-0.06955380523610429,1025651.926251407,-0.0697287112611582,1025651.926251407,-0.0698978843473959,1025651.926251407,-0.07006291855915529,1025651.926251407,-0.07024258486266383
1028016.298126473,-0.05760618766627599,1028016.298126473,-0.05866818692688228,1028016.298126473,-0.06040264029336044,1028016.298126473,-0.06261339381288379,1028016.298126473,-0.06487524878254615,1028016.298126473,-0.06673743695020391,1028016.298126473,-0.06801501609692628,1028016.298126473,-0.06878955076196079,1028016.298126473,-0.0692352713996664,1028016.298126473,-0.06950782002479172,1028016.298126473,-0.06971414326992915,1028016.298126473,-0.06988945249447674,1028016.298126473,-0.07005901556442828,1028016.298126473,-0.0702244302188041,1028016.298126473,-0.07040451069535676
1030386.120441615,-0.05773898362170844,1030386.120441615,-0.05880343104189921,1030386.120441615,-0.0605418827335501,1030386.120441615,-0.06275773256229018,1030386.120441615,-0.06502480164154677,1030386.120441615,-0.06689128259205564,1030386.120441615,-0.06817180685973678,1030386.120441615,-0.06894812700955812,1030386.120441615,-0.06939487513823066,1030386.120441615,-0.06966805205203935,1030386.120441615,-0.06987485092077277,1030386.120441615,-0.07005056427428119,1030386.120441615,-0.07022051822694825,1030386.120441615,-0.07038631420094764,1030386.120441615,-0.07056680980530798
1032761.405761397,-0.0578720857032822,1032761.405761397,-0.05893898692663734,1032761.405761397,-0.06068144616053321,1032761.405761397,-0.06290240404666851,1032761.405761397,-0.06517469925525132,1032761.405761397,-0.06704548288446853,1032761.405761397,-0.06832895906229168,1032761.405761397,-0.06910706881285338,1032761.405761397,-0.06955484680109573,1032761.405761397,-0.06982865345193734,1032761.405761397,-0.07003592904068821,1032761.405761397,-0.07021204745476715,1032761.405761397,-0.0703823931912238,1032761.405761397,-0.07054857136387552,1032761.405761397,-0.07072948305300808
1035142.166679343,-0.05800549461668979,1035142.166679343,-0.05907485529979898,1035142.166679343,-0.06082133131425949,1035142.166679343,-0.06304740903305064,1035142.166679343,-0.06532494241839981,1035142.166679343,-0.06720003864499471,1035142.166679343,-0.06848647353779365,1035142.166679343,-0.06926637701453746,1035142.166679343,-0.06971518723641254,1035142.166679343,-0.06998962507597532,1035142.166679343,-0.07019737848369262,1035142.166679343,-0.0703739028920994,1035142.166679343,-0.07054464131549681,1035142.166679343,-0.07071120256785601,1035142.166679343,-0.07089253130093136
1037528.415818012,-0.05813921106925055,1037528.415818012,-0.05921103688174321,1037528.415818012,-0.06096153893638438,1037528.415818012,-0.06319274829023659,1037528.415818012,-0.06547553192756432,1037528.415818012,-0.06735495069307093,1037528.415818012,-0.06864435112136603,1037528.415818012,-0.06942605245924365,1037528.415818012,-0.06987589729428717,1037528.415818012,-0.07015096777760593,1037528.415818012,-0.07035920010577183,1037528.415818012,-0.07053613144441621,1037528.415818012,-0.07070726345998761,1037528.415818012,-0.07087420867514047,1037528.415818012,-0.07105595541354015
1039920.165829058,-0.05827323576991448,1039920.165829058,-0.05934753239448973,1039920.165829058,-0.06110206977027305,1039920.165829058,-0.06333842258879878,1039920.165829058,-0.06562646858115317,1039920.165829058,-0.06751021985002291,1039920.165829058,-0.06880259265005728,1039920.165829058,-0.06958609599355242,1039920.165829058,-0.07003697782678545,1039920.165829058,-0.07031268241224911,1039920.165829058,-0.07052139476488498,1039920.165829058,-0.07069873397183424,1039920.165829058,-0.07087026048689951,1039920.165829058,-0.07103759054996785,1039920.165829058,-0.0712197562572897
1042317.429393303,-0.05840756942926572,1042317.429393303,-0.05948434256172255,1042317.429393303,-0.06124292456100427,1042317.429393303,-0.06348443270108578,1042317.429393303,-0.06577775317941524,1042317.429393303,-0.06766584693906973,1042317.429393303,-0.06896119896284555,1042317.429393303,-0.06974650846599578,1042317.429393303,-0.07019842968793734,1042317.429393303,-0.07047476983729667,1042317.429393303,-0.07068396332096892,1042317.429393303,-0.07086171133645279,1042317.429393303,-0.0710336332604234,1042317.429393303,-0.07120134905856948,1042317.429393303,-0.07138393470063259
1044720.219220799,-0.05854221275952651,1044720.219220799,-0.05962146810879413,1044720.219220799,-0.0613841040553744,1044720.219220799,-0.06363077940122669,1044720.219220799,-0.06592938652444405,1044720.219220799,-0.06782183278532809,1044720.219220799,-0.06912017090064289,1044720.219220799,-0.06990729072706175,1044720.219220799,-0.07036025373374152,1044720.219220799,-0.07063723091211703,1044720.219220799,-0.0708469066359429,1044720.219220799,-0.07102506440235849,1044720.219220799,-0.07119738264674229,1044720.219220799,-0.07136548506917345,1044720.219220799,-0.07154849161402334
1047128.548050899,-0.05867716647456089,1047128.548050899,-0.05975890976272887,1047128.548050899,-0.06152560900190136,1047128.548050899,-0.06377746346513516,1047128.548050899,-0.0660813694201822,1047128.548050899,-0.06797817821581692,1047128.548050899,-0.06927950930629993,1047128.548050899,-0.07006844362919903,1047128.548050899,-0.07052245082217001,1047128.548050899,-0.07080006649805953,1047128.548050899,-0.07101022557371298,1047128.548050899,-0.07118879403562986,1047128.548050899,-0.07136150951403596,1047128.548050899,-0.0715299994520094,1047128.548050899,-0.07171342786992309
1049542.428652321,-0.05881243128987865,1049542.428652321,-0.05989666825222712,1049542.428652321,-0.06166744015082844,1049542.428652321,-0.06392448567051348,1049542.428652321,-0.06623370267242563,1049542.428652321,-0.0681348840594615,1049542.428652321,-0.0694392150246102,1049542.428652321,-0.07022996802682126,1049542.428652321,-0.07068502181317261,1049542.428652321,-0.07096327745845919,1049542.428652321,-0.0711739210001769,1049542.428652321,-0.07135290110434203,1049542.428652321,-0.07152601473248554,1049542.428652321,-0.07169489307931289,1049542.428652321,-0.0718787443428042
1051961.873823222,-0.05894800792263884,1051961.873823222,-0.06003474430766919,1051961.873823222,-0.06180959825412865,1051961.873823222,-0.06407184679685678,1051961.873823222,-0.06638638708882766,1051961.873823222,-0.06829195114709802,1051961.873823222,-0.06959928890231473,1051961.873823222,-0.07039186477631169,1051961.873823222,-0.07084796756868142,1051961.873823222,-0.07112686465864118,1051961.873823222,-0.0713379937832283,1051961.873823222,-0.07151738647857114,1051961.873823222,-0.07169089917427812,1051961.873823222,-0.07186016682533035,1051961.873823222,-0.07204444190915478
1054386.896391258,-0.05908389709165382,1054386.896391258,-0.06017313866111888,1054386.896391258,-0.06195208406550825,1054386.896391258,-0.0642195476254569,1054386.896391258,-0.06653942347890353,1054386.896391258,-0.06844938031147779,1054386.896391258,-0.06975973178810634,1054386.896391258,-0.0705541347360279,1054386.896391258,-0.07101128895261556,1054386.896391258,-0.07129082896592538,1054386.896391258,-0.07150244479276159,1054386.896391258,-0.07168225103039905,1054386.896391258,-0.07185616371361135,1054386.896391258,-0.07202582156632341,1054386.896391258,-0.07221052144748362
1056817.509213657,-0.05922009951739293,1056817.509213657,-0.0603118520463278,1056817.509213657,-0.06209489834041104,1056817.509213657,-0.06436758893940699,1056817.509213657,-0.06669281265403462,1056817.509213657,-0.06860717238727203,1056817.509213657,-0.06992054453263447,1056817.509213657,-0.07071677876630597,1056817.509213657,-0.07117498683088576,1056817.509213657,-0.07145517124963115,1056817.509213657,-0.07166727490067651,1056817.509213657,-0.071847495633918,1056817.509213657,-0.07202180922669812,1056817.509213657,-0.07219185818057375,1056817.509213657,-0.07237698383832455
1059253.725177287,-0.05935661592198639,1059253.725177287,-0.06045088519873883,1059253.725177287,-0.06223804183602229,1059253.725177287,-0.06451597152360525,1059253.725177287,-0.06684655542747259,1059253.725177287,-0.06876532821107588,1059253.725177287,-0.07008172798850931,1059253.725177287,-0.07087979772946532,1059253.725177287,-0.07133906207139856,1059253.725177287,-0.07161989238108167,1059253.725177287,-0.07183248498088257,1059253.725177287,-0.07201312116523516,1059253.725177287,-0.07218783659177114,1059253.725177287,-0.07235827754838764,1059253.725177287,-0.07254382996424119
1061695.557198723,-0.05949344702922908,1061695.557198723,-0.06059023885549032,1061695.557198723,-0.0623815153112728,1061695.557198723,-0.06466469616475931,1061695.557198723,-0.06700065261434403,1061695.557198723,-0.06892384862141313,1061695.557198723,-0.07024328301030665,1061695.557198723,-0.07104319248981332,1061695.557198723,-0.07150351554406162,1061695.557198723,-0.07178499323360886,1061695.557198723,-0.07199807590930407,1061695.557198723,-0.0721791285024774,1061695.557198723,-0.07235424668908767,1061695.557198723,-0.07252508055210065,1061695.557198723,-0.07271106070983174
1064143.018224314,-0.05963059356458434,1064143.018224314,-0.06072991375541983,1064143.018224314,-0.06252531952684277,1064143.018224314,-0.06481376365139027,1064143.018224314,-0.06715510503165439,1064143.018224314,-0.06908273445874046,1064143.018224314,-0.07040521045457217,1064143.018224314,-0.07120696391364954,1064143.018224314,-0.07166834812078759,1064143.018224314,-0.07195047468255776,1064143.018224314,-0.07216404856388428,1064143.018224314,-0.07234551852579575,1064143.018224314,-0.0725210404009342,1064143.018224314,-0.07269226807608235,1064143.018224314,-0.07287867696173359
1066596.121230256,-0.05976805625518797,1066596.121230256,-0.06086991063906817,1066596.121230256,-0.06266945524516604,1066596.121230256,-0.06496317477383703,1066596.121230256,-0.06730991349829257,1066596.121230256,-0.06924198656545201,1066596.121230256,-0.07056751117982611,1066596.121230256,-0.07137111286927073,1066596.121230256,-0.0718335606754993,1066596.121230256,-0.07211633760529131,1066596.121230256,-0.07233040382459049,1066596.121230256,-0.0725122921173702,1066596.121230256,-0.07268821861163099,1066596.121230256,-0.07285984100674096,1066596.121230256,-0.07304667960862796
1069054.879222656,-0.0599058358298519,1069054.879222656,-0.06101023024868317,1069054.879222656,-0.062813923230434,1069054.879222656,-0.06511293032426034,1069054.879222656,-0.06746507883503526,1069054.879222656,-0.06940160578588393,1069054.879222656,-0.07073018604656783,1069054.879222656,-0.0715356402269752,1069054.879222656,-0.071999154084134,1069054.879222656,-0.07228258288119502,1069054.879222656,-0.07249714257341837,1069054.879222656,-0.07267945016141453,1069054.879222656,-0.07285578220753693,1069054.879222656,-0.07302780023252806,1069054.879222656,-0.07321506954124475
1071519.305237605,-0.06004393301906816,1071519.305237605,-0.06115087332822382,1071519.305237605,-0.06295872424859963,1071519.305237605,-0.06526303109664708,1071519.305237605,-0.06762060186455114,1071519.305237605,-0.06956159296631857,1071519.305237605,-0.07089323591728021,1071519.305237605,-0.07170054685906746,1071519.305237605,-0.07216512922464823,1071519.305237605,-0.07244921139168138,1071519.305237605,-0.07266426569439688,1071519.305237605,-0.07284699354418059,1071519.305237605,-0.07302373207705407,1071519.305237605,-0.07319614664394331,1071519.305237605,-0.07338384765236707
1073989.412341243,-0.06018234855501273,1073989.412341243,-0.06129184062336401,1073989.412341243,-0.06310385906738168,1073989.412341243,-0.06541347788681448,1073989.412341243,-0.0677764834114053,1073989.412341243,-0.06972194895498934,1073989.412341243,-0.07105666165643451,1073989.412341243,-0.07186583363986292,1073989.412341243,-0.07233148697702252,1073989.412341243,-0.07261622402019499,1073989.412341243,-0.07283177407359281,1073989.412341243,-0.07301492315396334,1073989.412341243,-0.07319206911063256,1073989.412341243,-0.0733648811335392,1073989.412341243,-0.07355301483683623
1076465.213629833,-0.0603210831715495,1076465.213629833,-0.06143313288149667,1076465.213629833,-0.06324932845626859,1076465.213629833,-0.06556427149241421,1076465.213629833,-0.06793272430206365,1076465.213629833,-0.06988267460208485,1076465.213629833,-0.07122046413049461,1076465.213629833,-0.07203150144569244,1076465.213629833,-0.07249822822326574,1076465.213629833,-0.07278362165221682,1076465.213629833,-0.07299966859911555,1076465.213629833,-0.07318323988110546,1076465.213629833,-0.07336079420077506,1076465.213629833,-0.07353400459592566,1076465.213629833,-0.07372257199155624
