;Version, 1, 0
;ac_gain,;ac_phase
;X, Y,;X, Y
;Re, Re,;Re, Re
;freq, V,;freq, V
;Hz, dB,;Hz, deg
1000000,14.18140620091975,1000000,-0.07363213117299355
1002305.2380779,14.18140618700897,1002305.2380779,-0.07380187073100689
1004615.790278395,14.18140617303397,1004615.790278395,-0.07397200157887338
1006931.668851804,14.18140615899447,1006931.668851804,-0.07414252461860761
1009252.886076684,14.18140614489017,1009252.886076684,-0.07431344075430356
1011579.454259898,14.18140613072076,1011579.454259898,-0.07448475089213932
1013911.385736679,14.18140611648595,1013911.385736679,-0.07465645594038196
1016248.692870695,14.18140610218543,1016248.692870695,-0.07482855680939228
1018591.388054117,14.18140608781891,1018591.388054117,-0.07500105441162962
1020939.483707679,14.18140607338607,1020939.483707679,-0.07517394966165686
1023292.992280754,14.18140605888662,1023292.992280754,-0.07534724347614498
1025651.926251407,14.18140604432024,1025651.926251407,-0.07552093677387832
1028016.298126473,14.18140602968662,1028016.298126473,-0.07569503047575903
1030386.120441615,14.18140601498546,1030386.120441615,-0.07586952550481225
1032761.405761397,14.18140600021644,1032761.405761397,-0.07604442278619088
1035142.166679343,14.18140598537924,1035142.166679343,-0.07621972324718046
1037528.415818012,14.18140597047357,1037528.415818012,-0.07639542781720414
1039920.165829058,14.18140595549909,1039920.165829058,-0.07657153742782774
1042317.429393303,14.1814059404555,1042317.429393303,-0.0767480530127643
1044720.219220799,14.18140592534246,1044720.219220799,-0.0769249755078795
1047128.548050899,14.18140591015967,1047128.548050899,-0.07710230585119629
1049542.428652321,14.18140589490679,1049542.428652321,-0.07728004498289999
1051961.873823222,14.18140587958352,1051961.873823222,-0.07745819384534325
1054386.896391258,14.18140586418951,1054386.896391258,-0.07763675338305108
1056817.509213657,14.18140584872445,1056817.509213657,-0.07781572454272584
1059253.725177287,14.181405833188,1059253.725177287,-0.07799510827325221
1061695.557198723,14.18140581757984,1061695.557198723,-0.07817490552570229
1064143.018224314,14.18140580189964,1064143.018224314,-0.07835511725334061
1066596.121230256,14.18140578614706,1066596.121230256,-0.07853574441162919
1069054.879222656,14.18140577032177,1069054.879222656,-0.07871678795823257
1071519.305237605,14.18140575442344,1071519.305237605,-0.07889824885302296
1073989.412341243,14.18140573845172,1073989.412341243,-0.0790801280580853
1076465.213629833,14.18140572240627,1076465.213629833,-0.07926242653772234
1078946.722229827,14.18140570628677,1078946.722229827,-0.07944514525845967
1081433.951297936,14.18140569009286,1081433.951297936,-0.07962828518905112
1083926.914021201,14.18140567382421,1083926.914021201,-0.07981184730048359
1086425.623617063,14.18140565748046,1086425.623617063,-0.07999583256598229
1088930.093333431,14.18140564106127,1088930.093333431,-0.08018024196101607
1091440.336448754,14.18140562456629,1091440.336448754,-0.08036507646330232
1093956.366272091,14.18140560799518,1093956.366272091,-0.08055033705281235
1096478.196143182,14.18140559134758,1096478.196143182,-0.08073602471177653
1099005.839432518,14.18140557462314,1099005.839432518,-0.08092214042468945
1101539.309541412,14.1814055578215,1101539.309541412,-0.08110868517831524
1104078.61990207,14.18140554094231,1104078.61990207,-0.08129565996169263
1106623.783977663,14.18140552398521,1106623.783977663,-0.08148306576614041
1109174.815262398,14.18140550694983,1109174.815262398,-0.08167090358526259
1111731.727281588,14.18140548983583,1111731.727281588,-0.08185917441495354
1114294.533591727,14.18140547264283,1114294.533591727,-0.08204787925340351
1116863.247780558,14.18140545537046,1116863.247780558,-0.08223701910110376
1119437.883467148,14.18140543801838,1119437.883467148,-0.08242659496085182
1122018.45430196,14.1814054205862,1122018.45430196,-0.08261660783775707
1124604.973966923,14.18140540307357,1124604.973966923,-0.08280705873924575
1127197.456175507,14.18140538548008,1127197.456175507,-0.08299794867506653
1129795.914672794,14.1814053678054,1129795.914672794,-0.08318927865729563
1132400.363235553,14.18140535004914,1132400.363235553,-0.08338104970034249
1135010.815672311,14.18140533221091,1135010.815672311,-0.0835732628209549
1137627.285823427,14.18140531429034,1137627.285823427,-0.08376591903822454
1140249.787561165,14.18140529628707,1140249.787561165,-0.08395901937359225
1142878.334789768,14.18140527820069,1142878.334789768,-0.08415256485085358
1145512.941445532,14.18140526003083,1145512.941445532,-0.08434655649616411
1148153.621496879,14.18140524177709,1148153.621496879,-0.08454099533804502
1150800.388944432,14.18140522343911,1150800.388944432,-0.08473588240738827
1153453.257821088,14.18140520501648,1153453.257821088,-0.08493121873746247
1156112.242192094,14.18140518650881,1156112.242192094,-0.08512700536391805
1158777.356155121,14.18140516791572,1158777.356155121,-0.08532324332479287
1161448.613840338,14.1814051492368,1161448.613840338,-0.08551993366051761
1164126.029410487,14.18140513047167,1164126.029410487,-0.08571707741392147
1166809.617060958,14.18140511161992,1166809.617060958,-0.08591467563023754
1169499.391019866,14.18140509268115,1169499.391019866,-0.08611272935710851
1172195.365548125,14.18140507365498,1172195.365548125,-0.08631123964459193
1174897.554939525,14.18140505454097,1174897.554939525,-0.08651020754516617
1177605.973520802,14.18140503533875,1177605.973520802,-0.08670963411373565
1180320.635651725,14.18140501604788,1180320.635651725,-0.08690952040763664
1183041.55572516,14.18140499666798,1183041.55572516,-0.08710986748664278
1185768.748167155,14.18140497719862,1185768.748167155,-0.08731067641297068
1188502.227437013,14.1814049576394,1188502.227437013,-0.08751194825128575
1191242.008027369,14.18140493798989,1191242.008027369,-0.08771368406870751
1193988.104464268,14.18140491824968,1193988.104464268,-0.08791588493481556
1196740.531307238,14.18140489841837,1196740.531307238,-0.08811855192165498
1199499.303149373,14.1814048784955,1199499.303149373,-0.08832168610374228
1202264.434617407,14.18140485848069,1202264.434617407,-0.08852528855807083
1205035.940371792,14.18140483837348,1205035.940371792,-0.08872936036411692
1207813.835106774,14.18140481817347,1207813.835106774,-0.08893390260384502
1210598.133550476,14.18140479788022,1210598.133550476,-0.08913891636171395
1213388.850464971,14.1814047774933,1213388.850464971,-0.08934440272468237
1216186.000646362,14.18140475701228,1216186.000646362,-0.08955036278221462
1218989.59892486,14.18140473643672,1218989.59892486,-0.08975679762628648
1221799.660164865,14.18140471576619,1221799.660164865,-0.08996370835139102
1224616.199265042,14.18140469500025,1224616.199265042,-0.09017109605454439
1227439.231158401,14.18140467413846,1227439.231158401,-0.09037896183529145
1230268.770812375,14.18140465318037,1230268.770812375,-0.09058730679571189
1233104.833228902,14.18140463212555,1233104.833228902,-0.09079613204042586
1235947.433444504,14.18140461097354,1235947.433444504,-0.09100543867659999
1238796.586530362,14.1814045897239,1238796.586530362,-0.09121522781395308
1241652.307592404,14.18140456837617,1241652.307592404,-0.09142550056476212
1244514.611771378,14.18140454692991,1244514.611771378,-0.09163625804386812
1247383.514242936,14.18140452538466,1247383.514242936,-0.0918475013686821
1250259.030217713,14.18140450373996,1250259.030217713,-0.09205923165919083
1253141.174941408,14.18140448199534,1253141.174941408,-0.09227145003796307
1256029.963694867,14.18140446015036,1256029.963694867,-0.09248415763015516
1258925.41179416,14.18140443820456,1258925.41179416,-0.09269735556351731
1261827.534590663,14.18140441615745,1261827.534590663,-0.09291104496839943
1264736.347471144,14.18140439400858,1264736.347471144,-0.09312522697775701
1267651.865857838,14.18140437175747,1267651.865857838,-0.09333990272715736
1270574.105208534,14.18140434940366,1270574.105208534,-0.09355507335478554
1273503.081016654,14.18140432694667,1273503.081016654,-0.09377074000145028
1276438.808811336,14.18140430438602,1276438.808811336,-0.09398690381059022
1279381.304157516,14.18140428172124,1279381.304157516,-0.09420356592827976
1282330.582656013,14.18140425895183,1282330.582656013,-0.09442072750323538
1285286.659943607,14.18140423607733,1285286.659943607,-0.09463838968682151
1288249.551693126,14.18140421309725,1288249.551693126,-0.09485655363305678
1291219.273613526,14.18140419001109,1291219.273613526,-0.09507522049861995
1294195.841449978,14.18140416681838,1294195.841449978,-0.0952943914428564
1297179.270983947,14.18140414351861,1297179.270983947,-0.09551406762778393
1300169.578033282,14.1814041201113,1300169.578033282,-0.09573425021809899
1303166.778452291,14.18140409659594,1303166.778452291,-0.095954940381183
1306170.888131833,14.18140407297204,1306170.888131833,-0.09617613928710844
1309181.922999398,14.18140404923909,1309181.922999398,-0.09639784810864499
1312199.899019194,14.18140402539661,1312199.899019194,-0.09662006802126581
1315224.832192229,14.18140400144407,1315224.832192229,-0.09684280020315394
1318256.738556398,14.18140397738097,1318256.738556398,-0.09706604583520827
1321295.634186566,14.18140395320679,1321295.634186566,-0.09728980610104986
1324341.535194655,14.18140392892104,1324341.535194655,-0.09751408218702837
1327394.45772973,14.18140390452319,1327394.45772973,-0.09773887528222824
1330454.417978081,14.18140388001272,1330454.417978081,-0.09796418657847496
1333521.432163314,14.18140385538912,1333521.432163314,-0.09819001727034146
1336595.516546432,14.18140383065186,1336595.516546432,-0.0984163685551545
1339676.687425925,14.18140380580042,1339676.687425925,-0.0986432416330007
1342764.961137854,14.18140378083427,1342764.961137854,-0.09887063770673341
1345860.354055938,14.18140375575288,1345860.354055938,-0.09909855798197868
1348962.882591643,14.18140373055572,1348962.882591643,-0.09932700366714182
1352072.563194267,14.18140370524226,1352072.563194267,-0.09955597597341373
1355189.412351026,14.18140367981195,1355189.412351026,-0.09978547611477739
1358313.446587143,14.18140365426427,1358313.446587143,-0.1000155053080143
1361444.682465939,14.18140362859866,1361444.682465939,-0.100246064772711
1364583.136588914,14.18140360281457,1364583.136588914,-0.1004771557312652
1367728.825595838,14.18140357691149,1367728.825595838,-0.1007087794088925
1370881.766164843,14.18140355088884,1370881.766164843,-0.1009409370336333
1374041.975012504,14.18140352474607,1374041.975012504,-0.1011736298363583
1377209.468893935,14.18140349848263,1377209.468893935,-0.1014068590507762
1380384.264602874,14.18140347209797,1380384.264602874,-0.1016406259134392
1383566.37897177,14.18140344559152,1383566.37897177,-0.1018749316637502
1386755.828871877,14.18140341896272,1386755.828871877,-0.1021097775439693
1389952.631213342,14.18140339221101,1389952.631213342,-0.1023451647992201
1393156.802945292,14.18140336533582,1393156.802945292,-0.1025810946774965
1396368.361055926,14.18140333833658,1396368.361055926,-0.1028175684296695
1399587.322572606,14.18140331121271,1399587.322572606,-0.1030545873094933
1402813.704561946,14.18140328396365,1402813.704561946,-0.1032921525736126
1406047.524129902,14.18140325658882,1406047.524129902,-0.1035302654815685
1409288.798421863,14.18140322908762,1409288.798421863,-0.1037689272958061
1412537.544622742,14.18140320145949,1412537.544622742,-0.1040081392816805
1415793.779957069,14.18140317370382,1415793.779957069,-0.1042479027074635
1419057.52168908,14.18140314582005,1419057.52168908,-0.104488218844351
1422328.787122807,14.18140311780757,1422328.787122807,-0.1047290889664687
1425607.593602176,14.18140308966579,1425607.593602176,-0.10497051435088
1428893.95851109,14.18140306139412,1428893.95851109,-0.1052124962775918
1432187.899273531,14.18140303299195,1432187.899273531,-0.1054550360295618
1435489.433353643,14.18140300445868,1435489.433353643,-0.1056981348927054
1438798.578255832,14.1814029757937,1438798.578255832,-0.1059417941559019
1442115.351524855,14.18140294699642,1442115.351524855,-0.1061860151110022
1445439.770745914,14.18140291806621,1445439.770745914,-0.1064307990528348
1448771.853544748,14.18140288900247,1448771.853544748,-0.1066761472792133
1452111.617587729,14.18140285980457,1452111.617587729,-0.1069220610909428
1455459.080581952,14.18140283047191,1455459.080581952,-0.1071685417918273
1458814.260275335,14.18140280100385,1458814.260275335,-0.1074155906886762
1462177.174456704,14.18140277139977,1462177.174456704,-0.1076632090913115
1465547.840955897,14.18140274165905,1465547.840955897,-0.1079113983125743
1468926.277643853,14.18140271178105,1468926.277643853,-0.1081601596683325
1472312.502432705,14.18140268176514,1472312.502432705,-0.1084094944774869
1475706.53327588,14.18140265161068,1475706.53327588,-0.1086594040619791
1479108.388168193,14.18140262131704,1479108.388168193,-0.1089098897467977
1482518.085145939,14.18140259088356,1482518.085145939,-0.1091609528599858
1485935.642286992,14.18140256030961,1485935.642286992,-0.1094125947326481
1489361.0777109,14.18140252959454,1489361.0777109,-0.1096648166989576
1492794.409578981,14.1814024987377,1492794.409578981,-0.1099176200961626
1496235.656094419,14.18140246773842,1496235.656094419,-0.1101710062645946
1499684.835502359,14.18140243659606,1499684.835502359,-0.1104249765476743
1503141.966090007,14.18140240530996,1503141.966090007,-0.1106795322919196
1506607.066186727,14.18140237387944,1506607.066186727,-0.1109346748469524
1510080.154164133,14.18140234230385,1510080.154164133,-0.1111904055655057
1513561.248436193,14.18140231058251,1513561.248436193,-0.1114467258034306
1517050.367459321,14.18140227871475,1517050.367459321,-0.1117036369197041
1520547.52973248,14.1814022466999,1520547.52973248,-0.1119611402764357
1524052.753797275,14.18140221453727,1524052.753797275,-0.1122192372388748
1527566.058238057,14.18140218222619,1527566.058238057,-0.1124779291754183
1531087.461682014,14.18140214976597,1531087.461682014,-0.1127372174576172
1534616.982799278,14.18140211715591,1534616.982799278,-0.1129971034601844
1538154.640303019,14.18140208439534,1538154.640303019,-0.1132575885610018
1541700.452949543,14.18140205148355,1541700.452949543,-0.1135186741411274
1545254.439538397,14.18140201841985,1545254.439538397,-0.1137803615848029
1548816.618912465,14.18140198520353,1548816.618912465,-0.1140426522794613
1552387.009958065,14.18140195183389,1552387.009958065,-0.1143055476157335
1555965.631605058,14.18140191831023,1555965.631605058,-0.1145690489874562
1559552.502826937,14.18140188463182,1559552.502826937,-0.1148331577916794
1563147.642640937,14.18140185079797,1563147.642640937,-0.1150978754286733
1566751.070108132,14.18140181680794,1566751.070108132,-0.1153632033019361
1570362.804333535,14.18140178266103,1570362.804333535,-0.1156291428182015
1573982.864466202,14.18140174835649,1573982.864466202,-0.1158956953874459
1577611.269699331,14.18140171389362,1577611.269699331,-0.116162862422896
1581248.039270365,14.18140167927167,1581248.039270365,-0.1164306453410361
1584893.192461096,14.18140164448992,1584893.192461096,-0.1166990455616162
1588546.748597761,14.18140160954762,1588546.748597761,-0.1169680645076587
1592208.727051152,14.18140157444404,1592208.727051152,-0.1172377036054666
1595879.147236714,14.18140153917842,1595879.147236714,-0.1175079642846307
1599558.02861465,14.18140150375003,1599558.02861465,-0.1177788479780376
1603245.390690023,14.1814014681581,1603245.390690023,-0.1180503561218765
1606941.253012859,14.18140143240189,1606941.253012859,-0.1183224901556476
1610645.635178252,14.18140139648064,1610645.635178252,-0.1185952515221695
1614358.556826467,14.18140136039358,1614358.556826467,-0.1188686416675867
1618080.037643047,14.18140132413995,1618080.037643047,-0.1191426620413773
1621810.097358911,14.18140128771899,1621810.097358911,-0.1194173140963608
1625548.755750465,14.18140125112991,1625548.755750465,-0.119692599288706
1629296.032639703,14.18140121437195,1629296.032639703,-0.1199685190779379
1633051.947894315,14.18140117744431,1633051.947894315,-0.1202450749269466
1636816.521427789,14.18140114034623,1636816.521427789,-0.120522268301994
1640589.773199519,14.18140110307691,1640589.773199519,-0.1208001006727223
1644371.723214912,14.18140106563557,1644371.723214912,-0.1210785735121614
1648162.391525488,14.1814010280214,1648162.391525488,-0.121357688296737
1651961.798228994,14.18140099023361,1651961.798228994,-0.1216374465062781
1655769.963469507,14.18140095227141,1655769.963469507,-0.1219178496240249
1659586.90743754,14.18140091413397,1659586.90743754,-0.1221988991366372
1663412.650370148,14.18140087582051,1663412.650370148,-0.1224805965342014
1667247.212551042,14.18140083733019,1667247.212551042,-0.1227629433102391
1671090.614310686,14.18140079866222,1671090.614310686,-0.1230459409617147
1674942.876026416,14.18140075981576,1674942.876026416,-0.1233295909890433
1678804.018122539,14.18140072078999,1678804.018122539,-0.123613894896099
1682674.061070446,14.18140068158409,1682674.061070446,-0.1238988541902225
1686553.025388719,14.18140064219723,1686553.025388719,-0.1241844703822291
1690440.931643242,14.18140060262856,1690440.931643242,-0.1244707449864171
1694337.800447306,14.18140056287725,1694337.800447306,-0.1247576795205754
1698243.652461722,14.18140052294246,1698243.652461722,-0.1250452755059916
1702158.508394928,14.18140048282333,1702158.508394928,-0.1253335344674606
1706082.389003101,14.18140044251903,1706082.389003101,-0.1256224579332917
1710015.315090265,14.18140040202869,1710015.315090265,-0.1259120474353177
1713957.307508403,14.18140036135146,1713957.307508403,-0.1262023045089023
1717908.387157565,14.18140032048646,1717908.387157565,-0.1264932306929487
1721868.574985984,14.18140027943285,1721868.574985984,-0.1267848275299076
1725837.891990181,14.18140023818974,1725837.891990181,-0.1270770965657851
1729816.359215078,14.18140019675626,1729816.359215078,-0.1273700393501515
1733803.997754115,14.18140015513153,1733803.997754115,-0.1276636574361489
1737800.828749352,14.18140011331467,1737800.828749352,-0.1279579523804998
1741806.873391591,14.18140007130479,1741806.873391591,-0.1282529257435154
1745822.15292048,14.18140002910101,1745822.15292048,-0.1285485790891034
1749846.688624633,14.18139998670242,1749846.688624633,-0.128844913984777
1753880.501841737,14.18139994410813,1753880.501841737,-0.1291419320016625
1757923.613958668,14.18139990131723,1757923.613958668,-0.1294396347145082
1761976.046411605,14.18139985832882,1761976.046411605,-0.1297380237016922
1766037.82068614,14.18139981514198,1766037.82068614,-0.1300371005452316
1770108.958317396,14.1813997717558,1770108.958317396,-0.13033686683079
1774189.480890141,14.18139972816936,1774189.480890141,-0.1306373241476861
1778279.410038898,14.18139968438174,1778279.410038898,-0.1309384740889026
1782378.767448064,14.181399640392,1782378.767448064,-0.1312403182510944
1786487.574852025,14.18139959619921,1786487.574852025,-0.1315428582345967
1790605.854035269,14.18139955180244,1790605.854035269,-0.131846095643434
1794733.626832501,14.18139950720074,1794733.626832501,-0.1321500320853284
1798870.915128762,14.18139946239318,1798870.915128762,-0.1324546691717081
1803017.740859543,14.18139941737878,1803017.740859543,-0.1327600085177157
1807174.1260109,14.18139937215662,1807174.1260109,-0.1330660517422174
1811340.092619576,14.18139932672571,1811340.092619576,-0.1333728004678112
1815515.662773108,14.18139928108511,1815515.662773108,-0.1336802563208351
1819700.858609956,14.18139923523384,1819700.858609956,-0.1339884209313765
1823895.70231961,14.18139918917093,1823895.70231961,-0.1342972959332804
1828100.216142715,14.18139914289541,1828100.216142715,-0.1346068829641579
1832314.422371184,14.18139909640628,1832314.422371184,-0.1349171836653956
1836538.343348318,14.18139904970257,1836538.343348318,-0.1352281996821633
1840772.001468928,14.18139900278329,1840772.001468928,-0.1355399326634235
1845015.419179445,14.18139895564744,1845015.419179445,-0.13585238426194
1849268.61897805,14.18139890829402,1849268.61897805,-0.1361655561342862
