;Version, 1, 0
;(VS("/out+") - VS("/out-")) (VCTRL=0.02),;(VS("/out+") - VS("/out-")) (VCTRL=0.04),;(VS("/out+") - VS("/out-")) (VCTRL=0.06),;(VS("/out+") - VS("/out-")) (VCTRL=0.08),;(VS("/out+") - VS("/out-")) (VCTRL=0.1),;(VS("/out+") - VS("/out-")) (VCTRL=0.12),;(VS("/out+") - VS("/out-")) (VCTRL=0.14),;(VS("/out+") - VS("/out-")) (VCTRL=0.16),;(VS("/out+") - VS("/out-")) (VCTRL=0.18),;(VS("/out+") - VS("/out-")) (VCTRL=0.2),;(VS("/out+") - VS("/out-")) (VCTRL=0.22),;(VS("/out+") - VS("/out-")) (VCTRL=0.24),;(VS("/out+") - VS("/out-")) (VCTRL=0.26),;(VS("/out+") - VS("/out-")) (VCTRL=0.28),;(VS("/out+") - VS("/out-")) (VCTRL=0.3)
;X, Y,;X, Y,;X, Y,;X, Y,;X, Y,;X, Y,;X, Y,;X, Y,;X, Y,;X, Y,;X, Y,;X, Y,;X, Y,;X, Y,;X, Y
;Re, Re,;Re, Re,;Re, Re,;Re, Re,;Re, Re,;Re, Re,;Re, Re,;Re, Re,;Re, Re,;Re, Re,;Re, Re,;Re, Re,;Re, Re,;Re, Re,;Re, Re
;vin, V,;vin, V,;vin, V,;vin, V,;vin, V,;vin, V,;vin, V,;vin, V,;vin, V,;vin, V,;vin, V,;vin, V,;vin, V,;vin, V,;vin, V
;xunit, V,;xunit, V,;xunit, V,;xunit, V,;xunit, V,;xunit, V,;xunit, V,;xunit, V,;xunit, V,;xunit, V,;xunit, V,;xunit, V,;xunit, V,;xunit, V,;xunit, V
-0.4,-0.08206221753393961,-0.4,-0.1640871193427014,-0.4,-0.2459273054532614,-0.4,-0.3273359034969456,-0.4,-0.4080551753834181,-0.4,-0.487915248918505,-0.4,-0.5666120494758378,-0.4,-0.6438147839968509,-0.4,-0.7191288481267382,-0.4,-0.7920768066666348,-0.4,-0.8620943949170802,-0.4,-0.9285314040889772,-0.4,-0.9906701266513667,-0.4,-1.047776152854023,-0.4,-1.09919812938226
-0.399,-0.08206036758606183,-0.399,-0.1640841551694507,-0.399,-0.2459058261146225,-0.399,-0.3273032258557927,-0.399,-0.4080514751854034,-0.399,-0.4879112496586457,-0.399,-0.5666066672347806,-0.399,-0.6438091897264041,-0.399,-0.719121828953474,-0.399,-0.7920678097959247,-0.399,-0.8620827911071515,-0.399,-0.9285164797526393,-0.399,-0.9906510701119841,-0.399,-1.047744690965642,-0.399,-1.099104612253519
-0.398,-0.0820584810093361,-0.398,-0.164081134565524,-0.398,-0.2459023760116146,-0.398,-0.3272996343569822,-0.398,-0.408047726548851,-0.398,-0.4879071643368637,-0.398,-0.5666019670613087,-0.398,-0.6438034997053482,-0.398,-0.7191146936461096,-0.398,-0.7920586782756438,-0.398,-0.8620710182912007,-0.398,-0.9285013284251932,-0.398,-0.9906317180697123,-0.398,-1.047720244647294,-0.398,-1.099074133777819
-0.397,-0.08205655882693286,-0.397,-0.1640780546371854,-0.397,-0.2458988548587475,-0.397,-0.3272959657678783,-0.397,-0.4080438955235213,-0.397,-0.4879029894538945,-0.397,-0.5665971668067249,-0.397,-0.6437976944478554,-0.397,-0.7191074222650456,-0.397,-0.7920493828909778,-0.397,-0.8620590456389381,-0.397,-0.9284859319555281,-0.397,-0.9906120653197263,-0.397,-1.047695431287748,-0.397,-1.09904321128468
-0.396,-0.08205460030783263,-0.396,-0.1640749141216269,-0.396,-0.2458952610862999,-0.396,-0.3272922183409501,-0.396,-0.4080399802283436,-0.396,-0.4878987229961619,-0.396,-0.5665922643043632,-0.396,-0.6437917716050475,-0.396,-0.7191000122369091,-0.396,-0.7920399207915738,-0.396,-0.8620468699598772,-0.396,-0.9284702867405242,-0.396,-0.9905921077688974,-0.396,-1.047670246230518,-0.396,-1.099011839498149
-0.395,-0.08205260470710396,-0.395,-0.1640717117314163,-0.395,-0.245891593093462,-0.395,-0.3272883902939981,-0.395,-0.4080359787453167,-0.395,-0.4878943629115071,-0.395,-0.5665872573475187,-0.395,-0.6437857287868601,-0.395,-0.7190924609460912,-0.395,-0.7920302890839235,-0.395,-0.8620344880195568,-0.395,-0.9284543891323409,-0.395,-0.990571841278706,-0.395,-1.047644684773211,-0.395,-1.098980013096253
-0.394,-0.08205057126562565,-0.394,-0.1640684461540087,-0.394,-0.2458878492476957,-0.394,-0.3272844798094453,-0.394,-0.4080318891188133,-0.394,-0.487889907108485,-0.394,-0.5665821436887402,-0.394,-0.643779563561348,-0.394,-0.7190847657340653,-0.394,-0.7920204848306964,-0.394,-0.8620218965389024,-0.394,-0.9284382354378083,-0.394,-0.9905512616646667,-0.394,-1.047618742166988,-0.394,-1.098947726710505
-0.393,-0.0820484992098045,-0.393,-0.1640651160512427,-0.393,-0.2458840278840968,-0.393,-0.3272804850336404,-0.393,-0.408027709354861,-0.393,-0.4878853534556445,-0.393,-0.5665769210391106,-0.393,-0.6437732734539743,-0.393,-0.7190769238986905,-0.393,-0.7920105050500645,-0.393,-0.8620090921935677,-0.393,-0.928421821917805,-0.393,-0.9905303646957336,-0.393,-1.047592413616001,-0.393,-1.098914974925369
-0.392,-0.08204638775128137,-0.392,-0.1640617200588157,-0.392,-0.245880127304746,-0.392,-0.3272764040761458,-0.392,-0.4080234374204077,-0.392,-0.487880699780787,-0.392,-0.5665715870675078,-0.392,-0.6437668559468737,-0.392,-0.7190689326934905,-0.392,-0.792000346714998,-0.392,-0.8619960716132671,-0.392,-0.9284051447866092,-0.392,-0.9905091460936931,-0.392,-1.047565694276822,-0.392,-1.098881752277717
-0.391,-0.08204423608663314,-0.391,-0.1640582567857487,-0.391,-0.2458761457780327,-0.391,-0.3272722350090086,-0.391,-0.4080190712425701,-0.391,-0.4878759438702048,-0.391,-0.5665661393998431,-0.391,-0.6437603084781091,-0.391,-0.7190607893269161,-0.391,-0.791990006752553,-0.391,-0.8619828313810762,-0.391,-0.9283882002112466,-0.391,-0.9904876015325407,-0.391,-1.047538579257853,-0.391,-1.098848053256261
-0.39,-0.08204204339706567,-0.39,-0.1640547248138458,-0.39,-0.245872081537974,-0.39,-0.3272679758660064,-0.39,-0.4080146087078612,-0.39,-0.4878710834679025,-0.39,-0.5665605756182818,-0.39,-0.6437536284408955,-0.39,-0.7190524909615964,-0.39,-0.7919794820431316,-0.39,-0.8619693680327279,-0.39,-0.9283709843108037,-0.39,-0.9904657266378333,-0.39,-1.047511063618709,-0.39,-1.098813872300968
-0.389,-0.08203980884809625,-0.389,-0.1640511226971277,-0.389,-0.2458679327835083,-0.389,-0.3272636246418841,-0.389,-0.408010047661394,-0.389,-0.4878661162748018,-0.389,-0.5665548932604528,-0.389,-0.6437468131828185,-0.389,-0.7190440347135569,-0.389,-0.791968769419732,-0.389,-0.8619556780558851,-0.389,-0.9283534931557417,-0.389,-0.9904435169860348,-0.389,-1.047483142369597,-0.389,-1.098779203802469
-0.388,-0.08203753158923899,-0.388,-0.1640474489612658,-0.388,-0.2458636976777782,-0.388,-0.3272591792915678,-0.388,-0.408005385906079,-0.388,-0.487861039947919,-0.388,-0.5665490898186285,-0.388,-0.643739860005027,-0.388,-0.7190354176514343,-0.388,-0.7919578656671769,-0.388,-0.8619417578893946,-0.388,-0.9283357227671771,-0.388,-0.9904209681038302,-0.388,-1.047454810470669,-0.388,-1.098744042101425
-0.387,-0.08203521075367237,-0.387,-0.1640437021029939,-0.387,-0.245859374347392,-0.387,-0.3272546377293631,-0.387,-0.4080006212017965,-0.387,-0.4878558520995336,-0.387,-0.5665431627388949,-0.387,-0.6437327661614091,-0.387,-0.7190266367956661,-0.387,-0.7919467675213212,-0.387,-0.8619276039225211,-0.387,-0.9283176691161493,-0.387,-0.9903980754674343,-0.387,-1.047426062831358,-0.387,-1.098708381487901
-0.386,-0.08203284545790712,-0.386,-0.1640398805895145,-0.386,-0.2458549608816794,-0.386,-0.3272499978281352,-0.386,-0.4079957512645468,-0.386,-0.4878505502963391,-0.386,-0.5665371094203011,-0.386,-0.6437255288577524,-0.386,-0.7190176891176614,-0.386,-0.7919354716682493,-0.386,-0.8619132124941733,-0.386,-0.9282993281228737,-0.386,-0.9903748345018715,-0.386,-1.04739689430969,-0.386,-1.09867221620069
-0.385,-0.08203043480144401,-0.385,-0.164035982857887,-0.385,-0.2458504553319223,-0.385,-0.327245257418473,-0.385,-0.4079907737655935,-0.385,-0.4878451320585664,-0.385,-0.5665309272139913,-0.385,-0.6437181452508859,-0.385,-0.7190085715389594,-0.385,-0.7919239747434434,-0.385,-0.8618985798920907,-0.385,-0.9282806956559702,-0.385,-0.9903512405802404,-0.385,-1.047367299711579,-0.385,-1.098635540426641
-0.384,-0.08202797786643123,-0.384,-0.1640320073144117,-0.384,-0.2458458557105709,-0.384,-0.3272404142878358,-0.384,-0.40798568633058,-0.384,-0.4878395948591029,-0.384,-0.5665246134223176,-0.384,-0.6437106124477981,-0.384,-0.7189992809303584,-0.384,-0.7919122733309439,-0.384,-0.8618837023520373,-0.384,-0.9282617675316693,-0.384,-0.9903272890229511,-0.384,-1.047337273790098,-0.384,-1.098598348299936
-0.383,-0.08202547371730384,-0.383,-0.1640279523339914,-0.383,-0.2458411599904518,-0.383,-0.3272354661796788,-0.383,-0.4079804865386353,-0.383,-0.4878339361225814,-0.383,-0.5665181652979374,-0.383,-0.6437029275047469,-0.383,-0.7189898141110421,-0.383,-0.7919003639624814,-0.383,-0.86186857605695,-0.383,-0.9282425395130062,-0.383,-0.9903029750969512,-0.383,-1.047306811244729,-0.383,-1.098560633901367
-0.382,-0.08202292140042822,-0.382,-0.1640238162594927,-0.382,-0.2458363661039475,-0.382,-0.327230410792569,-0.382,-0.4079751719214505,-0.382,-0.4878281532244585,-0.382,-0.5665115800428848,-0.382,-0.6436950874263373,-0.382,-0.718980167847669,-0.382,-0.7918882431165922,-0.382,-0.8618531971360841,-0.382,-0.9282230073089841,-0.382,-0.990278294014918,-0.382,-1.047275906720579,-0.382,-1.098522391257567
-0.381,-0.08202031994373438,-0.381,-0.1640195974010823,-0.381,-0.2458314719421717,-0.381,-0.3272252457792724,-0.381,-0.4079697399623474,-0.381,-0.4878222434900679,-0.381,-0.5665048548076317,-0.381,-0.6436870891645927,-0.381,-0.7189703388534535,-0.381,-0.7918759072177149,-0.381,-0.8618375616641281,-0.381,-0.9282031665737196,-0.381,-0.9902532409344351,-0.381,-1.047244554807587,-0.381,-1.098483614340226
-0.38,-0.08201766835634006,-0.38,-0.1640152940355606,-0.38,-0.2458264753541211,-0.38,-0.3272199687458316,-0.38,-0.4079641880953229,-0.38,-0.4878162041936616,-0.38,-0.5664979866901222,-0.38,-0.6436789296179959,-0.38,-0.7189603237872206,-0.38,-0.791863352635263,-0.38,-0.8618216656603008,-0.38,-0.9281830129055649,-0.38,-0.990227810957138,-0.38,-1.047212750039689,-0.38,-1.098444297065266
-0.379,-0.08201496562817212,-0.379,-0.1640109044056779,-0.379,-0.2458213741458117,-0.379,-0.3272145772506194,-0.379,-0.407958513704073,-0.379,-0.4878100325574217,-0.379,-0.5664909727347905,-0.379,-0.6436706056305112,-0.379,-0.7189501192524439,-0.379,-0.7918505756826767,-0.379,-0.8618055050874216,-0.379,-0.9281625418462055,-0.379,-0.9902019991278368,-0.379,-1.047180486893962,-0.379,-1.098404433292
-0.378,-0.08201221072957576,-0.378,-0.164006426719435,-0.378,-0.2458161660793965,-0.378,-0.3272090688033733,-0.378,-0.4079527141209975,-0.378,-0.4878037257504598,-0.378,-0.566483809931558,-0.378,-0.643662113990595,-0.378,-0.7189397217962561,-0.378,-0.7918375726164508,-0.378,-0.8617890758509622,-0.378,-0.9281417488797298,-0.378,-0.9901758004336169,-0.378,-1.047147759789743,-0.378,-1.098364016822245
-0.377,-0.08200940261092327,-0.377,-0.1640018591493762,-0.377,-0.2458108488722694,-0.377,-0.3272034408642129,-0.377,-0.4079467866261847,-0.377,-0.4877972808877897,-0.377,-0.5664764952148024,-0.377,-0.6436534514301658,-0.377,-0.7189291279084439,-0.377,-0.7918243396351413,-0.377,-0.8617723737980681,-0.377,-0.9281206294316777,-0.377,-0.9901492098029004,-0.377,-1.047114563087709,-0.377,-1.098323041399409
-0.376,-0.08200654020220788,-0.376,-0.163997199831865,-0.376,-0.2458054201961422,-0.376,-0.3271976908426338,-0.376,-0.4079407284463729,-0.376,-0.4877906950292832,-0.376,-0.5664690254623123,-0.376,-0.6436446146235691,-0.376,-0.7189183340204086,-0.376,-0.7918108728783454,-0.376,-0.8617553947165569,-0.376,-0.9280991788680582,-0.376,-0.9901222221044903,-0.376,-1.047080891088927,-0.376,-1.098281500707547
-0.375,-0.0820036224126357,-0.375,-0.1639924468663405,-0.375,-0.2457998776761154,-0.375,-0.3271918160964795,-0.375,-0.4079345367538908,-0.375,-0.4877839651785937,-0.375,-0.5664613974942153,-0.375,-0.6436356001865092,-0.375,-0.7189073365041159,-0.375,-0.7917971684256566,-0.375,-0.8617381343338929,-0.375,-0.9280773924943394,-0.375,-0.9900948321465747,-0.375,-1.047046738033883,-0.375,-1.098239388370371
-0.374,-0.08200064813020624,-0.374,-0.163987598314572,-0.374,-0.2457942188897171,-0.374,-0.3271858139308943,-0.374,-0.4079282086655729,-0.374,-0.4877770882820706,-0.374,-0.5664536080718801,-0.374,-0.6436264046749551,-0.374,-0.7188961316710055,-0.374,-0.7917832222955923,-0.374,-0.8617205883161257,-0.374,-0.9280552655544104,-0.374,-0.9900670346757083,-0.374,-1.04701209810146,-0.374,-1.098196697950235
-0.373,-0.08199761622128388,-0.373,-0.1639826521998808,-0.373,-0.2457884413659244,-0.373,-0.3271796815972507,-0.373,-0.4079217412416534,-0.373,-0.4877700612276331,-0.373,-0.5664456538967969,-0.373,-0.6436170245840275,-0.373,-0.7188847157708896,-0.373,-0.7917690304444971,-0.373,-0.8617027522668098,-0.373,-0.928032793210079,-0.373,-0.9900388243757539,-0.373,-1.046976965407894,-0.373,-1.09815342294707
-0.372,-0.08199452553016906,-0.372,-0.1639776065063636,-0.372,-0.2457825425841722,-0.372,-0.327173416292056,-0.372,-0.4079151314846308,-0.372,-0.4877628808436314,-0.372,-0.5664375316094318,-0.372,-0.6436074563468531,-0.372,-0.7188730849908073,-0.372,-0.791754588765416,-0.372,-0.8616846217258862,-0.372,-0.9280099705840874,-0.372,-0.9900101958667954,-0.372,-1.046941334005685,-0.372,-1.09810955679729
-0.371,-0.08199137487864894,-0.371,-0.1639724591780847,-0.371,-0.2457765199733288,-0.371,-0.3271670151558294,-0.371,-0.4079083763381187,-0.371,-0.4877555438976731,-0.371,-0.5664292377880464,-0.371,-0.6435976963333946,-0.371,-0.7188612354538674,-0.371,-0.79173989308693,-0.371,-0.8616661921685389,-0.371,-0.927986792743755,-0.371,-0.9899811437040131,-0.371,-1.04690519788248,-0.371,-1.098065092872647
-0.37,-0.08198816306554524,-0.37,-0.1639672081182617,-0.37,-0.2457703709106553,-0.37,-0.3271604752719576,-0.37,-0.4079014726856496,-0.37,-0.4877480470954295,-0.37,-0.5664207689475018,-0.37,-0.6435877408492517,-0.37,-0.7188491632180464,-0.37,-0.7917249391719818,-0.37,-0.8616474590040174,-0.37,-0.9279632546756361,-0.37,-0.9899516623765225,-0.37,-1.046868550959903,-0.37,-1.098020024479052
-0.369,-0.08198488886625444,-0.369,-0.1639618511884291,-0.369,-0.2457640927207438,-0.369,-0.3271537936655289,-0.369,-0.4078944173494717,-0.369,-0.487740387079407,-0.369,-0.5664121215475306,-0.369,-0.6435775861344287,-0.369,-0.7188368642749705,-0.369,-0.7917097227166425,-0.369,-0.8616284175744191,-0.369,-0.9279393512990329,-0.369,-0.9899217463061778,-0.369,-1.046831387092363,-0.369,-1.097974344855348
-0.368,-0.08198155103227567,-0.368,-0.1639563862075826,-0.368,-0.245757682674423,-0.368,-0.327146967302127,-0.368,-0.4078872070893065,-0.368,-0.4877325604276896,-0.368,-0.5664032920554846,-0.368,-0.64356722836208,-0.368,-0.7188243345486496,-0.368,-0.7916942393488691,-0.368,-0.8616090631534495,-0.368,-0.9279150774647498,-0.368,-0.9898913898463345,-0.368,-1.046793700065799,-0.368,-1.09792804717204
-0.367,-0.08197814829072803,-0.367,-0.1639508109513097,-0.367,-0.2457511379876502,-0.367,-0.3271399930866118,-0.367,-0.4078798386010771,-0.367,-0.4877245636526606,-0.367,-0.5663942768103373,-0.367,-0.6435566636372129,-0.367,-0.7188115698941947,-0.367,-0.7916784846272117,-0.367,-0.8615893909451392,-0.367,-0.927890427953821,-0.367,-0.989860587280573,-0.367,-1.046755483596401,-0.367,-1.097881124529975
-0.366,-0.08197467934386071,-0.366,-0.1639451231508955,-0.366,-0.2457444558203683,-0.366,-0.3271328678618596,-0.366,-0.4078723085156084,-0.366,-0.4877163931996819,-0.366,-0.5663850720639724,-0.366,-0.6435458879953658,-0.366,-0.7187985660964903,-0.366,-0.7916624540394935,-0.366,-0.8615693960825211,-0.366,-0.9278653974761892,-0.366,-0.9898293328213795,-0.366,-1.046716731329277,-0.366,-1.097833569958977
-0.365,-0.08197114286854701,-0.365,-0.1639393204924136,-0.365,-0.2457376332753443,-0.365,-0.3271255884074815,-0.365,-0.4078646133972983,-0.365,-0.4877080454457404,-0.365,-0.5663756739983784,-0.365,-0.6435348974012458,-0.365,-0.7187853188688336,-0.365,-0.7916461430014524,-0.365,-0.8615490736262774,-0.365,-0.9278399806693527,-0.365,-0.9897976206087844,-0.365,-1.046677436837076,-0.365,-1.097785376416436
-0.364,-0.08196753751577557,-0.364,-0.1639334006157904,-0.364,-0.2457306673969728,-0.364,-0.327118151438505,-0.364,-0.4078567497427484,-0.364,-0.4876995166980728,-0.364,-0.5663660787242534,-0.364,-0.6435236877473399,-0.364,-0.7187718238515387,-0.364,-0.7916295468553439,-0.364,-0.8615284185633374,-0.364,-0.9278141720969628,-0.364,-0.9897654447089594,-0.364,-1.046637593618561,-0.364,-1.097736536785838
-0.363,-0.08196386191012417,-0.363,-0.1639273611138561,-0.363,-0.2457235551700554,-0.363,-0.3271105536040289,-0.363,-0.4078487139793689,-0.363,-0.4876908031927409,-0.363,-0.566356282279571,-0.363,-0.6435122548524769,-0.363,-0.7187580766105041,-0.363,-0.7916126608685022,-0.363,-0.8615074258054439,-0.363,-0.9277879662473856,-0.363,-0.9897327991127632,-0.363,-1.046597195097144,-0.363,-1.09768704387525
-0.362,-0.08196011464921882,-0.362,-0.1639211995313681,-0.362,-0.2457162935185557,-0.362,-0.3271027914858403,-0.362,-0.4078405024639439,-0.362,-0.4876819010931824,-0.362,-0.5663462806281089,-0.362,-0.6435005944603635,-0.362,-0.718744072635739,-0.362,-0.7915954802318688,-0.362,-0.8614860901876711,-0.362,-0.9277613575322119,-0.362,-0.9896996777342464,-0.362,-1.046556234619355,-0.362,-1.097636890415753
-0.361,-0.08195629430319507,-0.361,-0.1639149133640116,-0.361,-0.2457088793043127,-0.361,-0.3270948615970027,-0.361,-0.4078321114811637,-0.361,-0.4876728064887196,-0.361,-0.5663360696579367,-0.361,-0.6434887022380735,-0.361,-0.7187298073398498,-0.361,-0.7915780000584658,-0.361,-0.8614644064668995,-0.361,-0.9277343402847283,-0.361,-0.9896660744091031,-0.361,-1.046514705453273,-0.361,-1.097586069059808
-0.36,-0.08195239941412913,-0.36,-0.1639085000573812,-0.36,-0.2457013093257348,-0.36,-0.3270867603804025,-0.36,-0.4078235372421171,-0.36,-0.4876635153930243,-0.36,-0.5663256451798673,-0.36,-0.6434765737745005,-0.36,-0.7187152760564787,-0.36,-0.7915602153818431,-0.36,-0.8614423693202444,-0.36,-0.9277069087583342,-0.36,-0.9896319828930756,-0.36,-1.046472600786898,-0.36,-1.097534572379582
-0.359,-0.08194842849546724,-0.359,-0.163901957005937,-0.359,-0.2456935803164566,-0.359,-0.327078484207265,-0.359,-0.4078147758827464,-0.359,-0.4876540237425576,-0.359,-0.5663150029258659,-0.359,-0.6434642045787669,-0.359,-0.7187004740387153,-0.359,-0.7915421211544651,-0.359,-0.8614199733434453,-0.359,-0.9276790571249166,-0.359,-0.9895973968603041,-0.359,-1.04642991372647,-0.359,-1.097482392865205
-0.358,-0.08194438003144056,-0.358,-0.1638952815519308,-0.358,-0.2456856889439618,-0.358,-0.3270700293756322,-0.358,-0.4078058234622639,-0.358,-0.4876443273949499,-0.358,-0.566304138547414,-0.358,-0.64345159007859,-0.358,-0.718685396457447,-0.358,-0.7915237122460592,-0.358,-0.8613972130491967,-0.358,-0.9276507794731672,-0.358,-0.9895623099016299,-0.358,-1.046386637294732,-0.358,-1.097429522922968
-0.357,-0.08194025247646364,-0.357,-0.1638884709843158,-0.357,-0.2456776318081741,-0.357,-0.3270613921087966,-0.357,-0.4077966759615251,-0.357,-0.4876344221273571,-0.357,-0.5662930476138335,-0.357,-0.6434387256186026,-0.357,-0.7186700383996678,-0.357,-0.7915049834419153,-0.357,-0.8613740828654352,-0.357,-0.927622069806856,-0.357,-0.9895267155228376,-0.357,-1.046342764429134,-0.357,-1.097375954873468
-0.356,-0.08193604425452161,-0.356,-0.1638815225376262,-0.356,-0.2456694054400148,-0.356,-0.3270525685537059,-0.356,-0.407787329281361,-0.356,-0.4876243036347577,-0.356,-0.5662817256105623,-0.356,-0.6434256064586329,-0.356,-0.7186543948667484,-0.356,-0.7914859294411392,-0.356,-0.8613505771335762,-0.356,-0.9275929220430471,-0.356,-0.9894906071428442,-0.356,-1.046298287979979,-0.356,-1.097321680949681
-0.355,-0.08193175375854067,-0.355,-0.1638744333908249,-0.355,-0.2456610062999209,-0.355,-0.3270435547793129,-0.355,-0.4077777792408716,-0.355,-0.4876139675282175,-0.355,-0.5662701679373842,-0.355,-0.6434122277719271,-0.355,-0.7186384607726437,-0.355,-0.7914665448548445,-0.355,-0.8613266901066956,-0.355,-0.927563330010251,-0.355,-0.9894539780918277,-0.355,-1.046253200708508,-0.355,-1.097266693294972
-0.354,-0.08192737934974503,-0.354,-0.1638672006661324,-0.354,-0.2456524307763295,-0.354,-0.3270343467748961,-0.354,-0.4077680215756594,-0.354,-0.4876034093330945,-0.354,-0.5662583699066124,-0.354,-0.6433985846433299,-0.354,-0.7186222309420573,-0.354,-0.7914468242043083,-0.354,-0.8613024159476571,-0.354,-0.9275332874465426,-0.354,-0.9894168216093028,-0.354,-1.046207495284926,-0.354,-1.097210983961047
