;Version, 1, 0
;dB20((VF("/out+") - VF("/out-"))) (VCTRL=0.02),;dB20((VF("/out+") - VF("/out-"))) (VCTRL=0.04),;dB20((VF("/out+") - VF("/out-"))) (VCTRL=0.06),;dB20((VF("/out+") - VF("/out-"))) (VCTRL=0.08),;dB20((VF("/out+") - VF("/out-"))) (VCTRL=0.1),;dB20((VF("/out+") - VF("/out-"))) (VCTRL=0.12),;dB20((VF("/out+") - VF("/out-"))) (VCTRL=0.14),;dB20((VF("/out+") - VF("/out-"))) (VCTRL=0.16),;dB20((VF("/out+") - VF("/out-"))) (VCTRL=0.18),;dB20((VF("/out+") - VF("/out-"))) (VCTRL=0.2)
;X, Y,;X, Y,;X, Y,;X, Y,;X, Y,;X, Y,;X, Y,;X, Y,;X, Y,;X, Y
;Re, Re,;Re, Re,;Re, Re,;Re, Re,;Re, Re,;Re, Re,;Re, Re,;Re, Re,;Re, Re,;Re, Re
;freq, V,;freq, V,;freq, V,;freq, V,;freq, V,;freq, V,;freq, V,;freq, V,;freq, V,;freq, V
;Hz, dB,;Hz, dB,;Hz, dB,;Hz, dB,;Hz, dB,;Hz, dB,;Hz, dB,;Hz, dB,;Hz, dB,;Hz, dB
1000000,-14.43395560657095,1000000,-8.104576563641023,1000000,-4.073031674053931,1000000,-0.871887581961015,1000000,1.947356067202734,1000000,4.567289521781476,1000000,7.058107407818784,1000000,9.40969794202968,1000000,11.59235682753776,1000000,13.46883704666123
1002305.2380779,-14.43395560826224,1002305.2380779,-8.104576565337675,1002305.2380779,-4.073031675760129,1002305.2380779,-0.8718875836819273,1002305.2380779,1.947356065460399,1002305.2380779,4.567289520008859,1002305.2380779,7.058107406004329,1002305.2380779,9.409697940159491,1002305.2380779,11.59235682559582,1002305.2380779,13.46883704463606
1004615.790278395,-14.43395560996136,1004615.790278395,-8.104576567042159,1004615.790278395,-4.073031677474201,1004615.790278395,-0.8718875854107923,1004615.790278395,1.947356063710019,1004615.790278395,4.567289518228059,1004615.790278395,7.058107404181496,1004615.790278395,9.409697938280678,1004615.790278395,11.59235682364491,1004615.790278395,13.46883704260155
1006931.668851804,-14.43395561166827,1006931.668851804,-8.10457656875451,1006931.668851804,-4.073031679196189,1006931.668851804,-0.8718875871476223,1006931.668851804,1.947356061951561,1006931.668851804,4.567289516439038,1006931.668851804,7.058107402350246,1006931.668851804,9.409697936393187,1006931.668851804,11.592356821685,1006931.668851804,13.46883704055764
1009252.886076684,-14.43395561338308,1009252.886076684,-8.104576570474759,1009252.886076684,-4.073031680926124,1009252.886076684,-0.8718875888924762,1009252.886076684,1.947356060184986,1009252.886076684,4.567289514641765,1009252.886076684,7.058107400510549,1009252.886076684,9.409697934496984,1009252.886076684,11.59235681971604,1009252.886076684,13.4688370385043
1011579.454259898,-14.43395561510581,1011579.454259898,-8.104576572202978,1011579.454259898,-4.07303168266403,1011579.454259898,-0.8718875906453786,1011579.454259898,1.947356058410258,1011579.454259898,4.56728951283619,1011579.454259898,7.058107398662353,1011579.454259898,9.40969793259203,1011579.454259898,11.592356817738,1011579.454259898,13.46883703644148
1013911.385736679,-14.43395561683648,1013911.385736679,-8.104576573939136,1013911.385736679,-4.073031684409968,1013911.385736679,-0.8718875924063921,1013911.385736679,1.947356056627337,1013911.385736679,4.567289511022281,1013911.385736679,7.058107396805632,1013911.385736679,9.409697930678284,1013911.385736679,11.59235681575083,1013911.385736679,13.46883703436914
1016248.692870695,-14.43395561857518,1016248.692870695,-8.104576575683321,1016248.692870695,-4.073031686163978,1016248.692870695,-0.8718875941755041,1016248.692870695,1.947356054836195,1016248.692870695,4.567289509200002,1016248.692870695,7.058107394940339,1016248.692870695,9.409697928755701,1016248.692870695,11.59235681375448,1016248.692870695,13.46883703228724
1018591.388054117,-14.43395562032188,1018591.388054117,-8.104576577435548,1018591.388054117,-4.073031687926073,1018591.388054117,-0.8718875959528043,1018591.388054117,1.94735605303677,1018591.388054117,4.567289507369304,1018591.388054117,7.058107393066436,1018591.388054117,9.409697926824247,1018591.388054117,11.59235681174892,1018591.388054117,13.46883703019573
1020939.483707679,-14.43395562207665,1020939.483707679,-8.104576579195877,1020939.483707679,-4.073031689696289,1020939.483707679,-0.8718875977383095,1020939.483707679,1.947356051229048,1020939.483707679,4.567289505530162,1020939.483707679,7.058107391183881,1020939.483707679,9.409697924883876,1020939.483707679,11.5923568097341,1020939.483707679,13.46883702809455
1023292.992280754,-14.43395562383954,1023292.992280754,-8.104576580964332,1023292.992280754,-4.07303169147469,1023292.992280754,-0.871887599532039,1023292.992280754,1.947356049412978,1023292.992280754,4.567289503682539,1023292.992280754,7.058107389292641,1023292.992280754,9.409697922934551,1023292.992280754,11.59235680770998,1023292.992280754,13.46883702598369
1025651.926251407,-14.43395562561051,1025651.926251407,-8.104576582740926,1025651.926251407,-4.073031693261301,1025651.926251407,-0.8718876013340536,1025651.926251407,1.947356047588533,1025651.926251407,4.567289501826375,1025651.926251407,7.058107387392666,1025651.926251407,9.409697920976228,1025651.926251407,11.59235680567651,1025651.926251407,13.46883702386308
1028016.298126473,-14.43395562738966,1028016.298126473,-8.104576584525752,1028016.298126473,-4.073031695056158,1028016.298126473,-0.8718876031443958,1028016.298126473,1.947356045755662,1028016.298126473,4.56728949996165,1028016.298126473,7.058107385483926,1028016.298126473,9.409697919008863,1028016.298126473,11.59235680363367,1028016.298126473,13.46883702173268
1030386.120441615,-14.43395562917706,1030386.120441615,-8.104576586318807,1030386.120441615,-4.073031696859284,1030386.120441615,-0.8718876049630818,1030386.120441615,1.94735604391433,1030386.120441615,4.567289498088315,1030386.120441615,7.058107383566374,1030386.120441615,9.409697917032423,1030386.120441615,11.59235680158138,1030386.120441615,13.46883701959245
1032761.405761397,-14.43395563097271,1032761.405761397,-8.104576588120137,1032761.405761397,-4.073031698670754,1032761.405761397,-0.8718876067901647,1032761.405761397,1.947356042064504,1032761.405761397,4.567289496206337,1032761.405761397,7.058107381639977,1032761.405761397,9.409697915046854,1032761.405761397,11.59235679951964,1032761.405761397,13.46883701744233
1035142.166679343,-14.43395563277665,1035142.166679343,-8.104576589929781,1035142.166679343,-4.073031700490572,1035142.166679343,-0.8718876086256886,1035142.166679343,1.947356040206135,1035142.166679343,4.567289494315668,1035142.166679343,7.058107379704673,1035142.166679343,9.409697913052121,1035142.166679343,11.59235679744837,1035142.166679343,13.4688370152823
1037528.415818012,-14.43395563458888,1037528.415818012,-8.104576591747771,1037528.415818012,-4.073031702318795,1037528.415818012,-0.8718876104696808,1037528.415818012,1.947356038339185,1037528.415818012,4.567289492416269,1037528.415818012,7.058107377760448,1037528.415818012,9.40969791104818,1037528.415818012,11.59235679536754,1037528.415818012,13.4688370131123
1039920.165829058,-14.43395563640949,1039920.165829058,-8.10457659357416,1039920.165829058,-4.073031704155452,1039920.165829058,-0.8718876123221765,1039920.165829058,1.947356036463621,1039920.165829058,4.56728949050811,1039920.165829058,7.058107375807245,1039920.165829058,9.409697909034993,1039920.165829058,11.59235679327711,1039920.165829058,13.46883701093227
1042317.429393303,-14.43395563823853,1042317.429393303,-8.104576595408973,1042317.429393303,-4.073031706000584,1042317.429393303,-0.871887614183241,1042317.429393303,1.947356034579404,1042317.429393303,4.567289488591141,1042317.429393303,7.058107373845031,1042317.429393303,9.409697907012511,1042317.429393303,11.59235679117703,1042317.429393303,13.46883700874219
1044720.219220799,-14.43395564007598,1044720.219220799,-8.104576597252278,1044720.219220799,-4.07303170785424,1044720.219220799,-0.8718876160528847,1044720.219220799,1.947356032686486,1044720.219220799,4.567289486665321,1044720.219220799,7.058107371873753,1044720.219220799,9.409697904980693,1044720.219220799,11.59235678906725,1044720.219220799,13.46883700654199
1047128.548050899,-14.43395564192196,1047128.548050899,-8.104576599104055,1047128.548050899,-4.073031709716465,1047128.548050899,-0.8718876179311547,1047128.548050899,1.947356030784826,1047128.548050899,4.567289484730614,1047128.548050899,7.058107369893378,1047128.548050899,9.409697902939499,1047128.548050899,11.59235678694774,1047128.548050899,13.46883700433165
1049542.428652321,-14.43395564377641,1049542.428652321,-8.104576600964416,1049542.428652321,-4.073031711587266,1049542.428652321,-0.8718876198180978,1049542.428652321,1.947356028874394,1049542.428652321,4.56728948278698,1049542.428652321,7.05810736790386,1049542.428652321,9.409697900888883,1049542.428652321,11.59235678481845,1049542.428652321,13.4688370021111
1051961.873823222,-14.43395564563939,1051961.873823222,-8.104576602833333,1051961.873823222,-4.073031713466707,1051961.873823222,-0.87188762171376,1051961.873823222,1.947356026955145,1051961.873823222,4.567289480834369,1051961.873823222,7.05810736590516,1051961.873823222,9.409697898828798,1051961.873823222,11.59235678267932,1051961.873823222,13.46883699988029
1054386.896391258,-14.43395564751106,1054386.896391258,-8.104576604710887,1054386.896391258,-4.073031715354821,1054386.896391258,-0.8718876236181528,1054386.896391258,1.947356025027031,1054386.896391258,4.567289478872746,1054386.896391258,7.058107363897243,1054386.896391258,9.409697896759212,1054386.896391258,11.59235678053032,1054386.896391258,13.4688369976392
1056817.509213657,-14.43395564939131,1056817.509213657,-8.104576606597107,1056817.509213657,-4.073031717251661,1056817.509213657,-0.871887625531353,1056817.509213657,1.947356023090024,1056817.509213657,4.567289476902072,1056817.509213657,7.058107361880047,1056817.509213657,9.409697894680061,1056817.509213657,11.5923567783714,1056817.509213657,13.46883699538776
1059253.725177287,-14.43395565128024,1059253.725177287,-8.104576608492025,1059253.725177287,-4.073031719157234,1059253.725177287,-0.8718876274533844,1059253.725177287,1.94735602114407,1059253.725177287,4.567289474922299,1059253.725177287,7.058107359853549,1059253.725177287,9.409697892591325,1059253.725177287,11.59235677620252,1059253.725177287,13.46883699312592
1061695.557198723,-14.43395565317789,1061695.557198723,-8.104576610395714,1061695.557198723,-4.073031721071629,1061695.557198723,-0.8718876293842784,1061695.557198723,1.94735601918914,1061695.557198723,4.567289472933389,1061695.557198723,7.058107357817692,1061695.557198723,9.409697890492945,1061695.557198723,11.59235677402363,1061695.557198723,13.46883699085365
1064143.018224314,-14.43395565508434,1064143.018224314,-8.104576612308184,1064143.018224314,-4.073031722994852,1064143.018224314,-0.8718876313240869,1064143.018224314,1.947356017225185,1064143.018224314,4.567289470935298,1064143.018224314,7.05810735577244,1064143.018224314,9.409697888384875,1064143.018224314,11.59235677183467,1064143.018224314,13.46883698857089
1066596.121230256,-14.43395565699953,1066596.121230256,-8.104576614229472,1066596.121230256,-4.073031724926943,1066596.121230256,-0.8718876332728497,1066596.121230256,1.947356015252158,1066596.121230256,4.567289468927982,1066596.121230256,7.058107353717744,1066596.121230256,9.409697886267079,1066596.121230256,11.59235676963562,1066596.121230256,13.46883698627758
1069054.879222656,-14.43395565892363,1069054.879222656,-8.10457661615963,1069054.879222656,-4.073031726867958,1069054.879222656,-0.8718876352306099,1069054.879222656,1.947356013270034,1069054.879222656,4.567289466911409,1069054.879222656,7.05810735165357,1069054.879222656,9.409697884139506,1069054.879222656,11.59235676742641,1069054.879222656,13.4688369839737
1071519.305237605,-14.43395566085656,1071519.305237605,-8.104576618098703,1071519.305237605,-4.073031728817928,1071519.305237605,-0.8718876371974013,1071519.305237605,1.947356011278757,1071519.305237605,4.567289464885524,1071519.305237605,7.058107349579863,1071519.305237605,9.409697882002108,1071519.305237605,11.59235676520701,1071519.305237605,13.46883698165918
1073989.412341243,-14.43395566279841,1073989.412341243,-8.104576620046712,1073989.412341243,-4.073031730776909,1073989.412341243,-0.8718876391732743,1073989.412341243,1.947356009278289,1073989.412341243,4.567289462850278,1073989.412341243,7.058107347496581,1073989.412341243,9.409697879854852,1073989.412341243,11.59235676297737,1073989.412341243,13.46883697933397
1076465.213629833,-14.43395566474927,1076465.213629833,-8.104576622003709,1076465.213629833,-4.073031732744935,1076465.213629833,-0.8718876411582778,1076465.213629833,1.947356007268579,1076465.213629833,4.567289460805651,1076465.213629833,7.058107345403687,1076465.213629833,9.409697877697676,1076465.213629833,11.59235676073743,1076465.213629833,13.46883697699804
1078946.722229827,-14.43395566670909,1078946.722229827,-8.104576623969759,1078946.722229827,-4.073031734722036,1078946.722229827,-0.8718876431524213,1078946.722229827,1.947356005249606,1078946.722229827,4.567289458751581,1078946.722229827,7.058107343301132,1078946.722229827,9.409697875530551,1078946.722229827,11.59235675848715,1078946.722229827,13.46883697465132
1081433.951297936,-14.43395566867793,1081433.951297936,-8.10457662594488,1081433.951297936,-4.07303173670826,1081433.951297936,-0.8718876451557839,1081433.951297936,1.947356003221308,1081433.951297936,4.567289456688031,1081433.951297936,7.058107341188877,1081433.951297936,9.409697873353419,1081433.951297936,11.59235675622648,1081433.951297936,13.46883697229377
1083926.914021201,-14.43395567065591,1083926.914021201,-8.104576627929122,1083926.914021201,-4.073031738703639,1083926.914021201,-0.8718876471683933,1083926.914021201,1.947356001183645,1083926.914021201,4.567289454614955,1083926.914021201,7.05810733906687,1083926.914021201,9.409697871166241,1083926.914021201,11.59235675395538,1083926.914021201,13.46883696992534
1086425.623617063,-14.43395567264299,1086425.623617063,-8.104576629922523,1086425.623617063,-4.073031740708263,1086425.623617063,-0.8718876491902985,1086425.623617063,1.947355999136581,1086425.623617063,4.567289452532306,1086425.623617063,7.058107336935064,1086425.623617063,9.409697868968964,1086425.623617063,11.5923567516738,1086425.623617063,13.46883696754598
1088930.093333431,-14.43395567463928,1088930.093333431,-8.104576631925104,1088930.093333431,-4.073031742722114,1088930.093333431,-0.8718876512215143,1088930.093333431,1.947355997080063,1088930.093333431,4.567289450440051,1088930.093333431,7.058107334793422,1088930.093333431,9.409697866761544,1088930.093333431,11.59235674938169,1088930.093333431,13.46883696515563
1091440.336448754,-14.43395567664476,1091440.336448754,-8.104576633936951,1091440.336448754,-4.073031744745268,1091440.336448754,-0.8718876532621239,1091440.336448754,1.947355995014062,1091440.336448754,4.567289448338133,1091440.336448754,7.058107332641892,1091440.336448754,9.40969786454394,1091440.336448754,11.59235674707899,1091440.336448754,13.46883696275425
1093956.366272091,-14.4339556786595,1093956.366272091,-8.104576635958056,1093956.366272091,-4.073031746777758,1093956.366272091,-0.8718876553121467,1093956.366272091,1.947355992938516,1093956.366272091,4.567289446226519,1093956.366272091,7.058107330480431,1093956.366272091,9.409697862316092,1093956.366272091,11.59235674476567,1093956.366272091,13.46883696034179
1096478.196143182,-14.43395568068354,1096478.196143182,-8.104576637988513,1096478.196143182,-4.073031748819631,1096478.196143182,-0.8718876573716359,1096478.196143182,1.947355990853389,1096478.196143182,4.567289444105154,1096478.196143182,7.058107328308997,1096478.196143182,9.409697860077967,1096478.196143182,11.59235674244167,1096478.196143182,13.46883695791819
1099005.839432518,-14.43395568271695,1099005.839432518,-8.10457664002835,1099005.839432518,-4.073031750870931,1099005.839432518,-0.8718876594406275,1099005.839432518,1.947355988758647,1099005.839432518,4.567289441973999,1099005.839432518,7.058107326127534,1099005.839432518,9.409697857829514,1099005.839432518,11.59235674010695,1099005.839432518,13.4688369554834
1101539.309541412,-14.43395568475967,1101539.309541412,-8.104576642077573,1101539.309541412,-4.073031752931699,1101539.309541412,-0.8718876615191762,1101539.309541412,1.947355986654226,1101539.309541412,4.567289439833002,1101539.309541412,7.058107323936009,1101539.309541412,9.409697855570677,1101539.309541412,11.59235673776144,1101539.309541412,13.46883695303737
1104078.61990207,-14.43395568681186,1104078.61990207,-8.104576644136282,1104078.61990207,-4.073031755001981,1104078.61990207,-0.871887663607314,1104078.61990207,1.947355984540101,1104078.61990207,4.567289437682128,1104078.61990207,7.058107321734362,1104078.61990207,9.409697853301417,1104078.61990207,11.59235673540511,1104078.61990207,13.46883695058006
1106623.783977663,-14.43395568887355,1106623.783977663,-8.104576646204485,1106623.783977663,-4.073031757081811,1106623.783977663,-0.8718876657050842,1106623.783977663,1.947355982416209,1106623.783977663,4.56728943552133,1106623.783977663,7.058107319522563,1106623.783977663,9.409697851021681,1106623.783977663,11.59235673303791,1106623.783977663,13.46883694811141
1109174.815262398,-14.43395569094475,1109174.815262398,-8.104576648282224,1109174.815262398,-4.073031759171252,1109174.815262398,-0.8718876678125385,1109174.815262398,1.947355980282508,1109174.815262398,4.567289433350552,1109174.815262398,7.058107317300538,1109174.815262398,9.409697848731422,1109174.815262398,11.59235673065977,1109174.815262398,13.46883694563136
1111731.727281588,-14.43395569302544,1111731.727281588,-8.104576650369557,1111731.727281588,-4.073031761270339,1111731.727281588,-0.8718876699297288,1111731.727281588,1.94735597813897,1111731.727281588,4.567289431169755,1111731.727281588,7.058107315068268,1111731.727281588,9.409697846430593,1111731.727281588,11.59235672827066,1111731.727281588,13.46883694313985
1114294.533591727,-14.43395569511581,1114294.533591727,-8.10457665246655,1114294.533591727,-4.073031763379101,1114294.533591727,-0.8718876720566806,1114294.533591727,1.947355975985539,1114294.533591727,4.567289428978892,1114294.533591727,7.058107312825691,1114294.533591727,9.409697844119142,1114294.533591727,11.59235672587053,1114294.533591727,13.46883694063685
1116863.247780558,-14.43395569721582,1116863.247780558,-8.104576654573194,1116863.247780558,-4.073031765497601,1116863.247780558,-0.8718876741934584,1116863.247780558,1.947355973822166,1116863.247780558,4.567289426777916,1116863.247780558,7.058107310572764,1116863.247780558,9.409697841797023,1116863.247780558,11.59235672345931,1116863.247780558,13.4688369381223
1119437.883467148,-14.43395569932552,1119437.883467148,-8.104576656689567,1119437.883467148,-4.073031767625886,1119437.883467148,-0.871887676340101,1119437.883467148,1.947355971648801,1119437.883467148,4.567289424566778,1119437.883467148,7.058107308309441,1119437.883467148,9.409697839464181,1119437.883467148,11.59235672103696,1119437.883467148,13.46883693559614
1122018.45430196,-14.43395570144491,1122018.45430196,-8.104576658815722,1122018.45430196,-4.073031769763991,1122018.45430196,-0.8718876784966484,1122018.45430196,1.94735596946541,1122018.45430196,4.567289422345439,1122018.45430196,7.058107306035661,1122018.45430196,9.40969783712058,1122018.45430196,11.59235671860343,1122018.45430196,13.46883693305832
1124604.973966923,-14.43395570357413,1124604.973966923,-8.104576660951674,1124604.973966923,-4.073031771911955,1124604.973966923,-0.8718876806631546,1124604.973966923,1.947355967271936,1124604.973966923,4.567289420113846,1124604.973966923,7.058107303751396,1124604.973966923,9.409697834766153,1124604.973966923,11.59235671615868,1124604.973966923,13.46883693050879
1127197.456175507,-14.43395570571316,1127197.456175507,-8.104576663097498,1127197.456175507,-4.073031774069853,1127197.456175507,-0.8718876828396517,1127197.456175507,1.947355965068343,1127197.456175507,4.567289417871953,1127197.456175507,7.05810730145658,1127197.456175507,9.409697832400864,1127197.456175507,11.59235671370263,1127197.456175507,13.46883692794748
