;Version, 1, 0
;dB20((VF("/out+") - VF("/out-"))) (VCTRL=0.02),;dB20((VF("/out+") - VF("/out-"))) (VCTRL=0.04),;dB20((VF("/out+") - VF("/out-"))) (VCTRL=0.06),;dB20((VF("/out+") - VF("/out-"))) (VCTRL=0.08),;dB20((VF("/out+") - VF("/out-"))) (VCTRL=0.1),;dB20((VF("/out+") - VF("/out-"))) (VCTRL=0.12),;dB20((VF("/out+") - VF("/out-"))) (VCTRL=0.14),;dB20((VF("/out+") - VF("/out-"))) (VCTRL=0.16),;dB20((VF("/out+") - VF("/out-"))) (VCTRL=0.18),;dB20((VF("/out+") - VF("/out-"))) (VCTRL=0.2),;dB20((VF("/out+") - VF("/out-"))) (VCTRL=0.22),;dB20((VF("/out+") - VF("/out-"))) (VCTRL=0.24),;dB20((VF("/out+") - VF("/out-"))) (VCTRL=0.26),;dB20((VF("/out+") - VF("/out-"))) (VCTRL=0.28),;dB20((VF("/out+") - VF("/out-"))) (VCTRL=0.3)
;X, Y,;X, Y,;X, Y,;X, Y,;X, Y,;X, Y,;X, Y,;X, Y,;X, Y,;X, Y,;X, Y,;X, Y,;X, Y,;X, Y,;X, Y
;Re, Re,;Re, Re,;Re, Re,;Re, Re,;Re, Re,;Re, Re,;Re, Re,;Re, Re,;Re, Re,;Re, Re,;Re, Re,;Re, Re,;Re, Re,;Re, Re,;Re, Re
;freq, V,;freq, V,;freq, V,;freq, V,;freq, V,;freq, V,;freq, V,;freq, V,;freq, V,;freq, V,;freq, V,;freq, V,;freq, V,;freq, V,;freq, V
;Hz, dB,;Hz, dB,;Hz, dB,;Hz, dB,;Hz, dB,;Hz, dB,;Hz, dB,;Hz, dB,;Hz, dB,;Hz, dB,;Hz, dB,;Hz, dB,;Hz, dB,;Hz, dB,;Hz, dB
1000000,-13.10417270706839,1000000,-6.776225653526202,1000000,-2.746598815766668,1000000,0.4528181090992469,1000000,3.271400166069014,1000000,5.89272144268277,1000000,8.387909587878243,1000000,10.74513538851696,1000000,12.93679808279794,1000000,14.82585334866793,1000000,16.3032348028367,1000000,17.37177732472622,1000000,18.06139887235978,1000000,18.48272540698044,1000000,18.73634608788977
1002305.2380779,-13.10417270881886,1002305.2380779,-6.776225655282464,1002305.2380779,-2.746598817533298,1002305.2380779,0.4528181073165936,1002305.2380779,3.271400164262928,1002305.2380779,5.892721440843389,1002305.2380779,8.387909585992523,1002305.2380779,10.74513538656904,1002305.2380779,12.9367980807692,1002305.2380779,14.82585334654406,1002305.2380779,16.30323480061443,1002305.2380779,17.3717773224133,1002305.2380779,18.06139886997514,1002305.2380779,18.482725404543,1002305.2380779,18.73634608541347
1004615.790278395,-13.10417271057741,1004615.790278395,-6.776225657046852,1004615.790278395,-2.746598819308091,1004615.790278395,0.4528181055256985,1004615.790278395,3.271400162448511,1004615.790278395,5.892721438995515,1004615.790278395,8.387909584098102,1004615.790278395,10.74513538461213,1004615.790278395,12.93679807873109,1004615.790278395,14.82585334441038,1004615.790278395,16.3032347983819,1004615.790278395,17.37177732008971,1004615.790278395,18.06139886757951,1004615.790278395,18.4827254020943,1004615.790278395,18.73634608292572
1006931.668851804,-13.10417271234405,1006931.668851804,-6.776225658819368,1006931.668851804,-2.746598821091077,1006931.668851804,0.4528181037265379,1006931.668851804,3.271400160625711,1006931.668851804,5.892721437139113,1006931.668851804,8.387909582194936,1006931.668851804,10.74513538264619,1006931.668851804,12.93679807668358,1006931.668851804,14.82585334226686,1006931.668851804,16.30323479613907,1006931.668851804,17.3717773177554,1006931.668851804,18.06139886517281,1006931.668851804,18.4827253996343,1006931.668851804,18.7363460804265
1009252.886076684,-13.10417271411885,1009252.886076684,-6.776225660600066,1009252.886076684,-2.74659882288228,1009252.886076684,0.4528181019190824,1009252.886076684,3.271400158794498,1009252.886076684,5.892721435274147,1009252.886076684,8.387909580282987,1009252.886076684,10.74513538067117,1009252.886076684,12.93679807462662,1009252.886076684,14.82585334011344,1009252.886076684,16.3032347938859,1009252.886076684,17.3717773154103,1009252.886076684,18.06139886275501,1009252.886076684,18.48272539716294,1009252.886076684,18.73634607791575
1011579.454259898,-13.10417271590185,1011579.454259898,-6.776225662388976,1011579.454259898,-2.746598824681758,1011579.454259898,0.4528181001032772,1011579.454259898,3.271400156954831,1011579.454259898,5.892721433400565,1011579.454259898,8.387909578362208,1011579.454259898,10.74513537868703,1011579.454259898,12.93679807256015,1011579.454259898,14.82585333795008,1011579.454259898,16.30323479162231,1011579.454259898,17.37177731305438,1011579.454259898,18.06139886032603,1011579.454259898,18.48272539468018,1011579.454259898,18.73634607539341
1013911.385736679,-13.1041727176931,1013911.385736679,-6.776225664186171,1013911.385736679,-2.746598826489543,1013911.385736679,0.4528180982790875,1013911.385736679,3.271400155106673,1013911.385736679,5.892721431518339,1013911.385736679,8.387909576432568,1013911.385736679,10.74513537669374,1013911.385736679,12.93679807048416,1013911.385736679,14.82585333577673,1013911.385736679,16.30323478934828,1013911.385736679,17.37177731068759,1013911.385736679,18.06139885788586,1013911.385736679,18.48272539218596,1013911.385736679,18.73634607285942
1016248.692870695,-13.10417271949261,1016248.692870695,-6.776225665991643,1016248.692870695,-2.74659882830567,1016248.692870695,0.4528180964464747,1016248.692870695,3.271400153249986,1016248.692870695,5.892721429627427,1016248.692870695,8.387909574494019,1016248.692870695,10.74513537469124,1016248.692870695,12.93679806839858,1016248.692870695,14.82585333359336,1016248.692870695,16.30323478706375,1016248.692870695,17.37177730830988,1016248.692870695,18.06139885543442,1016248.692870695,18.48272538968022,1016248.692870695,18.73634607031373
1018591.388054117,-13.10417272130039,1018591.388054117,-6.776225667805442,1018591.388054117,-2.746598830130193,1018591.388054117,0.4528180946054152,1018591.388054117,3.271400151384729,1018591.388054117,5.892721427727778,1018591.388054117,8.387909572546524,1018591.388054117,10.74513537267951,1018591.388054117,12.93679806630337,1018591.388054117,14.8258533313999,1018591.388054117,16.30323478476868,1018591.388054117,17.37177730592118,1018591.388054117,18.06139885297166,1018591.388054117,18.48272538716292,1018591.388054117,18.7363460677563
1020939.483707679,-13.10417272311653,1020939.483707679,-6.776225669627607,1020939.483707679,-2.74659883196311,1020939.483707679,0.4528180927558485,1020939.483707679,3.271400149510855,1020939.483707679,5.892721425819366,1020939.483707679,8.387909570590038,1020939.483707679,10.74513537065848,1020939.483707679,12.93679806419849,1020939.483707679,14.82585332919632,1020939.483707679,16.30323478246302,1020939.483707679,17.37177730352147,1020939.483707679,18.06139885049754,1020939.483707679,18.48272538463399,1020939.483707679,18.73634606518706
1023292.992280754,-13.10417272494108,1023292.992280754,-6.776225671458224,1023292.992280754,-2.746598833804509,1023292.992280754,0.4528180908977545,1023292.992280754,3.271400147628341,1023292.992280754,5.892721423902147,1023292.992280754,8.38790956862452,1023292.992280754,10.74513536862813,1023292.992280754,12.9367980620839,1023292.992280754,14.82585332698257,1023292.992280754,16.30323478014671,1023292.992280754,17.37177730111067,1023292.992280754,18.06139884801199,1023292.992280754,18.4827253820934,1023292.992280754,18.73634606260596
1025651.926251407,-13.10417272677403,1025651.926251407,-6.776225673297259,1025651.926251407,-2.746598835654397,1025651.926251407,0.4528180890310708,1025651.926251407,3.27140014573713,1025651.926251407,5.892721421976076,1025651.926251407,8.387909566649933,1025651.926251407,10.74513536658841,1025651.926251407,12.93679805995954,1025651.926251407,14.8258533247586,1025651.926251407,16.30323477781971,1025651.926251407,17.37177729868875,1025651.926251407,18.06139884551497,1025651.926251407,18.48272537954108,1025651.926251407,18.73634606001295
1028016.298126473,-13.10417272861545,1028016.298126473,-6.776225675144781,1028016.298126473,-2.74659883751284,1028016.298126473,0.4528180871557812,1028016.298126473,3.271400143837202,1028016.298126473,5.892721420041116,1028016.298126473,8.387909564666232,1028016.298126473,10.74513536453927,1028016.298126473,12.93679805782538,1028016.298126473,14.82585332252437,1028016.298126473,16.30323477548197,1028016.298126473,17.37177729625565,1028016.298126473,18.06139884300643,1028016.298126473,18.48272537697698,1028016.298126473,18.73634605740797
1030386.120441615,-13.10417273046535,1030386.120441615,-6.776225677000843,1030386.120441615,-2.74659883937985,1030386.120441615,0.452818085271836,1030386.120441615,3.27140014192849,1030386.120441615,5.892721418097231,1030386.120441615,8.38790956267337,1030386.120441615,10.74513536248067,1030386.120441615,12.93679805568137,1030386.120441615,14.82585332027983,1030386.120441615,16.30323477313344,1030386.120441615,17.37177729381132,1030386.120441615,18.06139884048631,1030386.120441615,18.48272537440105,1030386.120441615,18.73634605479096
1032761.405761397,-13.10417273232381,1032761.405761397,-6.776225678865484,1032761.405761397,-2.746598841255473,1032761.405761397,0.4528180833791842,1032761.405761397,3.271400140010978,1032761.405761397,5.892721416144364,1032761.405761397,8.387909560671316,1032761.405761397,10.74513536041257,1032761.405761397,12.93679805352746,1032761.405761397,14.82585331802492,1032761.405761397,16.30323477077406,1032761.405761397,17.37177729135571,1032761.405761397,18.06139883795456,1032761.405761397,18.48272537181322,1032761.405761397,18.73634605216188
1035142.166679343,-13.10417273419083,1035142.166679343,-6.77622568073869,1035142.166679343,-2.746598843139751,1035142.166679343,0.4528180814778054,1035142.166679343,3.271400138084612,1035142.166679343,5.892721414182483,1035142.166679343,8.387909558660015,1035142.166679343,10.74513535833493,1035142.166679343,12.93679805136361,1035142.166679343,14.8258533157596,1035142.166679343,16.3032347684038,1035142.166679343,17.37177728888875,1035142.166679343,18.06139883541112,1035142.166679343,18.48272536921344,1035142.166679343,18.73634604952066
1037528.415818012,-13.10417273606648,1037528.415818012,-6.776225682620572,1037528.415818012,-2.746598845032746,1037528.415818012,0.452818079567643,1037528.415818012,3.271400136149356,1037528.415818012,5.892721412211552,1037528.415818012,8.387909556639434,1037528.415818012,10.74513535624769,1037528.415818012,12.93679804918977,1037528.415818012,14.82585331348383,1037528.415818012,16.3032347660226,1037528.415818012,17.37177728641042,1037528.415818012,18.06139883285594,1037528.415818012,18.48272536660167,1037528.415818012,18.73634604686725
1039920.165829058,-13.1041727379508,1039920.165829058,-6.776225684511125,1039920.165829058,-2.746598846934458,1039920.165829058,0.4528180776486733,1039920.165829058,3.271400134205162,1039920.165829058,5.892721410231522,1039920.165829058,8.387909554609523,1039920.165829058,10.74513535415083,1039920.165829058,12.9367980470059,1039920.165829058,14.82585331119755,1039920.165829058,16.30323476363041,1039920.165829058,17.37177728392065,1039920.165829058,18.06139883028896,1039920.165829058,18.48272536397785,1039920.165829058,18.73634604420159
1042317.429393303,-13.10417273984381,1042317.429393303,-6.77622568641041,1042317.429393303,-2.746598848844955,1042317.429393303,0.4528180757208393,1042317.429393303,3.271400132251997,1042317.429393303,5.892721408242346,1042317.429393303,8.387909552570243,1042317.429393303,10.74513535204428,1042317.429393303,12.93679804481195,1042317.429393303,14.82585330890072,1042317.429393303,16.30323476122717,1042317.429393303,17.37177728141938,1042317.429393303,18.06139882771014,1042317.429393303,18.48272536134191,1042317.429393303,18.73634604152363
1044720.219220799,-13.10417274174555,1044720.219220799,-6.776225688318482,1044720.219220799,-2.746598850764283,1044720.219220799,0.45281807378411,1044720.219220799,3.271400130289821,1044720.219220799,5.892721406243992,1044720.219220799,8.387909550521552,1044720.219220799,10.74513534992801,1044720.219220799,12.93679804260787,1044720.219220799,14.82585330659329,1044720.219220799,16.30323475881285,1044720.219220799,17.37177727890656,1044720.219220799,18.06139882511941,1044720.219220799,18.48272535869381,1044720.219220799,18.7363460388333
1047128.548050899,-13.10417274365607,1047128.548050899,-6.776225690235345,1047128.548050899,-2.746598852692446,1047128.548050899,0.4528180718384433,1047128.548050899,3.271400128318581,1047128.548050899,5.892721404236416,1047128.548050899,8.387909548463407,1047128.548050899,10.74513534780197,1047128.548050899,12.93679804039362,1047128.548050899,14.82585330427521,1047128.548050899,16.30323475638738,1047128.548050899,17.37177727638215,1047128.548050899,18.06139882251673,1047128.548050899,18.48272535603347,1047128.548050899,18.73634603613057
1049542.428652321,-13.10417274557541,1049542.428652321,-6.776225692161056,1049542.428652321,-2.746598854629521,1049542.428652321,0.4528180698837898,1049542.428652321,3.271400126338244,1049542.428652321,5.892721402219578,1049542.428652321,8.387909546395754,1049542.428652321,10.74513534566611,1049542.428652321,12.93679803816915,1049542.428652321,14.82585330194643,1049542.428652321,16.30323475395071,1049542.428652321,17.37177727384609,1049542.428652321,18.06139881990203,1049542.428652321,18.48272535336087,1049542.428652321,18.73634603341535
1051961.873823222,-13.1041727475036,1051961.873823222,-6.776225694095642,1051961.873823222,-2.746598856575535,1051961.873823222,0.4528180679201146,1051961.873823222,3.271400124348768,1051961.873823222,5.892721400193422,1051961.873823222,8.387909544318564,1051961.873823222,10.7451353435204,1051961.873823222,12.93679803593441,1051961.873823222,14.8258532996069,1051961.873823222,16.3032347515028,1051961.873823222,17.37177727129832,1051961.873823222,18.06139881727526,1051961.873823222,18.48272535067593,1051961.873823222,18.7363460306876
1054386.896391258,-13.10417274944069,1054386.896391258,-6.776225696039178,1054386.896391258,-2.746598858530536,1054386.896391258,0.4528180659473812,1054386.896391258,3.271400122350108,1054386.896391258,5.89272139815792,1054386.896391258,8.387909542231787,1054386.896391258,10.74513534136479,1054386.896391258,12.93679803368935,1054386.896391258,14.82585329725658,1054386.896391258,16.30323474904358,1054386.896391258,17.37177726873879,1054386.896391258,18.06139881463637,1054386.896391258,18.48272534797858,1054386.896391258,18.73634602794726
1056817.509213657,-13.10417275138676,1056817.509213657,-6.776225697991665,1056817.509213657,-2.746598860494566,1056817.509213657,0.4528180639655348,1056817.509213657,3.27140012034223,1056817.509213657,5.89272139611302,1056817.509213657,8.387909540135372,1056817.509213657,10.74513533919922,1056817.509213657,12.93679803143393,1056817.509213657,14.82585329489539,1056817.509213657,16.30323474657301,1056817.509213657,17.37177726616745,1056817.509213657,18.0613988119853,1056817.509213657,18.4827253452688,1056817.509213657,18.73634602519427
1059253.725177287,-13.10417275334176,1059253.725177287,-6.776225699953195,1059253.725177287,-2.746598862467652,1059253.725177287,0.4528180619745495,1059253.725177287,3.271400118325073,1059253.725177287,5.892721394058681,1059253.725177287,8.387909538029284,1059253.725177287,10.74513533702366,1059253.725177287,12.93679802916811,1059253.725177287,14.82585329252332,1059253.725177287,16.30323474409104,1059253.725177287,17.37177726358424,1059253.725177287,18.06139880932199,1059253.725177287,18.48272534254651,1059253.725177287,18.73634602242857
1061695.557198723,-13.1041727553058,1061695.557198723,-6.776225701923762,1061695.557198723,-2.746598864449854,1061695.557198723,0.4528180599743595,1061695.557198723,3.271400116298604,1061695.557198723,5.892721391994861,1061695.557198723,8.387909535913471,1061695.557198723,10.74513533483806,1061695.557198723,12.93679802689182,1061695.557198723,14.82585329014029,1061695.557198723,16.30323474159762,1061695.557198723,17.3717772609891,1061695.557198723,18.06139880664639,1061695.557198723,18.48272533981164,1061695.557198723,18.73634601965011
1064143.018224314,-13.10417275727894,1064143.018224314,-6.776225703903405,1064143.018224314,-2.746598866441187,1064143.018224314,0.4528180579649483,1064143.018224314,3.271400114262787,1064143.018224314,5.892721389921508,1064143.018224314,8.3879095337879,1064143.018224314,10.74513533264237,1064143.018224314,12.93679802460502,1064143.018224314,14.82585328774627,1064143.018224314,16.30323473909269,1064143.018224314,17.37177725838199,1064143.018224314,18.06139880395844,1064143.018224314,18.48272533706416,1064143.018224314,18.73634601685882
1066596.121230256,-13.10417275926116,1066596.121230256,-6.776225705892201,1066596.121230256,-2.746598868441725,1066596.121230256,0.4528180559462556,1066596.121230256,3.271400112217576,1066596.121230256,5.892721387838595,1066596.121230256,8.387909531652511,1066596.121230256,10.74513533043654,1066596.121230256,12.93679802230767,1066596.121230256,14.82585328534119,1066596.121230256,16.30323473657619,1066596.121230256,17.37177725576284,1066596.121230256,18.06139880125808,1066596.121230256,18.48272533430399,1066596.121230256,18.73634601405465
1069054.879222656,-13.1041727612525,1069054.879222656,-6.776225707890182,1069054.879222656,-2.746598870451503,1069054.879222656,0.4528180539182557,1069054.879222656,3.271400110162921,1069054.879222656,5.892721385746063,1069054.879222656,8.387909529507271,1069054.879222656,10.74513532822054,1069054.879222656,12.93679801999972,1069054.879222656,14.82585328292502,1069054.879222656,16.30323473404808,1069054.879222656,17.3717772531316,1069054.879222656,18.06139879854526,1069054.879222656,18.48272533153108,1069054.879222656,18.73634601123754
1071519.305237605,-13.10417276325306,1071519.305237605,-6.77622570989739,1071519.305237605,-2.746598872470555,1071519.305237605,0.4528180518808936,1071519.305237605,3.271400108098784,1071519.305237605,5.892721383643872,1071519.305237605,8.387909527352122,1071519.305237605,10.7451353259943,1071519.305237605,12.93679801768111,1071519.305237605,14.82585328049768,1071519.305237605,16.30323473150829,1071519.305237605,17.37177725048821,1071519.305237605,18.06139879581991,1071519.305237605,18.48272532874538,1071519.305237605,18.73634600840742
1073989.412341243,-13.10417276526284,1073989.412341243,-6.776225711913863,1073989.412341243,-2.74659887449891,1073989.412341243,0.4528180498341164,1073989.412341243,3.271400106025115,1073989.412341243,5.892721381531982,1073989.412341243,8.38790952518703,1073989.412341243,10.74513532375779,1073989.412341243,12.93679801535181,1073989.412341243,14.82585327805915,1073989.412341243,16.30323472895679,1073989.412341243,17.37177724783263,1073989.412341243,18.06139879308199,1073989.412341243,18.48272532594681,1073989.412341243,18.73634600556424
1076465.213629833,-13.10417276728191,1076465.213629833,-6.776225713939645,1076465.213629833,-2.74659887653665,1076465.213629833,0.4528180477778946,1076465.213629833,3.271400103941872,1076465.213629833,5.892721379410335,1076465.213629833,8.387909523011944,1076465.213629833,10.74513532151095,1076465.213629833,12.93679801301175,1076465.213629833,14.82585327560936,1076465.213629833,16.30323472639351,1076465.213629833,17.37177724516479,1076465.213629833,18.06139879033142,1076465.213629833,18.48272532313534,1076465.213629833,18.73634600270794
1078946.722229827,-13.10417276931032,1078946.722229827,-6.776225715974766,1078946.722229827,-2.74659887858378,1078946.722229827,0.4528180457121844,1078946.722229827,3.271400101849027,1078946.722229827,5.892721377278898,1078946.722229827,8.387909520826813,1078946.722229827,10.74513531925374,1078946.722229827,12.93679801066088,1078946.722229827,14.82585327314827,1078946.722229827,16.3032347238184,1078946.722229827,17.37177724248464,1078946.722229827,18.06139878756816,1078946.722229827,18.48272532031088,1078946.722229827,18.73634599983844
1081433.951297936,-13.10417277134806,1081433.951297936,-6.776225718019271,1081433.951297936,-2.746598880640359,1081433.951297936,0.4528180436369455,1081433.951297936,3.271400099746503,1081433.951297936,5.892721375137625,1081433.951297936,8.3879095186316,1081433.951297936,10.74513531698612,1081433.951297936,12.93679800829917,1081433.951297936,14.82585327067581,1081433.951297936,16.3032347212314,1081433.951297936,17.3717772397921,1081433.951297936,18.06139878479215,1081433.951297936,18.48272531747338,1081433.951297936,18.73634599695572
