;Version, 1, 0
;dB20((VF("/out+") - VF("/out-"))) (VCTRL=0.02),;dB20((VF("/out+") - VF("/out-"))) (VCTRL=0.04),;dB20((VF("/out+") - VF("/out-"))) (VCTRL=0.06),;dB20((VF("/out+") - VF("/out-"))) (VCTRL=0.08),;dB20((VF("/out+") - VF("/out-"))) (VCTRL=0.1),;dB20((VF("/out+") - VF("/out-"))) (VCTRL=0.12),;dB20((VF("/out+") - VF("/out-"))) (VCTRL=0.14),;dB20((VF("/out+") - VF("/out-"))) (VCTRL=0.16),;dB20((VF("/out+") - VF("/out-"))) (VCTRL=0.18),;dB20((VF("/out+") - VF("/out-"))) (VCTRL=0.2),;dB20((VF("/out+") - VF("/out-"))) (VCTRL=0.22),;dB20((VF("/out+") - VF("/out-"))) (VCTRL=0.24),;dB20((VF("/out+") - VF("/out-"))) (VCTRL=0.26),;dB20((VF("/out+") - VF("/out-"))) (VCTRL=0.28),;dB20((VF("/out+") - VF("/out-"))) (VCTRL=0.3)
;X, Y,;X, Y,;X, Y,;X, Y,;X, Y,;X, Y,;X, Y,;X, Y,;X, Y,;X, Y,;X, Y,;X, Y,;X, Y,;X, Y,;X, Y
;Re, Re,;Re, Re,;Re, Re,;Re, Re,;Re, Re,;Re, Re,;Re, Re,;Re, Re,;Re, Re,;Re, Re,;Re, Re,;Re, Re,;Re, Re,;Re, Re,;Re, Re
;freq, V,;freq, V,;freq, V,;freq, V,;freq, V,;freq, V,;freq, V,;freq, V,;freq, V,;freq, V,;freq, V,;freq, V,;freq, V,;freq, V,;freq, V
;Hz, dB,;Hz, dB,;Hz, dB,;Hz, dB,;Hz, dB,;Hz, dB,;Hz, dB,;Hz, dB,;Hz, dB,;Hz, dB,;Hz, dB,;Hz, dB,;Hz, dB,;Hz, dB,;Hz, dB
1000000,-12.82180166629137,1000000,-6.498146658269434,1000000,-2.475093560599011,1000000,0.7164007001881509,1000000,3.527193534831365,1000000,6.143174871816226,1000000,8.639375259444048,1000000,11.02115218655094,1000000,13.23241916948982,1000000,15.17058821931251,1000000,16.72494783388772,1000000,17.83854570973618,1000000,18.58038683038174,1000000,19.03680873533158,1000000,19.31137366927112
1002305.2380779,-12.82180166805472,1002305.2380779,-6.498146660038577,1002305.2380779,-2.475093562378559,1002305.2380779,0.7164006983925008,1002305.2380779,3.52719353301217,1002305.2380779,6.143174869963404,1002305.2380779,8.639375257544151,1002305.2380779,11.02115218458661,1002305.2380779,13.23241916744157,1002305.2380779,15.17058821716283,1002305.2380779,16.72494783162876,1002305.2380779,17.83854570737606,1002305.2380779,18.58038682793734,1002305.2380779,19.03680873282314,1002305.2380779,19.31137366671412
1004615.790278395,-12.82180166982616,1004615.790278395,-6.498146661815903,1004615.790278395,-2.475093564166305,1004615.790278395,0.7164006965885762,1004615.790278395,3.527193531184563,1004615.790278395,6.143174868102025,1004615.790278395,8.639375255635478,1004615.790278395,11.02115218261322,1004615.790278395,13.23241916538388,1004615.790278395,15.17058821500322,1004615.790278395,16.72494782935937,1004615.790278395,17.83854570500505,1004615.790278395,18.58038682548165,1004615.790278395,19.03680873030312,1004615.790278395,19.31137366414533
1006931.668851804,-12.82180167160583,1006931.668851804,-6.498146663601425,1006931.668851804,-2.475093565962326,1006931.668851804,0.7164006947763119,1006931.668851804,3.527193529348525,1006931.668851804,6.143174866232057,1006931.668851804,8.639375253718001,1006931.668851804,11.02115218063071,1006931.668851804,13.23241916331668,1006931.668851804,15.17058821283364,1006931.668851804,16.7249478270795,1006931.668851804,17.8385457026231,1006931.668851804,18.58038682301463,1006931.668851804,19.03680872777147,1006931.668851804,19.31137366156468
1009252.886076684,-12.82180167339366,1009252.886076684,-6.498146665395195,1009252.886076684,-2.47509356776663,1009252.886076684,0.7164006929557024,1009252.886076684,3.527193527504012,1009252.886076684,6.143174864353458,1009252.886076684,8.639375251791673,1009252.886076684,11.02115217863905,1009252.886076684,13.23241916123995,1009252.886076684,15.17058821065404,1009252.886076684,16.72494782478911,1009252.886076684,17.83854570023014,1009252.886076684,18.58038682053622,1009252.886076684,19.03680872522812,1009252.886076684,19.31137365897212
1011579.454259898,-12.82180167518977,1011579.454259898,-6.498146667197216,1011579.454259898,-2.475093569579265,1011579.454259898,0.7164006911266746,1011579.454259898,3.527193525650975,1011579.454259898,6.143174862466188,1011579.454259898,8.639375249856446,1011579.454259898,11.02115217663821,1011579.454259898,13.23241915915362,1011579.454259898,15.1705882084644,1011579.454259898,16.72494782248816,1011579.454259898,17.83854569782615,1011579.454259898,18.58038681804637,1011579.454259898,19.03680872267304,1011579.454259898,19.31137365636759
1013911.385736679,-12.82180167699417,1013911.385736679,-6.498146669007581,1013911.385736679,-2.475093571400253,1013911.385736679,0.7164006892892129,1013911.385736679,3.527193523789392,1013911.385736679,6.143174860570209,1013911.385736679,8.639375247912284,1013911.385736679,11.02115217462812,1013911.385736679,13.23241915705767,1013911.385736679,15.17058820626463,1013911.385736679,16.72494782017658,1013911.385736679,17.83854569541105,1013911.385736679,18.58038681554503,1013911.385736679,19.03680872010617,1013911.385736679,19.31137365375103
1016248.692870695,-12.82180167880692,1016248.692870695,-6.49814667082629,1016248.692870695,-2.475093573229644,1016248.692870695,0.7164006874432692,1016248.692870695,3.527193521919221,1016248.692870695,6.143174858665469,1016248.692870695,8.639375245959162,1016248.692870695,11.02115217260876,1016248.692870695,13.23241915495204,1016248.692870695,15.17058820405473,1016248.692870695,16.72494781785432,1016248.692870695,17.83854569298481,1016248.692870695,18.58038681303214,1016248.692870695,19.03680871752745,1016248.692870695,19.3113736511224
1018591.388054117,-12.82180168062801,1018591.388054117,-6.49814667265341,1018591.388054117,-2.475093575067496,1018591.388054117,0.716400685588799,1018591.388054117,3.527193520040412,1018591.388054117,6.143174856751945,1018591.388054117,8.639375243997014,1018591.388054117,11.02115217058008,1018591.388054117,13.2324191528367,1018591.388054117,15.1705882018346,1018591.388054117,16.72494781552135,1018591.388054117,17.83854569054737,1018591.388054117,18.58038681050765,1018591.388054117,19.03680871493683,1018591.388054117,19.31137364848164
1020939.483707679,-12.82180168245749,1020939.483707679,-6.498146674488952,1020939.483707679,-2.475093576913829,1020939.483707679,0.7164006837257775,1020939.483707679,3.527193518152938,1020939.483707679,6.143174854829588,1020939.483707679,8.639375242025812,1020939.483707679,11.02115216854203,1020939.483707679,13.23241915071159,1020939.483707679,15.17058819960425,1020939.483707679,16.72494781317762,1020939.483707679,17.83854568809867,1020939.483707679,18.58038680797151,1020939.483707679,19.03680871233424,1020939.483707679,19.31137364582869
1023292.992280754,-12.82180168429544,1023292.992280754,-6.498146676332972,1023292.992280754,-2.475093578768677,1023292.992280754,0.7164006818541533,1023292.992280754,3.527193516256739,1023292.992280754,6.143174852898357,1023292.992280754,8.63937524004551,1023292.992280754,11.02115216649458,1023292.992280754,13.23241914857667,1023292.992280754,15.17058819736359,1023292.992280754,16.72494781082306,1023292.992280754,17.83854568563868,1023292.992280754,18.58038680542367,1023292.992280754,19.03680870971965,1023292.992280754,19.3113736431635
1025651.926251407,-12.82180168614192,1025651.926251407,-6.498146678185513,1025651.926251407,-2.47509358063209,1025651.926251407,0.7164006799738856,1025651.926251407,3.527193514351803,1025651.926251407,6.143174850958217,1025651.926251407,8.639375238056072,1025651.926251407,11.02115216443767,1025651.926251407,13.23241914643189,1025651.926251407,15.17058819511259,1025651.926251407,16.72494780845764,1025651.926251407,17.83854568316733,1025651.926251407,18.58038680286406,1025651.926251407,19.03680870709299,1025651.926251407,19.31137364048599
1028016.298126473,-12.82180168799688,1028016.298126473,-6.498146680046569,1028016.298126473,-2.475093582504111,1028016.298126473,0.7164006780849385,1028016.298126473,3.527193512438056,1028016.298126473,6.143174849009111,1028016.298126473,8.639375236057445,1028016.298126473,11.02115216237127,1028016.298126473,13.23241914427722,1028016.298126473,15.1705881928512,1028016.298126473,16.7249478060813,1028016.298126473,17.83854568068458,1028016.298126473,18.58038680029264,1028016.298126473,19.0368087044542,1028016.298126473,19.31137363779613
1030386.120441615,-12.82180168986038,1030386.120441615,-6.498146681916257,1030386.120441615,-2.475093584384761,1030386.120441615,0.7164006761872715,1030386.120441615,3.527193510515494,1030386.120441615,6.143174847051012,1030386.120441615,8.639375234049599,1030386.120441615,11.02115216029533,1030386.120441615,13.2324191421126,1030386.120441615,15.17058819057937,1030386.120441615,16.72494780369399,1030386.120441615,17.83854567819036,1030386.120441615,18.58038679770935,1030386.120441615,19.03680870180323,1030386.120441615,19.31137363509387
1032761.405761397,-12.82180169173246,1032761.405761397,-6.498146683794555,1032761.405761397,-2.475093586274102,1032761.405761397,0.7164006742808526,1032761.405761397,3.527193508584048,1032761.405761397,6.143174845083879,1032761.405761397,8.63937523203248,1032761.405761397,11.02115215820982,1032761.405761397,13.23241913993799,1032761.405761397,15.17058818829706,1032761.405761397,16.72494780129565,1032761.405761397,17.83854567568464,1032761.405761397,18.58038679511414,1032761.405761397,19.03680869914002,1032761.405761397,19.31137363237911
1035142.166679343,-12.82180169361327,1035142.166679343,-6.498146685681532,1035142.166679343,-2.475093588172139,1035142.166679343,0.7164006723656391,1035142.166679343,3.52719350664369,1035142.166679343,6.14317484310767,1035142.166679343,8.639375230006053,1035142.166679343,11.02115215611467,1035142.166679343,13.23241913775334,1035142.166679343,15.17058818600422,1035142.166679343,16.72494779888626,1035142.166679343,17.83854567316734,1035142.166679343,18.58038679250694,1035142.166679343,19.03680869646453,1035142.166679343,19.31137362965184
1037528.415818012,-12.82180169550268,1037528.415818012,-6.498146687577194,1037528.415818012,-2.475093590078976,1037528.415818012,0.7164006704415724,1037528.415818012,3.527193504694381,1037528.415818012,6.14317484112233,1037528.415818012,8.639375227970273,1037528.415818012,11.02115215400986,1037528.415818012,13.23241913555861,1037528.415818012,15.17058818370078,1037528.415818012,16.72494779646573,1037528.415818012,17.83854567063843,1037528.415818012,18.58038678988772,1037528.415818012,19.03680869377669,1037528.415818012,19.31137362691197
1039920.165829058,-12.82180169740087,1039920.165829058,-6.498146689481628,1039920.165829058,-2.475093591994585,1039920.165829058,0.7164006685086277,1039920.165829058,3.52719350273606,1039920.165829058,6.143174839127825,1039920.165829058,8.63937522592509,1039920.165829058,11.02115215189533,1039920.165829058,13.23241913335375,1039920.165829058,15.17058818138672,1039920.165829058,16.72494779403404,1039920.165829058,17.83854566809784,1039920.165829058,18.58038678725639,1039920.165829058,19.03680869107644,1039920.165829058,19.31137362415945
1042317.429393303,-12.82180169930777,1042317.429393303,-6.498146691394866,1042317.429393303,-2.475093593919053,1042317.429393303,0.716400666566771,1042317.429393303,3.527193500768718,1042317.429393303,6.143174837124117,1042317.429393303,8.639375223870477,1042317.429393303,11.02115214977103,1042317.429393303,13.23241913113871,1042317.429393303,15.17058817906198,1042317.429393303,16.72494779159112,1042317.429393303,17.83854566554553,1042317.429393303,18.58038678461294,1042317.429393303,19.03680868836372,1042317.429393303,19.31137362139424
1044720.219220799,-12.82180170122349,1044720.219220799,-6.498146693316895,1044720.219220799,-2.475093595852397,1044720.219220799,0.7164006646159353,1044720.219220799,3.527193498792279,1044720.219220799,6.143174835111163,1044720.219220799,8.639375221806375,1044720.219220799,11.02115214763694,1044720.219220799,13.23241912891345,1044720.219220799,15.1705881767265,1044720.219220799,16.72494778913692,1044720.219220799,17.83854566298143,1044720.219220799,18.58038678195727,1044720.219220799,19.03680868563848,1044720.219220799,19.31137361861626
1047128.548050899,-12.82180170314808,1047128.548050899,-6.49814669524783,1047128.548050899,-2.475093597794657,1047128.548050899,0.7164006626561025,1047128.548050899,3.527193496806722,1047128.548050899,6.143174833088912,1047128.548050899,8.639375219732743,1047128.548050899,11.02115214549299,1047128.548050899,13.23241912667791,1047128.548050899,15.17058817438024,1047128.548050899,16.7249477866714,1047128.548050899,17.83854566040551,1047128.548050899,18.58038677928935,1047128.548050899,19.03680868290067,1047128.548050899,19.31137361582546
1049542.428652321,-12.82180170508153,1049542.428652321,-6.498146697187657,1049542.428652321,-2.475093599745891,1049542.428652321,0.7164006606872299,1049542.428652321,3.527193494812,1049542.428652321,6.143174831057337,1049542.428652321,8.639375217649549,1049542.428652321,11.02115214333914,1049542.428652321,13.23241912443206,1049542.428652321,15.17058817202316,1049542.428652321,16.7249477841945,1049542.428652321,17.83854565781769,1049542.428652321,18.58038677660912,1049542.428652321,19.03680868015021,1049542.428652321,19.31137361302177
1051961.873823222,-12.82180170702386,1051961.873823222,-6.498146699136454,1051961.873823222,-2.475093601706133,1051961.873823222,0.7164006587092591,1051961.873823222,3.527193492808073,1051961.873823222,6.143174829016375,1051961.873823222,8.639375215556724,1051961.873823222,11.02115214117536,1051961.873823222,13.23241912217584,1051961.873823222,15.17058816965519,1051961.873823222,16.72494778170616,1051961.873823222,17.83854565521792,1051961.873823222,18.5803867739165,1051961.873823222,19.03680867738706,1051961.873823222,19.31137361020514
1054386.896391258,-12.82180170897523,1054386.896391258,-6.498146701094243,1054386.896391258,-2.475093603675426,1054386.896391258,0.7164006567221616,1054386.896391258,3.527193490794898,1054386.896391258,6.143174826965997,1054386.896391258,8.639375213454249,1054386.896391258,11.02115213900158,1054386.896391258,13.2324191199092,1054386.896391258,15.1705881672763,1054386.896391258,16.72494777920634,1054386.896391258,17.83854565260615,1054386.896391258,18.58038677121147,1054386.896391258,19.03680867461116,1054386.896391258,19.31137360737551
1056817.509213657,-12.82180171093556,1056817.509213657,-6.498146703061049,1056817.509213657,-2.475093605653791,1056817.509213657,0.7164006547258913,1056817.509213657,3.527193488772425,1056817.509213657,6.14317482490615,1056817.509213657,8.639375211342074,1056817.509213657,11.02115213681778,1056817.509213657,13.2324191176321,1056817.509213657,15.17058816488643,1056817.509213657,16.72494777669498,1056817.509213657,17.83854564998234,1056817.509213657,18.58038676849395,1056817.509213657,19.03680867182244,1056817.509213657,19.31137360453282
1059253.725177287,-12.82180171290493,1059253.725177287,-6.49814670503696,1059253.725177287,-2.475093607641313,1059253.725177287,0.7164006527204072,1059253.725177287,3.527193486740619,1059253.725177287,6.143174822836806,1059253.725177287,8.639375209220139,1059253.725177287,11.02115213462389,1059253.725177287,13.2324191153445,1059253.725177287,15.17058816248552,1059253.725177287,16.72494777417203,1059253.725177287,17.83854564734641,1059253.725177287,18.58038676576388,1059253.725177287,19.03680866902085,1059253.725177287,19.31137360167702
1061695.557198723,-12.82180171488342,1061695.557198723,-6.498146707021984,1061695.557198723,-2.475093609637981,1061695.557198723,0.7164006507056685,1061695.557198723,3.527193484699433,1061695.557198723,6.143174820757904,1061695.557198723,8.639375207088417,1061695.557198723,11.02115213241988,1061695.557198723,13.23241911304633,1061695.557198723,15.17058816007353,1061695.557198723,16.72494777163743,1061695.557198723,17.83854564469831,1061695.557198723,18.58038676302121,1061695.557198723,19.03680866620634,1061695.557198723,19.31137359880802
1064143.018224314,-12.82180171687104,1064143.018224314,-6.498146709016165,1064143.018224314,-2.475093611643884,1064143.018224314,0.7164006486816363,1064143.018224314,3.527193482648824,1064143.018224314,6.143174818669404,1064143.018224314,8.639375204946857,1064143.018224314,11.0211521302057,1064143.018224314,13.23241911073756,1064143.018224314,15.17058815765041,1064143.018224314,16.72494776909114,1064143.018224314,17.83854564203799,1064143.018224314,18.58038676026589,1064143.018224314,19.03680866337882,1064143.018224314,19.31137359592579
1066596.121230256,-12.82180171886782,1066596.121230256,-6.498146711019563,1066596.121230256,-2.475093613659036,1066596.121230256,0.7164006466482554,1066596.121230256,3.52719348058876,1066596.121230256,6.143174816571258,1066596.121230256,8.639375202795401,1066596.121230256,11.02115212798129,1066596.121230256,13.23241910841813,1066596.121230256,15.1705881552161,1066596.121230256,16.72494776653308,1066596.121230256,17.83854563936539,1066596.121230256,18.58038675749784,1066596.121230256,19.03680866053826,1066596.121230256,19.31137359303025
1069054.879222656,-12.82180172087385,1069054.879222656,-6.498146713032177,1069054.879222656,-2.475093615683504,1069054.879222656,0.7164006446054796,1069054.879222656,3.527193478519184,1069054.879222656,6.143174814463444,1069054.879222656,8.639375200634024,1069054.879222656,11.02115212574661,1069054.879222656,13.23241910608799,1069054.879222656,15.17058815277056,1069054.879222656,16.72494776396323,1069054.879222656,17.83854563668045,1069054.879222656,18.58038675471702,1069054.879222656,19.03680865768458,1069054.879222656,19.31137359012135
1071519.305237605,-12.82180172288911,1071519.305237605,-6.498146715054103,1071519.305237605,-2.475093617717312,1071519.305237605,0.7164006425532823,1071519.305237605,3.527193476440051,1071519.305237605,6.143174812345883,1071519.305237605,8.639375198462663,1071519.305237605,11.02115212350162,1071519.305237605,13.2324191037471,1071519.305237605,15.17058815031373,1071519.305237605,16.72494776138151,1071519.305237605,17.83854563398312,1071519.305237605,18.58038675192337,1071519.305237605,19.03680865481774,1071519.305237605,19.31137358719902
1073989.412341243,-12.82180172491369,1073989.412341243,-6.498146717085368,1073989.412341243,-2.475093619760499,1073989.412341243,0.7164006404916156,1073989.412341243,3.52719347435132,1073989.412341243,6.143174810218557,1073989.412341243,8.639375196281284,1073989.412341243,11.02115212124628,1073989.412341243,13.2324191013954,1073989.412341243,15.17058814784556,1073989.412341243,16.72494775878787,1073989.412341243,17.83854563127335,1073989.412341243,18.58038674911681,1073989.412341243,19.03680865193766,1073989.412341243,19.31137358426319
1076465.213629833,-12.82180172694762,1076465.213629833,-6.498146719126011,1076465.213629833,-2.475093621813131,1076465.213629833,0.7164006384204332,1076465.213629833,3.527193472252945,1076465.213629833,6.143174808081414,1076465.213629833,8.639375194089842,1076465.213629833,11.02115211898051,1076465.213629833,13.23241909903285,1076465.213629833,15.17058814536599,1076465.213629833,16.72494775618226,1076465.213629833,17.83854562855106,1076465.213629833,18.5803867462973,1076465.213629833,19.03680864904429,1076465.213629833,19.31137358131383
1078946.722229827,-12.82180172899092,1078946.722229827,-6.498146721176045,1078946.722229827,-2.475093623875219,1078946.722229827,0.716400636339682,1078946.722229827,3.527193470144891,1078946.722229827,6.143174805934405,1078946.722229827,8.639375191888277,1078946.722229827,11.02115211670429,1078946.722229827,13.2324190966594,1078946.722229827,15.17058814287499,1078946.722229827,16.72494775356463,1078946.722229827,17.8385456258162,1078946.722229827,18.58038674346478,1078946.722229827,19.03680864613757,1078946.722229827,19.31137357835084
