;Version, 1, 0
;/M30/D (vsorce=0.1),;/M30/D (vsorce=0.2),;/M30/D (vsorce=0.3),;/M30/D (vsorce=0.4),;/M30/D (vsorce=0.5),;/M30/D (vsorce=0.6),;/M30/D (vsorce=0.7),;/M30/D (vsorce=0.8),;/M30/D (vsorce=0)
;X, Y,;X, Y,;X, Y,;X, Y,;X, Y,;X, Y,;X, Y,;X, Y,;X, Y
;Re, Re,;Re, Re,;Re, Re,;Re, Re,;Re, Re,;Re, Re,;Re, Re,;Re, Re,;Re, Re
;vdc, I,;vdc, I,;vdc, I,;vdc, I,;vdc, I,;vdc, I,;vdc, I,;vdc, I,;vdc, I
;xunit, A,;xunit, A,;xunit, A,;xunit, A,;xunit, A,;xunit, A,;xunit, A,;xunit, A,;xunit, A
0,3.21445254632285e-11,0,2.379673063796364e-11,0,1.842439633902729e-11,0,1.482716432998337e-11,0,1.233870350299344e-11,0,1.057119601192477e-11,0,9.289551265591473e-12,0,8.346165687402289e-12,0,4.575368167795577e-11
0.001,3.305165255463616e-11,0.001,2.445743380834009e-11,0.001,1.892650194332322e-11,0.001,1.522308433026082e-11,0.001,1.266115514093083e-11,0.001,1.084142151686427e-11,0.001,9.521832655925852e-12,0.001,8.550413243939979e-12,0.001,4.706230422852343e-11
0.002,3.398518864695149e-11,0.002,2.513727820792348e-11,0.002,1.944307147708233e-11,0.002,1.563033757756855e-11,0.002,1.299277432319762e-11,0.002,1.111927457667486e-11,0.002,9.760621424272506e-12,0.002,8.760338453170236e-12,0.002,4.840916993597343e-11
0.003,3.494590203690746e-11,0.003,2.583681804731717e-11,0.003,1.997452138328144e-11,0.003,1.604924834230016e-11,0.003,1.333382158670574e-11,0.003,1.140497041471089e-11,0.003,1.000609981601619e-11,0.003,8.976099094661209e-12,0.003,4.979539545869669e-11
0.004,3.593458334880683e-11,0.004,2.655662356923713e-11,0.004,2.052128008581617e-11,0.004,1.648015016668315e-11,0.004,1.368456486824257e-11,0.004,1.169873032389281e-11,0.004,1.025845517797276e-11,0.004,9.197857330624301e-12,0.004,5.122213001812726e-11
0.005,3.695204618240545e-11,0.005,2.729728151159793e-11,0.005,2.108378833375716e-11,0.005,1.692338612965604e-11,0.005,1.404527971450163e-11,0.005,1.200078183780482e-11,0.005,1.051788010109825e-11,0.005,9.425779827558842e-12,0.005,5.269055634617167e-11
0.006,3.799912777941164e-11,0.006,2.805939558394222e-11,0.006,2.166249955548335e-11,0.006,1.737930911923229e-11,0.006,1.441624949793721e-11,0.006,1.231135890647354e-11,0.006,1.078457256721456e-11,0.006,9.660037881313096e-12,0.006,5.420189166062529e-11
0.007,3.907668970935627e-11,0.007,2.884358695779072e-11,0.007,2.225788022309993e-11,0.007,1.784828211272407e-11,0.007,1.479776563891073e-11,0.007,1.263070207718704e-11,0.007,1.105873609970143e-11,0.007,9.900807545532887e-12,0.007,5.575738866864072e-11
0.008,4.018561857539365e-11,0.008,2.965049477089848e-11,0.008,2.287041022705531e-11,0.008,1.833067846479123e-11,0.008,1.519012783399975e-11,0.008,1.295905868036544e-11,0.008,1.134057991855872e-11,0.008,1.014826976375061e-11,0.008,5.735833659920983e-11
0.009000000000000001,4.132682674027919e-11,0.009000000000000001,3.048077664620203e-11,0.009000000000000001,2.350058326179407e-11,0.009000000000000001,1.882688220390567e-11,0.009000000000000001,1.559364429075184e-11,0.009000000000000001,1.329668302068224e-11,0.009000000000000001,1.163031909970533e-11,0.009000000000000001,1.040261050509123e-11,0.009000000000000001,5.900606226588293e-11
0.01,4.250125307356892e-11,0.01,3.133510922565636e-11,0.01,2.414890722220613e-11,0.01,1.933728833713479e-11,0.01,1.600863196925145e-11,0.01,1.364383657358418e-11,0.01,1.19281747387812e-11,0.01,1.066402090374357e-11,0.01,6.070193116005994e-11
0.011,4.370986372044741e-11,0.011,3.221418871945919e-11,0.011,2.481590461169678e-11,0.011,1.986230316358665e-11,0.011,1.643541683040612e-11,0.011,1.400078818720395e-11,0.011,1.223437411942256e-11,0.011,1.093269740231378e-11,0.011,6.24473485760079e-11
0.012,4.495365289249013e-11,0.012,3.311873147112734e-11,0.012,2.550211296165687e-11,0.012,2.040234459697835e-11,0.012,1.687433409120147e-11,0.012,1.436781429020538e-11,0.012,1.254915088638911e-11,0.012,1.120884189916859e-11,0.012,6.424376076874233e-11
0.013,4.623364368175776e-11,0.013,3.404947453877145e-11,0.013,2.620808526332671e-11,0.013,2.095784249717415e-11,0.013,1.732572848740391e-11,0.013,1.47451991051938e-11,0.013,1.287274522340747e-11,0.013,1.149266189982449e-11,0.013,6.609265614515392e-11
0.01400000000000001,4.755088889808566e-11,0.01400000000000001,3.500717629326842e-11,0.01400000000000001,2.693439041165975e-11,0.01400000000000001,2.152923901127808e-11,0.01400000000000001,1.778995454347925e-11,0.01400000000000001,1.513323486838447e-11,0.01400000000000001,1.320540403603243e-11,0.01400000000000001,1.178437067251865e-11,0.01400000000000001,6.799556648981356e-11
0.01500000000000001,4.890647193056515e-11,0.01500000000000001,3.599261703352126e-11,0.01500000000000001,2.768161366220982e-11,0.01500000000000001,2.211698892447493e-11,0.01500000000000001,1.826737685032026e-11,0.01500000000000001,1.553222205523871e-11,0.01500000000000001,1.354738113959242e-11,0.01500000000000001,1.208418740817361e-11,0.01500000000000001,6.995406822634151e-11
0.01600000000000001,5.030150763430176e-11,0.01600000000000001,3.700659961944937e-11,0.01600000000000001,2.845035710092794e-11,0.01600000000000001,2.27215600208755e-11,0.01600000000000001,1.875837035071359e-11,0.01600000000000001,1.59424696125903e-11,0.01600000000000001,1.389893745241972e-11,0.01600000000000001,1.239233738473974e-11,0.01600000000000001,7.196978371523709e-11
0.01700000000000001,5.173714324236155e-11,0.01700000000000001,3.804995012332779e-11,0.01700000000000001,2.924124012753812e-11,0.01700000000000001,2.334343345451975e-11,0.01700000000000001,1.926332063298209e-11,0.01700000000000001,1.636429519721305e-11,0.01700000000000001,1.426034119445174e-11,0.01700000000000001,1.27090521360319e-11,0.01700000000000001,7.404438258941121e-11
0.01800000000000001,5.321455930430479e-11,0.01800000000000001,3.912351849980545e-11,0.01800000000000001,3.005489995271164e-11,0.01800000000000001,2.398310413109692e-11,0.01800000000000001,1.978262423286455e-11,0.01800000000000001,1.679802542119387e-11,0.01800000000000001,1.463186809133381e-11,0.01800000000000001,1.303456962541262e-11,0.01800000000000001,7.617958312821364e-11
0.01900000000000001,5.473497065194563e-11,0.01900000000000001,4.022817927509858e-11,0.01900000000000001,3.089199210937679e-11,0.01900000000000001,2.464108110049789e-11,0.01900000000000001,2.031668894409265e-11,0.01900000000000001,1.724399610409607e-11,0.01900000000000001,1.501380158433342e-11,0.01900000000000001,1.336913442412652e-11,0.01900000000000001,7.837715367154588e-11
0.02000000000000001,5.629962739263083e-11,0.02000000000000001,4.136483225631003e-11,0.02000000000000001,3.175319097904014e-11,0.02000000000000001,2.53178879605007e-11,0.02000000000000001,2.086593413754284e-11,0.02000000000000001,1.770255253225463e-11,0.02000000000000001,1.54064330460063e-11,0.02000000000000001,1.371299789459675e-11,0.02000000000000001,8.063891407471356e-11
0.02100000000000001,5.790981593175296e-11,0.02100000000000001,4.253440326089849e-11,0.02100000000000001,3.263919033271838e-11,0.02100000000000001,2.601406327199041e-11,0.02100000000000001,2.143079108958949e-11,0.02100000000000001,1.817404972545917e-11,0.02100000000000001,1.581006200189755e-11,0.02100000000000001,1.406641837897344e-11,0.02100000000000001,8.29667372054266e-11
0.02200000000000001,5.956686002429102e-11,0.02200000000000001,4.373784486721458e-11,0.02200000000000001,3.355070388761979e-11,0.02200000000000001,2.673016098606343e-11,0.02200000000000001,2.201170331966391e-11,0.02200000000000001,1.86588527109618e-11,0.02200000000000001,1.622499635857955e-11,0.02200000000000001,1.442966139262773e-11,0.02200000000000001,8.536255048423666e-11
0.02300000000000001,6.127212185711681e-11,0.02300000000000001,4.497613718673985e-11,0.02300000000000001,3.448846587990731e-11,0.02300000000000001,2.746675088323847e-11,0.02300000000000001,2.260912693749819e-11,0.02300000000000001,1.915733680529855e-11,0.02300000000000001,1.665155263777103e-11,0.02300000000000001,1.480299982323839e-11,0.02300000000000001,8.782833746952794e-11
0.02400000000000001,6.302700316230761e-11,0.02400000000000001,4.625028865846498e-11,0.02400000000000001,3.545323165352269e-11,0.02400000000000001,2.822441902511135e-11,0.02400000000000001,2.322353099995667e-11,0.02400000000000001,1.966988790403691e-11,0.02400000000000001,1.709005621726977e-11,0.02400000000000001,1.518671413530888e-11,0.02400000000000001,9.036613948814851e-11
0.02500000000000002,6.483294636266675e-11,0.02500000000000002,4.756133686612468e-11,0.02500000000000002,3.644577826607557e-11,0.02500000000000002,2.900376821908546e-11,0.02500000000000002,2.385539787825879e-11,0.02500000000000002,2.019690277965068e-11,0.02500000000000002,1.754084157847116e-11,0.02500000000000002,1.558109258028872e-11,0.02500000000000002,9.297805731374307e-11
0.02600000000000002,6.669143575052819e-11,0.02600000000000002,4.89103493789718e-11,0.02600000000000002,3.74669051121564e-11,0.02600000000000002,2.980541849600452e-11,0.02600000000000002,2.450522363536673e-11,0.02600000000000002,2.073878938768839e-11,0.02600000000000002,1.800425256082125e-11,0.02600000000000002,1.598643141267738e-11,0.02600000000000002,9.566625289316697e-11
0.02700000000000002,6.860399870014892e-11,0.02700000000000002,5.029842461669526e-11,0.02700000000000002,3.851743456434623e-11,0.02700000000000002,3.063000760178858e-11,0.02700000000000002,2.517351841417664e-11,0.02700000000000002,2.129596718175601e-11,0.02700000000000002,1.848064262334389e-11,0.02700000000000002,1.640303511190587e-11,0.02700000000000002,9.843295112292771e-11
0.02800000000000002,7.057220691559622e-11,0.02800000000000002,5.172669273923123e-11,0.02800000000000002,3.959821263252785e-11,0.02800000000000002,3.147819150269853e-11,0.02800000000000002,2.586080683662622e-11,0.02800000000000002,2.186886743709417e-11,0.02800000000000002,1.897037511354439e-11,0.02800000000000002,1.683121661055837e-11,0.02800000000000002,1.012804416772759e-10
0.02900000000000002,7.259767771429996e-11,0.02900000000000002,5.319631656230963e-11,0.02900000000000002,4.07101096423875e-11,0.02900000000000002,3.235064490524401e-11,0.02900000000000002,2.656762841410828e-11,0.02900000000000002,2.245793358339613e-11,0.02900000000000002,1.947382354367798e-11,0.02900000000000002,1.727129752879881e-11,0.02900000000000002,1.042110808889077e-10
0.03000000000000002,7.468207534782495e-11,0.03000000000000002,5.470849249906794e-11,0.03000000000000002,4.185402093296917e-11,0.03000000000000002,3.324806179075406e-11,0.03000000000000002,2.729453796955368e-11,0.03000000000000002,2.306362154705099e-11,0.03000000000000002,1.999137187494986e-11,0.03000000000000002,1.772360841526766e-11,0.03000000000000002,1.072272936839031e-10
0.03100000000000002,7.68271123606085e-11,0.03100000000000002,5.62644515288337e-11,0.03100000000000002,4.303086757435833e-11,0.03100000000000002,3.417115596517048e-11,0.03100000000000002,2.804210607144454e-11,0.03100000000000002,2.368640010276779e-11,0.03100000000000002,2.05234148093704e-11,0.03100000000000002,1.818848899483376e-11,0.03100000000000002,1.103315755731831e-10
0.03200000000000002,7.903455098802325e-11,0.03200000000000002,5.786546019395927e-11,0.03200000000000002,4.424159710592568e-11,0.03200000000000002,3.512066162459691e-11,0.03200000000000002,2.881091947995013e-11,0.03200000000000002,2.432675123537241e-11,0.03200000000000002,2.107035808999499e-11,0.03200000000000002,1.866628842296006e-11,0.03200000000000002,1.135264947006727e-10
0.03300000000000002,8.130620459480986e-11,0.03300000000000002,5.951282162509187e-11,0.03300000000000002,4.548718429574433e-11,0.03300000000000002,3.609733393681462e-11,0.03300000000000002,2.96015816058702e-11,0.03300000000000002,2.498517051146081e-11,0.03300000000000002,2.163261880936864e-11,0.03300000000000002,1.915736554725934e-11,0.03300000000000002,1.168146939515144e-10
0.03400000000000002,8.364393915468758e-11,0.03400000000000002,6.120787659585021e-11,0.03400000000000002,4.676863192153279e-11,0.03400000000000002,3.71019496393941e-11,0.03400000000000002,3.041471298256396e-11,0.03400000000000002,2.566216746181076e-11,0.03400000000000002,2.221062572668577e-11,0.03400000000000002,1.966208917632002e-11,0.03400000000000002,1.201988931204925e-10
0.03500000000000002,8.604967477302977e-11,0.03500000000000002,6.295200460814003e-11,0.03500000000000002,4.808697157406515e-11,0.03500000000000002,3.813530765487284e-11,0.03500000000000002,3.125095175100872e-11,0.03500000000000002,2.635826597425816e-11,0.03500000000000002,2.280481959377363e-11,0.03500000000000002,2.018083835585549e-11,0.03500000000000002,1.236818911437022e-10
0.03600000000000003,8.852538725315243e-11,0.03600000000000003,6.474662500818407e-11,0.03600000000000003,4.944326448372322e-11,0.03600000000000003,3.919822972339905e-11,0.03600000000000003,3.211095415886003e-11,0.03600000000000003,2.707400469779913e-11,0.03600000000000003,2.341565349007995e-11,0.03600000000000003,2.071400265253799e-11,0.03600000000000003,1.272665683938084e-10
0.03700000000000003,9.107310970797169e-11,0.03700000000000003,6.659319813523424e-11,0.03700000000000003,5.083860237030567e-11,0.03700000000000003,4.029156105327231e-11,0.03700000000000003,3.299539507334685e-11,0.03700000000000003,2.780993745790414e-11,0.03700000000000003,2.40435931671126e-11,0.03700000000000003,2.126198244582395e-11,0.03700000000000003,1.309558890428064e-10
0.03800000000000003,9.369493421787982e-11,0.03800000000000003,6.849322650255952e-11,0.03800000000000003,5.227410831757714e-11,0.03800000000000003,4.141617099022203e-11,0.03800000000000003,3.390496850887876e-11,0.03800000000000003,2.856663368368939e-11,0.03800000000000003,2.46891174024754e-11,0.03800000000000003,2.182518922765442e-11,0.03800000000000003,1.34752903491657e-10
0.03900000000000003,9.639301353645969e-11,0.03900000000000003,7.04482560129693e-11,0.03900000000000003,5.375093767242092e-11,0.03900000000000003,4.257295370547194e-11,0.03900000000000003,3.484038816955819e-11,0.03900000000000003,2.934467884680075e-11,0.03900000000000003,2.535271836369937e-11,0.03900000000000003,2.240404591058157e-11,0.03900000000000003,1.386607508711599e-10
0.04000000000000003,9.916956284553937e-11,0.04000000000000003,7.245987720895011e-11,0.04000000000000003,5.527027897000473e-11,0.04000000000000003,4.376282890351355e-11,0.04000000000000003,3.580238800680458e-11,0.04000000000000003,3.014467491292738e-11,0.04000000000000003,2.603490198228541e-11,0.04000000000000003,2.299898714434451e-11,0.04000000000000003,1.426826616141357e-10
0.04100000000000003,1.020268615605767e-10,0.04100000000000003,7.452972655869505e-11,0.04100000000000003,5.683335488533771e-11,0.04100000000000003,4.498674255003314e-11,0.04100000000000003,3.679172279300039e-11,0.04100000000000003,3.096724080574434e-11,0.04100000000000003,2.673618833817834e-11,0.04100000000000003,2.361045964136016e-11,0.04100000000000003,1.468219601026578e-10
0.04200000000000003,1.049672551882175e-10,0.04200000000000003,7.66594877791215e-11,0.04200000000000003,5.844142321182123e-11,0.04200000000000003,4.624566762046868e-11,0.04200000000000003,3.780916871127619e-11,0.04200000000000003,3.181301288404755e-11,0.04200000000000003,2.745711205491704e-11,0.04200000000000003,2.423892251095786e-11,0.04200000000000003,1.51082067390603e-10
0.04300000000000003,1.079931572369845e-10,0.04300000000000003,7.885089319697238e-11,0.04300000000000003,6.009577786803301e-11,0.04300000000000003,4.754060486970935e-11,0.04300000000000003,3.885552396179683e-11,0.04300000000000003,3.26826454322129e-11,0.04300000000000003,2.819822270581808e-11,0.04300000000000003,2.488484760315448e-11,0.04300000000000003,1.554665040057672e-10
0.04400000000000003,1.111070511835666e-10,0.04400000000000003,8.110572514875098e-11,0.04400000000000003,6.179774993309532e-11,0.04400000000000003,4.887258362411596e-11,0.04400000000000003,3.993160938549764e-11,0.04400000000000003,3.357681116439509e-11,0.04400000000000003,2.896008523147626e-11,0.04400000000000003,2.554871986173051e-11,0.04400000000000003,1.599788928320858e-10
0.04500000000000003,1.143114924951245e-10,0.04500000000000003,8.342581742095433e-11,0.04500000000000003,6.354870871174703e-11,0.04500000000000003,5.024266259541006e-11,0.04500000000000003,4.103826910510539e-11,0.04500000000000003,3.449620174297021e-11,0.04500000000000003,2.974328036900805e-11,0.04500000000000003,2.623103768716325e-11,0.04500000000000003,1.646229620752073e-10
0.04600000000000003,1.176091107103282e-10,0.04600000000000003,8.581305673166585e-11,0.04600000000000003,6.535006282981782e-11,0.04600000000000003,5.165193071841441e-11,0.04600000000000003,4.217637118452935e-11,0.04600000000000003,3.544152831144605e-11,0.04600000000000003,3.054840509297308e-11,0.04600000000000003,2.693231330960822e-11,0.04600000000000003,1.69402548313378e-10
0.04700000000000003,1.210026115797462e-10,0.04700000000000003,8.826938425472575e-11,0.04700000000000003,6.720326136099697e-11,0.04700000000000003,5.310150801193178e-11,0.04700000000000003,4.334680830674982e-11,0.04700000000000003,3.641352204233799e-11,0.04700000000000003,3.137607306903119e-11,0.04700000000000003,2.765307317215982e-11,0.04700000000000003,1.743215996363496e-10
0.04800000000000004,1.244947792681695e-10,0.04800000000000004,9.079679718724535e-11,0.04800000000000004,6.91097949856659e-11,0.04800000000000004,5.459254646458497e-11,0.04800000000000004,4.455049847079773e-11,0.04800000000000004,3.74129347005327e-11,0.04800000000000004,3.222691511973584e-11,0.04800000000000004,2.83938583247364e-11,0.04800000000000004,1.793841788746908e-10
0.04900000000000004,1.280884786202286e-10,0.04900000000000004,9.339735036265034e-11,0.04900000000000004,7.107119718299539e-11,0.04900000000000004,5.612623094551841e-11,0.04900000000000004,4.578838570865271e-11,0.04900000000000004,3.844053922220243e-11,0.04900000000000004,3.310157970373302e-11,0.04900000000000004,2.915522482888151e-11,0.04900000000000004,1.84594466922121e-10
0.05000000000000004,1.317866574911975e-10,0.05000000000000004,9.607315790948855e-11,0.05000000000000004,7.308904545706353e-11,0.05000000000000004,5.770378014117814e-11,0.05000000000000004,4.706144082211829e-11,0.05000000000000004,3.949713031030649e-11,0.05000000000000004,3.400073340802742e-11,0.05000000000000004,2.993774417366863e-11,0.05000000000000004,1.899567661532439e-10
0.05100000000000004,1.355923491445054e-10,0.05100000000000004,9.882639495795536e-11,0.05100000000000004,7.516496259779283e-11,0.05100000000000004,5.932644751840125e-11,0.05100000000000004,4.83706621407022e-11,0.05100000000000004,4.058352504653183e-11,0.05100000000000004,3.492506145415423e-11,0.05100000000000004,3.074200370332728e-11,0.05100000000000004,1.954755039400856e-10
0.05200000000000004,1.395086747187069e-10,0.05200000000000004,1.016592993954916e-10,0.05200000000000004,7.730061797823324e-11,0.05200000000000004,6.099552231536894e-11,0.05200000000000004,4.971707630069832e-11,0.05200000000000004,4.170056352047217e-11,0.05200000000000004,3.587526821832423e-11,0.05200000000000004,3.15686070563683e-11,0.05200000000000004,2.011552362695264e-10
0.05300000000000004,1.435388457649032e-10,0.05300000000000004,1.045741736726181e-10,0.05300000000000004,7.949772888851058e-11,0.05300000000000004,6.271233056010678e-11,0.05300000000000004,5.110173904651884e-11,0.05300000000000004,4.284910947644342e-11,0.05300000000000004,3.685207776607187e-11,0.05300000000000004,3.241817461711319e-11,0.05300000000000004,2.070006514648653e-10
0.05400000000000004,1.476861668572022e-10,0.05400000000000004,1.075733866601774e-10,0.05400000000000004,8.175806190793852e-11,0.05400000000000004,6.447823611837624e-11,0.05400000000000004,5.252573605443781e-11,0.05400000000000004,4.40300509786526e-11,0.05400000000000004,3.785623440188447e-11,0.05400000000000004,3.329134397967351e-11,0.05400000000000004,2.130165740146005e-10
0.05500000000000004,1.519540382782892e-10,0.05500000000000004,1.106593755604319e-10,0.05500000000000004,8.408343431658512e-11,0.05500000000000004,6.629464177097631e-11,0.05500000000000004,5.39901837796135e-11,0.05500000000000004,4.5244301094547e-11,0.05500000000000004,3.888850323407349e-11,0.05500000000000004,3.418877042464631e-11,0.05500000000000004,2.19207968510837e-10
