;Version, 1, 0
;(VS("/out+") - VS("/out-")) (VCTRL=0.02),;(VS("/out+") - VS("/out-")) (VCTRL=0.04),;(VS("/out+") - VS("/out-")) (VCTRL=0.06),;(VS("/out+") - VS("/out-")) (VCTRL=0.08),;(VS("/out+") - VS("/out-")) (VCTRL=0.1),;(VS("/out+") - VS("/out-")) (VCTRL=0.12),;(VS("/out+") - VS("/out-")) (VCTRL=0.14),;(VS("/out+") - VS("/out-")) (VCTRL=0.16),;(VS("/out+") - VS("/out-")) (VCTRL=0.18),;(VS("/out+") - VS("/out-")) (VCTRL=0.2)
;X, Y,;X, Y,;X, Y,;X, Y,;X, Y,;X, Y,;X, Y,;X, Y,;X, Y,;X, Y
;Re, Re,;Re, Re,;Re, Re,;Re, Re,;Re, Re,;Re, Re,;Re, Re,;Re, Re,;Re, Re,;Re, Re
;vin, V,;vin, V,;vin, V,;vin, V,;vin, V,;vin, V,;vin, V,;vin, V,;vin, V,;vin, V
;xunit, V,;xunit, V,;xunit, V,;xunit, V,;xunit, V,;xunit, V,;xunit, V,;xunit, V,;xunit, V,;xunit, V
-0.4,-0.06679468378544762,-0.4,-0.1335880319034861,-0.4,-0.2002916334563902,-0.4,-0.2667333706657011,-0.4,-0.3328042699870739,-0.4,-0.3983483761012483,-0.4,-0.4631993296730286,-0.4,-0.5271594784465927,-0.4,-0.5899821456890308,-0.4,-0.6513770125015268
-0.399,-0.06679255796005124,-0.399,-0.1335843314401486,-0.399,-0.2002765163132429,-0.399,-0.2667276732414343,-0.399,-0.3327975275414352,-0.399,-0.3983402805305691,-0.399,-0.4631894187924785,-0.399,-0.5271456591266239,-0.399,-0.5899666679444814,-0.399,-0.6513573312289384
-0.398,-0.06679039604671555,-0.398,-0.1335805722172303,-0.398,-0.2002716681236532,-0.398,-0.2667218898189387,-0.398,-0.3327906829836573,-0.398,-0.3983320685036322,-0.398,-0.4631793862286271,-0.398,-0.5271331981350511,-0.398,-0.5899509873193496,-0.398,-0.6513374172340217
-0.397,-0.06678819933367297,-0.397,-0.1335767524586609,-0.397,-0.200266742664476,-0.397,-0.2667160161907733,-0.397,-0.3327837347714577,-0.397,-0.3983237362579133,-0.397,-0.4631692118950541,-0.397,-0.5271205670098249,-0.397,-0.5899350992731363,-0.397,-0.6513172470505936
-0.396,-0.06678596723482477,-0.396,-0.1335728711478452,-0.396,-0.2002617386659395,-0.396,-0.2667100509369196,-0.396,-0.3327766813694972,-0.396,-0.398315282141851,-0.396,-0.4631588940052338,-0.396,-0.5271077637987689,-0.396,-0.589919001645723,-0.396,-0.651296818254593
-0.395,-0.06678369915396121,-0.395,-0.1335689272505007,-0.395,-0.20025665483642,-0.395,-0.2667039926137487,-0.395,-0.3327695212183526,-0.395,-0.3983067044800104,-0.395,-0.4631484307494897,-0.395,-0.5270947865278217,-0.395,-0.5899026922570063,-0.395,-0.6512761284046421
-0.394,-0.06678139448454745,-0.394,-0.1335649197142748,-0.394,-0.2002514898619472,-0.394,-0.2666978397534896,-0.394,-0.3327622527339633,-0.394,-0.3982980015725262,-0.394,-0.4631378202944456,-0.394,-0.5270816332004915,-0.394,-0.5898861689063667,-0.394,-0.6512551750415364
-0.393,-0.06677905260949402,-0.393,-0.1335608474683372,-0.393,-0.200246242405693,-0.393,-0.2666915908636764,-0.393,-0.3327548743070623,-0.393,-0.3982891716945298,-0.393,-0.4631270607824529,-0.393,-0.5270683017972968,-0.393,-0.5898694293721158,-0.393,-0.6512339556877175
-0.392,-0.06677667290093181,-0.392,-0.1335567094229717,-0.392,-0.2002409111074526,-0.392,-0.2666852444265788,-0.392,-0.3327473843025954,-0.392,-0.3982802130955592,-0.392,-0.4631161503310084,-0.392,-0.5270547902751852,-0.392,-0.589852471410936,-0.392,-0.6512124678467168
-0.391,-0.06677425471996812,-0.391,-0.1335525044691479,-0.391,-0.200235494583112,-0.391,-0.2666787988986206,-0.391,-0.3327397810591102,-0.391,-0.3982711239989549,-0.391,-0.463105087032144,-0.391,-0.5270410965669348,-0.391,-0.5898352927572859,-0.391,-0.6511907090025908
-0.39,-0.06677179741644657,-0.39,-0.1335482314780878,-0.39,-0.2002299914240979,-0.39,-0.2666722527097789,-0.39,-0.3327320628881472,-0.39,-0.3982619026012302,-0.39,-0.463093868951808,-0.39,-0.5270272185805385,-0.39,-0.5898178911228033,-0.39,-0.6511686766193313
-0.389,-0.06676930032869755,-0.389,-0.1335438893008201,-0.389,-0.2002244001968152,-0.389,-0.2666656042629678,-0.389,-0.3327242280735951,-0.389,-0.398252547071436,-0.389,-0.4630824941292231,-0.389,-0.527013154198569,-0.389,-0.5898002641956739,-0.389,-0.6511463681402566
-0.388,-0.06676676278328109,-0.388,-0.1335394767677225,-0.388,-0.200218719442071,-0.388,-0.2666588519334081,-0.388,-0.3327162748710468,-0.388,-0.398243055550499,-0.388,-0.4630709605762289,-0.388,-0.5269989012775276,-0.388,-0.5897824096399905,-0.388,-0.6511237809873752
-0.387,-0.0667641840947264,-0.387,-0.1335349926880542,-0.387,-0.2002129476744869,-0.387,-0.2666519940679808,-0.387,-0.3327082015071245,-0.387,-0.3982334261505456,-0.387,-0.4630592662766031,-0.387,-0.5269844576471654,-0.387,-0.5897643250950859,-0.387,-0.6511009125607417
-0.386,-0.06676156356526652,-0.386,-0.1335304358494793,-0.386,-0.2002070833818899,-0.386,-0.2666450289845654,-0.386,-0.3327000061787979,-0.386,-0.3982236569542101,-0.386,-0.4630474091853718,-0.386,-0.5269698211098002,-0.386,-0.5897460081748497,-0.386,-0.6510777602377736
-0.385,-0.06675890048456523,-0.385,-0.1335258050175772,-0.385,-0.2002011250246993,-0.385,-0.2666379549713631,-0.385,-0.3326916870526819,-0.385,-0.398213746013923,-0.385,-0.4630353872280915,-0.385,-0.5269549894395975,-0.385,-0.5897274564670227,-0.385,-0.6510543213725599
-0.384,-0.06675619412943967,-0.384,-0.1335210989353446,-0.384,-0.2001950710352935,-0.384,-0.2666307702861987,-0.384,-0.3326832422643147,-0.384,-0.3982036913511826,-0.384,-0.4630231983001176,-0.384,-0.5269399603818412,-0.384,-0.5897086675324605,-0.384,-0.6510305932951329
-0.383,-0.06675344376357417,-0.383,-0.1335163163226856,-0.383,-0.2001889198173628,-0.383,-0.2666234731558137,-0.383,-0.3326746699174279,-0.383,-0.3981934909558063,-0.383,-0.463010840265857,-0.383,-0.5269247316521835,-0.383,-0.5896896389043953,-0.383,-0.6510065733107271
-0.382,-0.06675064863723401,-0.382,-0.133511455875891,-0.382,-0.2001826697452516,-0.382,-0.2666160617751421,-0.382,-0.3326659680831838,-0.382,-0.3981831427851668,-0.382,-0.4629983109579907,-0.382,-0.5269093009358676,-0.382,-0.5896703680876521,-0.382,-0.6509822586990062
-0.381,-0.06674780798696855,-0.381,-0.1335065162671081,-0.381,-0.2001763191632826,-0.381,-0.2666085343065625,-0.381,-0.3326571347994105,-0.381,-0.3981726447634071,-0.381,-0.4629856081766892,-0.381,-0.5268936658869374,-0.381,-0.5896508525578597,-0.381,-0.6509576467132661
-0.38,-0.06674492103531215,-0.38,-0.1335014961437977,-0.38,-0.2001698663850642,-0.38,-0.2666008888791418,-0.38,-0.3326481680698081,-0.38,-0.3981619947806345,-0.38,-0.462972729688796,-0.38,-0.5268778241274163,-0.38,-0.5896310897606263,-0.38,-0.6509327345796126
-0.379,-0.06674198699047373,-0.379,-0.1334963941281799,-0.379,-0.2001633096927922,-0.379,-0.2665931235878567,-0.379,-0.3326390658631435,-0.379,-0.3981511906921007,-0.379,-0.4629596732269954,-0.379,-0.5268617732464707,-0.379,-0.5896110771106948,-0.379,-0.6509075194961133
-0.378,-0.06673900504602837,-0.378,-0.1334912088166709,-0.378,-0.2001566473365237,-0.378,-0.2665852364927994,-0.378,-0.3326298261124156,-0.378,-0.3981402303173522,-0.378,-0.4629464364889626,-0.378,-0.5268455107995489,-0.378,-0.5895908119910754,-0.378,-0.6508819986319151
-0.377,-0.06673597438059176,-0.377,-0.1334859387793033,-0.377,-0.2001498775334447,-0.377,-0.2665772256183625,-0.377,-0.3326204467140161,-0.377,-0.3981291114393717,-0.377,-0.4629330171364809,-0.377,-0.52682903430749,-0.377,-0.5895702917521483,-0.377,-0.6508561691263426
-0.376,-0.06673289415750272,-0.376,-0.1334805825591387,-0.376,-0.2001429984671148,-0.376,-0.2665690889524082,-0.376,-0.3326109255268532,-0.376,-0.3981178318036844,-0.376,-0.4629194127945471,-0.376,-0.5268123412556178,-0.376,-0.5895495137107405,-0.376,-0.6508300280879618
-0.375,-0.06672976352448257,-0.375,-0.1334751386716668,-0.375,-0.2001360082867014,-0.375,-0.2665608244454161,-0.375,-0.3326012603714708,-0.375,-0.3981063891174577,-0.375,-0.4629056210504474,-0.375,-0.526795429092805,-0.375,-0.5895284751491786,-0.375,-0.6508035725936148
-0.374,-0.06672658161330114,-0.374,-0.1334696056041871,-0.374,-0.2001289051061892,-0.374,-0.2665524300096149,-0.374,-0.3325914490291322,-0.374,-0.3980947810485607,-0.374,-0.4628916394528106,-0.374,-0.5267782952305089,-0.374,-0.5895071733143135,-0.374,-0.6507767996874266
-0.373,-0.06672334753943021,-0.373,-0.1334639818151855,-0.373,-0.2001216870035805,-0.373,-0.266543903518085,-0.373,-0.33258148924089,-0.373,-0.3980830052246205,-0.373,-0.4628774655106385,-0.373,-0.5267609370417914,-0.373,-0.5894856054165112,-0.373,-0.6507497063797765
-0.372,-0.06672006040168776,-0.372,-0.13345826573369,-0.372,-0.200114352020069,-0.372,-0.2665352428038537,-0.372,-0.3325713787066327,-0.372,-0.3980710592320349,-0.372,-0.4628630966923077,-0.372,-0.5267433518602944,-0.372,-0.5894637686286218,-0.372,-0.6507222896462427
-0.371,-0.06671671928187939,-0.371,-0.1334524557586185,-0.371,-0.2001068981592022,-0.371,-0.2665264456589549,-0.371,-0.3325611150841057,-0.371,-0.3980589406149753,-0.371,-0.4628485304245513,-0.371,-0.5267255369792092,-0.371,-0.5894416600849183,-0.371,-0.650694546426512
-0.37,-0.06671332324443191,-0.37,-0.1334465502581066,-0.37,-0.2000993233860187,-0.37,-0.2665175098334747,-0.37,-0.3325506959879114,-0.37,-0.398046646874356,-0.37,-0.4628337640914053,-0.37,-0.5267074896501984,-0.37,-0.5894192768799956,-0.37,-0.6506664736232547
-0.369,-0.06670987133601392,-0.369,-0.1334405475688238,-0.369,-0.2000916256261687,-0.369,-0.2665084330345757,-0.369,-0.3325401189884805,-0.369,-0.3980341754667851,-0.369,-0.4628187950331368,-0.369,-0.5266892070823042,-0.369,-0.5893966160676531,-0.369,-0.6506380681009718
-0.368,-0.06670636258515295,-0.368,-0.1334344459952757,-0.368,-0.2000838027650158,-0.368,-0.2664992129254922,-0.368,-0.3325293816110224,-0.368,-0.3980215238034774,-0.368,-0.4628036205451389,-0.368,-0.5266706864408122,-0.368,-0.5893736746597332,-0.368,-0.6506093266847973
-0.367,-0.06670279600184625,-0.367,-0.1334282438090879,-0.367,-0.2000758526467128,-0.367,-0.2664898471245007,-0.367,-0.3325184813344466,-0.367,-0.3980086892491534,-0.367,-0.4627882378767965,-0.367,-0.526651924846099,-0.367,-0.5893504496249322,-0.367,-0.6505802461592805
-0.366,-0.0666991705771558,-0.366,-0.1334219392482736,-0.366,-0.2000677730732598,-0.366,-0.2664803332038768,-0.366,-0.3325074155902621,-0.366,-0.3979956691208986,-0.366,-0.4627726442303264,-0.366,-0.5266329193724402,-0.366,-0.5893269378875809,-0.366,-0.6505508232671137
-0.365,-0.06669548528280078,-0.365,-0.1334155305164881,-0.365,-0.2000595618035383,-0.365,-0.2664706686888083,-0.365,-0.3324961817614405,-0.365,-0.397982460687003,-0.365,-0.4627568367595858,-0.365,-0.5266136670467869,-0.365,-0.589303136326386,-0.365,-0.6505210547078417
-0.364,-0.06669173907074133,-0.364,-0.1334090157822636,-0.364,-0.2000512165523258,-0.364,-0.2664608510563009,-0.364,-0.3324847771812593,-0.364,-0.3979690611657636,-0.364,-0.4627408125688428,-0.364,-0.526594164847513,-0.364,-0.5892790417731385,-0.364,-0.6504909371365204
-0.363,-0.06668793087274705,-0.363,-0.1334023931782258,-0.363,-0.2000427349892788,-0.363,-0.2664508777340431,-0.363,-0.3324731991321159,-0.363,-0.3979554677242623,-0.363,-0.4627245687115302,-0.363,-0.5265744097031266,-0.363,-0.5892546510113867,-0.363,-0.6504604671623453
-0.362,-0.06668405959996249,-0.362,-0.1333956608002953,-0.362,-0.2000341147379032,-0.362,-0.2664407460992499,-0.362,-0.3324614448443024,-0.362,-0.3979416774771087,-0.362,-0.4627081021889499,-0.362,-0.526554398490948,-0.362,-0.5892299607750768,-0.362,-0.6504296413472371
-0.361,-0.06668012414245927,-0.361,-0.1333888167068671,-0.361,-0.2000253533744905,-0.361,-0.2664304534774757,-0.361,-0.3324495114947632,-0.361,-0.3979276874851521,-0.361,-0.4626914099489541,-0.361,-0.5265341280357501,-0.361,-0.5892049677471458,-0.361,-0.6503984562043881
-0.36,-0.06667612336877893,-0.36,-0.1333818589179754,-0.36,-0.200016448427031,-0.36,-0.266419997141399,-0.36,-0.3324373962058083,-0.36,-0.3979134947541603,-0.36,-0.4626744888845915,-0.36,-0.5265135951083657,-0.36,-0.5891796685580883,-0.36,-0.65036690819677
-0.359,-0.06667205612546678,-0.359,-0.133374785414434,-0.359,-0.2000073973741037,-0.359,-0.2664093743095772,-0.359,-0.3324250960438055,-0.359,-0.3978990962334661,-0.359,-0.4626573358327113,-0.359,-0.5264927964242594,-0.359,-0.5891540597844809,-0.359,-0.650334993735599
-0.358,-0.0666679212365926,-0.358,-0.1333675941369612,-0.358,-0.1999981976437353,-0.358,-0.2663985821451675,-0.358,-0.3324126080178307,-0.358,-0.3978844888145747,-0.358,-0.4626399475725393,-0.358,-0.5264717286420544,-0.358,-0.5891281379474583,-0.358,-0.6503027091787581
-0.357,-0.06666371750326161,-0.357,-0.1333602829852782,-0.357,-0.1999888466122328,-0.357,-0.2663876177546194,-0.357,-0.3323999290782875,-0.357,-0.397869669329741,-0.357,-0.462622320824212,-0.357,-0.52645038836203,-0.357,-0.5891018995111624,-0.357,-0.6502700508291795
-0.356,-0.06665944370311538,-0.356,-0.1333528498171965,-0.356,-0.1999793416029896,-0.356,-0.2663764781863331,-0.356,-0.332387056115494,-0.356,-0.3978546345505058,-0.356,-0.462604452247273,-0.356,-0.5264287721245702,-0.356,-0.5890753408811409,-0.356,-0.6502370149331778
-0.355,-0.06665509858981911,-0.355,-0.133345292447669,-0.355,-0.1999696798852573,-0.355,-0.2663651604292829,-0.355,-0.3323739859582266,-0.355,-0.3978393811861971,-0.355,-0.4625863384391316,-0.355,-0.5264068764085801,-0.355,-0.5890484584027021,-0.355,-0.6502035976787434
-0.354,-0.06665068089254045,-0.354,-0.1333376086478335,-0.354,-0.1999598586728959,-0.354,-0.2663536614116073,-0.354,-0.3323607153722357,-0.354,-0.3978239058823876,-0.354,-0.4625679759334826,-0.354,-0.526384697629855,-0.354,-0.5890212483592366,-0.354,-0.650169795193789
-0.353,-0.06664618931540955,-0.353,-0.1333297961440223,-0.353,-0.1999498751230817,-0.353,-0.2663419779991647,-0.353,-0.3323472410587149,-0.353,-0.3978082052193235,-0.353,-0.462549361198678,-0.353,-0.5263622321394053,-0.353,-0.5889937069704808,-0.353,-0.6501356035496068
-0.352,-0.06664162253697437,-0.352,-0.1333218526167532,-0.352,-0.1999397263349936,-0.352,-0.2663301069940498,-0.352,-0.3323335596527373,-0.352,-0.3977922757102981,-0.352,-0.4625304906360692,-0.352,-0.5263394762217473,-0.352,-0.588965830390746,-0.352,-0.6501010187493358
-0.351,-0.06663697920963929,-0.351,-0.1333137756996976,-0.351,-0.1999294093484603,-0.351,-0.2663180451330731,-0.351,-0.3323196677216489,-0.351,-0.3977761137999936,-0.351,-0.4625113605782865,-0.351,-0.5263164260931359,-0.351,-0.5889376147070906,-0.351,-0.6500660367283536
-0.35,-0.06663225795908922,-0.35,-0.133305562978618,-0.35,-0.19991892114258,-0.35,-0.2663057890862046,-0.35,-0.3323055617634179,-0.35,-0.3977597158627784,-0.35,-0.4624919672874981,-0.35,-0.5262930778997605,-0.35,-0.5889090559374588,-0.35,-0.6500306533560385
-0.349,-0.06662745738370246,-0.349,-0.1332972119902867,-0.349,-0.1999082586342964,-0.349,-0.2662933354549739,-0.349,-0.332291238204947,-0.349,-0.3977430782009559,-0.349,-0.4624723069536023,-0.349,-0.5262694277158915,-0.349,-0.5888801500287516,-0.349,-0.6499948644322084
-0.348,-0.06662257605394917,-0.348,-0.1332887202213717,-0.348,-0.1998974186769484,-0.348,-0.266280680770832,-0.348,-0.3322766934003418,-0.348,-0.3977261970429713,-0.348,-0.4624523756923853,-0.348,-0.5262454715419764,-0.348,-0.5888508928548647,-0.348,-0.6499586656850672
-0.347,-0.066617612511777,-0.347,-0.1332800851073033,-0.347,-0.1998863980587808,-0.347,-0.2662678214934693,-0.347,-0.3322619236291249,-0.347,-0.3977090685415723,-0.347,-0.4624321695436249,-0.347,-0.5262212053026876,-0.347,-0.5888212802146651,-0.347,-0.6499220527691019
-0.346,-0.06661256526997716,-0.346,-0.1332713040311031,-0.346,-0.1998751935014131,-0.346,-0.2662547540090936,-0.346,-0.3322469250944187,-0.346,-0.3976916887719206,-0.346,-0.4624116844691486,-0.346,-0.5261966248449192,-0.346,-0.588791307829916,-0.346,-0.649885021262923
-0.345,-0.06660743281154047,-0.345,-0.1332623743221937,-0.345,-0.1998638016582772,-0.345,-0.2662414746286612,-0.345,-0.3322316939210688,-0.345,-0.397674053729653,-0.345,-0.4623909163508371,-0.345,-0.5261717259357339,-0.345,-0.5887609713431542,-0.345,-0.6498475666670509
-0.344,-0.06660221358899632,-0.344,-0.1332532932551771,-0.344,-0.1998522191130097,-0.344,-0.2662279795860616,-0.344,-0.3322162261537218,-0.344,-0.3976561593288921,-0.344,-0.4623698609885785,-0.344,-0.5261465042602484,-0.344,-0.5887302663154992,-0.344,-0.6498096844016393
-0.343,-0.06659690602373658,-0.343,-0.1332440580485761,-0.343,-0.1998404423778037,-0.343,-0.266214265036258,-0.343,-0.3322005177548613,-0.343,-0.3976380014002079,-0.343,-0.4623485140981698,-0.343,-0.5261209554194761,-0.343,-0.588699188224424,-0.343,-0.649771369804146
-0.342,-0.0665915085053177,-0.342,-0.133234665863555,-0.342,-0.1998284678917288,-0.342,-0.2662003270533806,-0.342,-0.332184564602775,-0.342,-0.3976195756885239,-0.342,-0.4623268713091593,-0.342,-0.5260950749280995,-0.342,-0.5886677324614475,-0.342,-0.6497326181269418
-0.341,-0.06658601939075548,-0.341,-0.1332251138026013,-0.341,-0.1998162920189921,-0.341,-0.2661861616287664,-0.341,-0.3321683624894898,-0.341,-0.3976008778509679,-0.341,-0.4623049281626346,-0.341,-0.5260688582121944,-0.341,-0.5886358943297809,-0.341,-0.6496934245348532
-0.34,-0.06658043700379501,-0.34,-0.1332153989081797,-0.34,-0.1998039110471681,-0.34,-0.2661717646689514,-0.34,-0.3321519071186338,-0.34,-0.3975819034546655,-0.34,-0.4622826801089561,-0.34,-0.5260423006068922,-0.34,-0.5886036690419094,-0.34,-0.6496537841026498
-0.339,-0.06657475963416615,-0.339,-0.1332055181613492,-0.339,-0.1997913211853781,-0.339,-0.2661571319936069,-0.339,-0.3321351941032564,-0.339,-0.3975626479744798,-0.339,-0.4622601225054239,-0.339,-0.5260153973539783,-0.339,-0.5885710517171079,-0.339,-0.6496136918124579
-0.338,-0.066568985536819,-0.338,-0.1331954684803456,-0.338,-0.1997785185624255,-0.338,-0.2661422593334304,-0.338,-0.3321182189635814,-0.338,-0.3975431067906832,-0.338,-0.4622372506138859,-0.338,-0.5259881435994276,-0.338,-0.5885380373788942,-0.338,-0.6495731425511158
-0.337,-0.06656311293114303,-0.337,-0.133185246719133,-0.337,-0.1997654992248792,-0.337,-0.2661271423279692,-0.337,-0.3321009771247057,-0.337,-0.3975232751865796,-0.337,-0.4622140595982906,-0.337,-0.5259605343908829,-0.337,-0.5885046209524176,-0.337,-0.6495321311074523
-0.336,-0.06655714000016544,-0.336,-0.1331748496659158,-0.336,-0.1997522591351109,-0.336,-0.2661117765233989,-0.336,-0.332083463914236,-0.336,-0.3975031483460505,-0.336,-0.4621905445221586,-0.336,-0.5259325646750517,-0.336,-0.5884707972617748,-0.336,-0.6494906521695024
-0.335,-0.06655106488972784,-0.335,-0.1331642740416099,-0.335,-0.1997387941692828,-0.335,-0.2660961573702338,-0.335,-0.3320656745598647,-0.335,-0.3974827213510479,-0.335,-0.462166700346005,-0.335,-0.5259042292950529,-0.335,-0.5884365610272598,-0.335,-0.6494487003216477
-0.334,-0.06654488570764894,-0.334,-0.1331535164982858,-0.334,-0.1997251001152827,-0.334,-0.2660802802209832,-0.334,-0.3320476041868765,-0.334,-0.3974619891790097,-0.334,-0.4621425219246804,-0.334,-0.5258755229876761,-0.334,-0.5884019068625393,-0.334,-0.6494062700416828
-0.333,-0.06653860052285698,-0.333,-0.1331425736175595,-0.333,-0.1997111726706018,-0.333,-0.2660641403277446,-0.333,-0.332029247815594,-0.333,-0.3974409467002145,-0.333,-0.4621180040046489,-0.333,-0.5258464403805829,-0.333,-0.5883668292717561,-0.333,-0.6493633556978022
-0.332,-0.06653220736451027,-0.332,-0.1331314419089544,-0.332,-0.1996970074401641,-0.332,-0.2660477328397333,-0.332,-0.3320106003587511,-0.332,-0.3974195886750624,-0.332,-0.4620931412211866,-0.332,-0.5258169759894247,-0.332,-0.5883313226465534,-0.332,-0.6493199515455191
-0.331,-0.06652570422108783,-0.331,-0.1331201178082151,-0.331,-0.1996825999340914,-0.331,-0.2660310528007401,-0.331,-0.331991656618799,-0.331,-0.3973979097512812,-0.331,-0.4620679280955142,-0.331,-0.5257871242148835,-0.331,-0.5882953812630227,-0.331,-0.649276051724491
-0.33,-0.06651908903946246,-0.33,-0.1331085976755748,-0.33,-0.1996679455654204,-0.33,-0.2660140951465353,-0.33,-0.3319724112851403,-0.33,-0.3973759044610623,-0.33,-0.4620423590318437,-0.33,-0.5257568793396437,-0.33,-0.5882589992785716,-0.33,-0.6492316502552735
