;Version, 1, 0
;tr_out (VCTRL=0.02),;tr_out (VCTRL=0.04),;tr_out (VCTRL=0.06),;tr_out (VCTRL=0.08),;tr_out (VCTRL=0.1),;tr_out (VCTRL=0.12),;tr_out (VCTRL=0.14),;tr_out (VCTRL=0.16),;tr_out (VCTRL=0.18),;tr_out (VCTRL=0.2),;tr_out (VCTRL=0.22),;tr_out (VCTRL=0.24),;tr_out (VCTRL=0.26),;tr_out (VCTRL=0.28),;tr_out (VCTRL=0.3)
;X, Y,;X, Y,;X, Y,;X, Y,;X, Y,;X, Y,;X, Y,;X, Y,;X, Y,;X, Y,;X, Y,;X, Y,;X, Y,;X, Y,;X, Y
;Re, Re,;Re, Re,;Re, Re,;Re, Re,;Re, Re,;Re, Re,;Re, Re,;Re, Re,;Re, Re,;Re, Re,;Re, Re,;Re, Re,;Re, Re,;Re, Re,;Re, Re
;time, V,;time, V,;time, V,;time, V,;time, V,;time, V,;time, V,;time, V,;time, V,;time, V,;time, V,;time, V,;time, V,;time, V,;time, V
;s, V,;s, V,;s, V,;s, V,;s, V,;s, V,;s, V,;s, V,;s, V,;s, V,;s, V,;s, V,;s, V,;s, V,;s, V
0,0,0,0,0,0,0,2.775557561562891e-17,0,0,0,2.775557561562891e-17,0,2.775557561562891e-17,0,0,0,-2.775557561562891e-17,0,-2.775557561562891e-17,0,2.775557561562891e-17,0,2.775557561562891e-17,0,-2.775557561562891e-17,0,0,0,0
9.999999999999999e-12,0,9.999999999999999e-12,0,9.999999999999999e-12,0,9.999999999999999e-12,2.775557561562891e-17,9.999999999999999e-12,0,9.999999999999999e-12,2.775557561562891e-17,9.999999999999999e-12,2.775557561562891e-17,9.999999999999999e-12,0,9.999999999999999e-12,-2.775557561562891e-17,9.999999999999999e-12,-2.775557561562891e-17,9.999999999999999e-12,2.775557561562891e-17,9.999999999999999e-12,2.775557561562891e-17,9.999999999999999e-12,-2.775557561562891e-17,9.999999999999999e-12,0,9.999999999999999e-12,0
2e-11,0,2e-11,0,2e-11,0,2e-11,2.775557561562891e-17,2e-11,0,2e-11,2.775557561562891e-17,2e-11,2.775557561562891e-17,2e-11,0,2e-11,-2.775557561562891e-17,2e-11,-2.775557561562891e-17,2e-11,2.775557561562891e-17,2e-11,2.775557561562891e-17,2e-11,-2.775557561562891e-17,2e-11,0,2e-11,0
3e-11,0,3e-11,0,3e-11,0,3e-11,2.775557561562891e-17,3e-11,0,3e-11,2.775557561562891e-17,3e-11,2.775557561562891e-17,3e-11,0,3e-11,-2.775557561562891e-17,3e-11,-5.551115123125783e-17,3e-11,0,3e-11,2.775557561562891e-17,3e-11,0,3e-11,0,3e-11,0
4e-11,0,4e-11,0,4e-11,0,4e-11,2.775557561562891e-17,4e-11,0,4e-11,2.775557561562891e-17,4e-11,5.551115123125783e-17,4e-11,0,4e-11,-2.775557561562891e-17,4e-11,-5.551115123125783e-17,4e-11,0,4e-11,2.775557561562891e-17,4e-11,-2.775557561562891e-17,4e-11,0,4e-11,0
5e-11,0,5e-11,0,5e-11,0,5e-11,0,5e-11,0,5e-11,0,5e-11,2.775557561562891e-17,5e-11,0,5e-11,-2.775557561562891e-17,5e-11,-2.775557561562891e-17,5e-11,0,5e-11,2.775557561562891e-17,5e-11,-2.775557561562891e-17,5e-11,0,5e-11,0
6e-11,0,6e-11,0,6e-11,0,6e-11,5.551115123125783e-17,6e-11,0,6e-11,0,6e-11,2.775557561562891e-17,6e-11,0,6e-11,-2.775557561562891e-17,6e-11,-2.775557561562891e-17,6e-11,0,6e-11,2.775557561562891e-17,6e-11,-2.775557561562891e-17,6e-11,0,6e-11,0
7e-11,0,7e-11,0,7e-11,0,7e-11,5.551115123125783e-17,7e-11,0,7e-11,0,7e-11,0,7e-11,0,7e-11,-2.775557561562891e-17,7e-11,0,7e-11,0,7e-11,5.551115123125783e-17,7e-11,-5.551115123125783e-17,7e-11,0,7e-11,0
8.000000000000001e-11,0,8.000000000000001e-11,0,8.000000000000001e-11,0,8.000000000000001e-11,2.775557561562891e-17,8.000000000000001e-11,0,8.000000000000001e-11,0,8.000000000000001e-11,2.775557561562891e-17,8.000000000000001e-11,0,8.000000000000001e-11,0,8.000000000000001e-11,0,8.000000000000001e-11,0,8.000000000000001e-11,5.551115123125783e-17,8.000000000000001e-11,-5.551115123125783e-17,8.000000000000001e-11,0,8.000000000000001e-11,0
9.000000000000001e-11,0,9.000000000000001e-11,0,9.000000000000001e-11,0,9.000000000000001e-11,2.775557561562891e-17,9.000000000000001e-11,0,9.000000000000001e-11,0,9.000000000000001e-11,2.775557561562891e-17,9.000000000000001e-11,0,9.000000000000001e-11,0,9.000000000000001e-11,-2.775557561562891e-17,9.000000000000001e-11,-2.775557561562891e-17,9.000000000000001e-11,5.551115123125783e-17,9.000000000000001e-11,-5.551115123125783e-17,9.000000000000001e-11,0,9.000000000000001e-11,0
1e-10,0,1e-10,0,1e-10,0,1e-10,2.775557561562891e-17,1e-10,0,1e-10,0,1e-10,0,1e-10,0,1e-10,2.775557561562891e-17,1e-10,2.775557561562891e-17,1e-10,-5.551115123125783e-17,1e-10,2.775557561562891e-17,1e-10,-1.110223024625157e-16,1e-10,0,1e-10,0
1.1e-10,0,1.1e-10,0,1.1e-10,0,1.1e-10,0,1.1e-10,0,1.1e-10,0,1.1e-10,0,1.1e-10,0,1.1e-10,2.775557561562891e-17,1.1e-10,0,1.1e-10,-1.110223024625157e-16,1.1e-10,0,1.1e-10,-5.551115123125783e-17,1.1e-10,0,1.1e-10,0
1.2e-10,0,1.2e-10,0,1.2e-10,0,1.2e-10,0,1.2e-10,0,1.2e-10,0,1.2e-10,2.775557561562891e-17,1.2e-10,0,1.2e-10,8.326672684688674e-17,1.2e-10,0,1.2e-10,-2.775557561562891e-17,1.2e-10,0,1.2e-10,-5.551115123125783e-17,1.2e-10,0,1.2e-10,0
1.3e-10,0,1.3e-10,0,1.3e-10,0,1.3e-10,0,1.3e-10,0,1.3e-10,2.775557561562891e-17,1.3e-10,5.551115123125783e-17,1.3e-10,0,1.3e-10,5.551115123125783e-17,1.3e-10,0,1.3e-10,-8.326672684688674e-17,1.3e-10,0,1.3e-10,-1.110223024625157e-16,1.3e-10,0,1.3e-10,0
1.4e-10,0,1.4e-10,0,1.4e-10,0,1.4e-10,-2.775557561562891e-17,1.4e-10,0,1.4e-10,2.775557561562891e-17,1.4e-10,0,1.4e-10,0,1.4e-10,0,1.4e-10,0,1.4e-10,-1.110223024625157e-16,1.4e-10,0,1.4e-10,-8.326672684688674e-17,1.4e-10,0,1.4e-10,0
1.5e-10,0,1.5e-10,0,1.5e-10,0,1.5e-10,5.551115123125783e-17,1.5e-10,0,1.5e-10,0,1.5e-10,0,1.5e-10,0,1.5e-10,8.326672684688674e-17,1.5e-10,0,1.5e-10,-2.775557561562891e-17,1.5e-10,-2.775557561562891e-17,1.5e-10,-5.551115123125783e-17,1.5e-10,0,1.5e-10,0
1.6e-10,0,1.6e-10,0,1.6e-10,0,1.6e-10,-2.775557561562891e-17,1.6e-10,0,1.6e-10,2.775557561562891e-17,1.6e-10,5.551115123125783e-17,1.6e-10,0,1.6e-10,2.775557561562891e-17,1.6e-10,0,1.6e-10,-8.326672684688674e-17,1.6e-10,0,1.6e-10,-8.326672684688674e-17,1.6e-10,0,1.6e-10,0
1.7e-10,0,1.7e-10,0,1.7e-10,0,1.7e-10,2.775557561562891e-17,1.7e-10,0,1.7e-10,5.551115123125783e-17,1.7e-10,2.775557561562891e-17,1.7e-10,0,1.7e-10,-2.775557561562891e-17,1.7e-10,0,1.7e-10,-5.551115123125783e-17,1.7e-10,-2.775557561562891e-17,1.7e-10,0,1.7e-10,0,1.7e-10,0
1.8e-10,0,1.8e-10,0,1.8e-10,0,1.8e-10,1.110223024625157e-16,1.8e-10,0,1.8e-10,0,1.8e-10,5.551115123125783e-17,1.8e-10,0,1.8e-10,-2.775557561562891e-17,1.8e-10,0,1.8e-10,-2.775557561562891e-17,1.8e-10,5.551115123125783e-17,1.8e-10,-5.551115123125783e-17,1.8e-10,0,1.8e-10,0
1.9e-10,0,1.9e-10,0,1.9e-10,0,1.9e-10,-2.775557561562891e-17,1.9e-10,0,1.9e-10,0,1.9e-10,2.775557561562891e-17,1.9e-10,0,1.9e-10,2.775557561562891e-17,1.9e-10,0,1.9e-10,-5.551115123125783e-17,1.9e-10,0,1.9e-10,-2.775557561562891e-17,1.9e-10,0,1.9e-10,0
2e-10,0,2e-10,0,2e-10,0,2e-10,0,2e-10,0,2e-10,0,2e-10,5.551115123125783e-17,2e-10,0,2e-10,-2.775557561562891e-17,2e-10,0,2e-10,-5.551115123125783e-17,2e-10,0,2e-10,-8.326672684688674e-17,2e-10,0,2e-10,0
2.099999999999999e-10,0,2.099999999999999e-10,0,2.099999999999999e-10,0,2.099999999999999e-10,2.775557561562891e-17,2.099999999999999e-10,0,2.099999999999999e-10,-2.775557561562891e-17,2.099999999999999e-10,0,2.099999999999999e-10,0,2.099999999999999e-10,5.551115123125783e-17,2.099999999999999e-10,0,2.099999999999999e-10,0,2.099999999999999e-10,0,2.099999999999999e-10,-2.775557561562891e-17,2.099999999999999e-10,0,2.099999999999999e-10,0
2.199999999999999e-10,0,2.199999999999999e-10,0,2.199999999999999e-10,0,2.199999999999999e-10,2.775557561562891e-17,2.199999999999999e-10,0,2.199999999999999e-10,2.775557561562891e-17,2.199999999999999e-10,2.775557561562891e-17,2.199999999999999e-10,0,2.199999999999999e-10,0,2.199999999999999e-10,0,2.199999999999999e-10,0,2.199999999999999e-10,0,2.199999999999999e-10,5.551115123125783e-17,2.199999999999999e-10,0,2.199999999999999e-10,0
2.299999999999999e-10,0,2.299999999999999e-10,0,2.299999999999999e-10,0,2.299999999999999e-10,-5.551115123125783e-17,2.299999999999999e-10,0,2.299999999999999e-10,2.775557561562891e-17,2.299999999999999e-10,5.551115123125783e-17,2.299999999999999e-10,0,2.299999999999999e-10,0,2.299999999999999e-10,0,2.299999999999999e-10,0,2.299999999999999e-10,-2.775557561562891e-17,2.299999999999999e-10,-5.551115123125783e-17,2.299999999999999e-10,0,2.299999999999999e-10,0
2.399999999999999e-10,0,2.399999999999999e-10,0,2.399999999999999e-10,0,2.399999999999999e-10,2.775557561562891e-17,2.399999999999999e-10,0,2.399999999999999e-10,0,2.399999999999999e-10,5.551115123125783e-17,2.399999999999999e-10,0,2.399999999999999e-10,-2.775557561562891e-17,2.399999999999999e-10,-2.775557561562891e-17,2.399999999999999e-10,0,2.399999999999999e-10,0,2.399999999999999e-10,-2.775557561562891e-17,2.399999999999999e-10,0,2.399999999999999e-10,0
2.5e-10,0,2.5e-10,0,2.5e-10,0,2.5e-10,2.775557561562891e-17,2.5e-10,0,2.5e-10,5.551115123125783e-17,2.5e-10,-2.775557561562891e-17,2.5e-10,0,2.5e-10,5.551115123125783e-17,2.5e-10,2.775557561562891e-17,2.5e-10,-2.775557561562891e-17,2.5e-10,0,2.5e-10,-2.775557561562891e-17,2.5e-10,0,2.5e-10,0
2.6e-10,0,2.6e-10,0,2.6e-10,0,2.6e-10,-5.551115123125783e-17,2.6e-10,0,2.6e-10,8.326672684688674e-17,2.6e-10,-2.775557561562891e-17,2.6e-10,0,2.6e-10,0,2.6e-10,-2.775557561562891e-17,2.6e-10,0,2.6e-10,2.775557561562891e-17,2.6e-10,5.551115123125783e-17,2.6e-10,0,2.6e-10,0
2.7e-10,0,2.7e-10,0,2.7e-10,0,2.7e-10,0,2.7e-10,0,2.7e-10,5.551115123125783e-17,2.7e-10,0,2.7e-10,0,2.7e-10,0,2.7e-10,0,2.7e-10,2.775557561562891e-17,2.7e-10,0,2.7e-10,-5.551115123125783e-17,2.7e-10,0,2.7e-10,0
2.8e-10,0,2.8e-10,0,2.8e-10,0,2.8e-10,2.775557561562891e-17,2.8e-10,0,2.8e-10,-2.775557561562891e-17,2.8e-10,2.775557561562891e-17,2.8e-10,0,2.8e-10,-2.775557561562891e-17,2.8e-10,-2.775557561562891e-17,2.8e-10,-2.775557561562891e-17,2.8e-10,0,2.8e-10,-2.775557561562891e-17,2.8e-10,0,2.8e-10,0
2.9e-10,0,2.9e-10,0,2.9e-10,0,2.9e-10,2.775557561562891e-17,2.9e-10,0,2.9e-10,2.775557561562891e-17,2.9e-10,0,2.9e-10,0,2.9e-10,2.775557561562891e-17,2.9e-10,0,2.9e-10,-2.775557561562891e-17,2.9e-10,0,2.9e-10,0,2.9e-10,0,2.9e-10,0
3e-10,0,3e-10,0,3e-10,0,3e-10,0,3e-10,0,3e-10,5.551115123125783e-17,3e-10,2.775557561562891e-17,3e-10,0,3e-10,2.775557561562891e-17,3e-10,-2.775557561562891e-17,3e-10,5.551115123125783e-17,3e-10,0,3e-10,0,3e-10,0,3e-10,0
3.100000000000001e-10,0,3.100000000000001e-10,0,3.100000000000001e-10,0,3.100000000000001e-10,0,3.100000000000001e-10,0,3.100000000000001e-10,1.110223024625157e-16,3.100000000000001e-10,8.326672684688674e-17,3.100000000000001e-10,0,3.100000000000001e-10,2.775557561562891e-17,3.100000000000001e-10,0,3.100000000000001e-10,0,3.100000000000001e-10,0,3.100000000000001e-10,-2.775557561562891e-17,3.100000000000001e-10,0,3.100000000000001e-10,0
3.200000000000001e-10,0,3.200000000000001e-10,0,3.200000000000001e-10,0,3.200000000000001e-10,-2.775557561562891e-17,3.200000000000001e-10,0,3.200000000000001e-10,1.110223024625157e-16,3.200000000000001e-10,2.775557561562891e-17,3.200000000000001e-10,0,3.200000000000001e-10,5.551115123125783e-17,3.200000000000001e-10,0,3.200000000000001e-10,0,3.200000000000001e-10,2.775557561562891e-17,3.200000000000001e-10,-2.775557561562891e-17,3.200000000000001e-10,0,3.200000000000001e-10,0
3.300000000000001e-10,0,3.300000000000001e-10,0,3.300000000000001e-10,0,3.300000000000001e-10,2.775557561562891e-17,3.300000000000001e-10,0,3.300000000000001e-10,1.387778780781446e-16,3.300000000000001e-10,-5.551115123125783e-17,3.300000000000001e-10,0,3.300000000000001e-10,8.326672684688674e-17,3.300000000000001e-10,-2.775557561562891e-17,3.300000000000001e-10,5.551115123125783e-17,3.300000000000001e-10,-2.775557561562891e-17,3.300000000000001e-10,-2.775557561562891e-17,3.300000000000001e-10,0,3.300000000000001e-10,0
3.400000000000001e-10,0,3.400000000000001e-10,0,3.400000000000001e-10,0,3.400000000000001e-10,-2.775557561562891e-17,3.400000000000001e-10,0,3.400000000000001e-10,5.551115123125783e-17,3.400000000000001e-10,0,3.400000000000001e-10,0,3.400000000000001e-10,-2.775557561562891e-17,3.400000000000001e-10,0,3.400000000000001e-10,-5.551115123125783e-17,3.400000000000001e-10,-2.775557561562891e-17,3.400000000000001e-10,-5.551115123125783e-17,3.400000000000001e-10,0,3.400000000000001e-10,0
3.500000000000001e-10,0,3.500000000000001e-10,0,3.500000000000001e-10,0,3.500000000000001e-10,2.775557561562891e-17,3.500000000000001e-10,0,3.500000000000001e-10,0,3.500000000000001e-10,5.551115123125783e-17,3.500000000000001e-10,0,3.500000000000001e-10,-2.775557561562891e-17,3.500000000000001e-10,0,3.500000000000001e-10,-5.551115123125783e-17,3.500000000000001e-10,0,3.500000000000001e-10,5.551115123125783e-17,3.500000000000001e-10,0,3.500000000000001e-10,0
3.600000000000002e-10,0,3.600000000000002e-10,0,3.600000000000002e-10,0,3.600000000000002e-10,0,3.600000000000002e-10,0,3.600000000000002e-10,0,3.600000000000002e-10,0,3.600000000000002e-10,0,3.600000000000002e-10,5.551115123125783e-17,3.600000000000002e-10,-2.775557561562891e-17,3.600000000000002e-10,-2.775557561562891e-17,3.600000000000002e-10,2.775557561562891e-17,3.600000000000002e-10,2.775557561562891e-17,3.600000000000002e-10,0,3.600000000000002e-10,0
3.700000000000002e-10,0,3.700000000000002e-10,0,3.700000000000002e-10,0,3.700000000000002e-10,-8.326672684688674e-17,3.700000000000002e-10,0,3.700000000000002e-10,-2.775557561562891e-17,3.700000000000002e-10,-5.551115123125783e-17,3.700000000000002e-10,0,3.700000000000002e-10,-5.551115123125783e-17,3.700000000000002e-10,2.775557561562891e-17,3.700000000000002e-10,-1.110223024625157e-16,3.700000000000002e-10,2.775557561562891e-17,3.700000000000002e-10,0,3.700000000000002e-10,0,3.700000000000002e-10,0
3.800000000000002e-10,0,3.800000000000002e-10,0,3.800000000000002e-10,0,3.800000000000002e-10,-2.775557561562891e-17,3.800000000000002e-10,0,3.800000000000002e-10,2.775557561562891e-17,3.800000000000002e-10,5.551115123125783e-17,3.800000000000002e-10,0,3.800000000000002e-10,2.775557561562891e-17,3.800000000000002e-10,5.551115123125783e-17,3.800000000000002e-10,-5.551115123125783e-17,3.800000000000002e-10,-2.775557561562891e-17,3.800000000000002e-10,0,3.800000000000002e-10,0,3.800000000000002e-10,0
3.900000000000002e-10,0,3.900000000000002e-10,0,3.900000000000002e-10,0,3.900000000000002e-10,0,3.900000000000002e-10,0,3.900000000000002e-10,2.775557561562891e-17,3.900000000000002e-10,-2.775557561562891e-17,3.900000000000002e-10,0,3.900000000000002e-10,2.775557561562891e-17,3.900000000000002e-10,-2.775557561562891e-17,3.900000000000002e-10,-2.775557561562891e-17,3.900000000000002e-10,5.551115123125783e-17,3.900000000000002e-10,-8.326672684688674e-17,3.900000000000002e-10,0,3.900000000000002e-10,0
4.000000000000002e-10,0,4.000000000000002e-10,0,4.000000000000002e-10,0,4.000000000000002e-10,-2.775557561562891e-17,4.000000000000002e-10,0,4.000000000000002e-10,0,4.000000000000002e-10,-2.775557561562891e-17,4.000000000000002e-10,0,4.000000000000002e-10,0,4.000000000000002e-10,2.775557561562891e-17,4.000000000000002e-10,-8.326672684688674e-17,4.000000000000002e-10,2.775557561562891e-17,4.000000000000002e-10,0,4.000000000000002e-10,0,4.000000000000002e-10,0
4.100000000000002e-10,0,4.100000000000002e-10,0,4.100000000000002e-10,0,4.100000000000002e-10,0,4.100000000000002e-10,0,4.100000000000002e-10,2.775557561562891e-17,4.100000000000002e-10,-2.775557561562891e-17,4.100000000000002e-10,0,4.100000000000002e-10,2.775557561562891e-17,4.100000000000002e-10,0,4.100000000000002e-10,2.775557561562891e-17,4.100000000000002e-10,-5.551115123125783e-17,4.100000000000002e-10,5.551115123125783e-17,4.100000000000002e-10,0,4.100000000000002e-10,0
4.200000000000003e-10,0,4.200000000000003e-10,0,4.200000000000003e-10,0,4.200000000000003e-10,0,4.200000000000003e-10,0,4.200000000000003e-10,0,4.200000000000003e-10,2.775557561562891e-17,4.200000000000003e-10,0,4.200000000000003e-10,-5.551115123125783e-17,4.200000000000003e-10,0,4.200000000000003e-10,8.326672684688674e-17,4.200000000000003e-10,2.775557561562891e-17,4.200000000000003e-10,0,4.200000000000003e-10,0,4.200000000000003e-10,0
4.300000000000003e-10,0,4.300000000000003e-10,0,4.300000000000003e-10,0,4.300000000000003e-10,-2.775557561562891e-17,4.300000000000003e-10,0,4.300000000000003e-10,-2.775557561562891e-17,4.300000000000003e-10,0,4.300000000000003e-10,2.775557561562891e-17,4.300000000000003e-10,0,4.300000000000003e-10,0,4.300000000000003e-10,-2.775557561562891e-17,4.300000000000003e-10,2.775557561562891e-17,4.300000000000003e-10,0,4.300000000000003e-10,0,4.300000000000003e-10,0
4.400000000000003e-10,0,4.400000000000003e-10,0,4.400000000000003e-10,0,4.400000000000003e-10,-8.326672684688674e-17,4.400000000000003e-10,0,4.400000000000003e-10,-1.110223024625157e-16,4.400000000000003e-10,2.775557561562891e-17,4.400000000000003e-10,0,4.400000000000003e-10,-2.775557561562891e-17,4.400000000000003e-10,-2.775557561562891e-17,4.400000000000003e-10,2.775557561562891e-17,4.400000000000003e-10,-2.775557561562891e-17,4.400000000000003e-10,5.551115123125783e-17,4.400000000000003e-10,0,4.400000000000003e-10,0
4.500000000000003e-10,0,4.500000000000003e-10,0,4.500000000000003e-10,0,4.500000000000003e-10,-2.775557561562891e-17,4.500000000000003e-10,0,4.500000000000003e-10,-1.110223024625157e-16,4.500000000000003e-10,-2.775557561562891e-17,4.500000000000003e-10,2.775557561562891e-17,4.500000000000003e-10,-5.551115123125783e-17,4.500000000000003e-10,-5.551115123125783e-17,4.500000000000003e-10,5.551115123125783e-17,4.500000000000003e-10,2.775557561562891e-17,4.500000000000003e-10,-5.551115123125783e-17,4.500000000000003e-10,0,4.500000000000003e-10,0
4.600000000000003e-10,0,4.600000000000003e-10,5.551115123125783e-17,4.600000000000003e-10,0,4.600000000000003e-10,0,4.600000000000003e-10,0,4.600000000000003e-10,0,4.600000000000003e-10,-5.551115123125783e-17,4.600000000000003e-10,0,4.600000000000003e-10,2.775557561562891e-17,4.600000000000003e-10,2.775557561562891e-17,4.600000000000003e-10,-5.551115123125783e-17,4.600000000000003e-10,-2.775557561562891e-17,4.600000000000003e-10,2.775557561562891e-17,4.600000000000003e-10,0,4.600000000000003e-10,0
4.700000000000003e-10,0,4.700000000000003e-10,2.775557561562891e-17,4.700000000000003e-10,0,4.700000000000003e-10,-2.775557561562891e-17,4.700000000000003e-10,0,4.700000000000003e-10,0,4.700000000000003e-10,5.551115123125783e-17,4.700000000000003e-10,0,4.700000000000003e-10,0,4.700000000000003e-10,-2.775557561562891e-17,4.700000000000003e-10,-2.775557561562891e-17,4.700000000000003e-10,-2.775557561562891e-17,4.700000000000003e-10,5.551115123125783e-17,4.700000000000003e-10,0,4.700000000000003e-10,0
4.800000000000003e-10,0,4.800000000000003e-10,1.110223024625157e-16,4.800000000000003e-10,0,4.800000000000003e-10,-1.387778780781446e-16,4.800000000000003e-10,0,4.800000000000003e-10,0,4.800000000000003e-10,0,4.800000000000003e-10,-2.775557561562891e-17,4.800000000000003e-10,0,4.800000000000003e-10,-2.775557561562891e-17,4.800000000000003e-10,8.326672684688674e-17,4.800000000000003e-10,2.775557561562891e-17,4.800000000000003e-10,0,4.800000000000003e-10,0,4.800000000000003e-10,0
4.900000000000003e-10,0,4.900000000000003e-10,1.110223024625157e-16,4.900000000000003e-10,0,4.900000000000003e-10,-1.387778780781446e-16,4.900000000000003e-10,0,4.900000000000003e-10,-2.775557561562891e-17,4.900000000000003e-10,-2.775557561562891e-17,4.900000000000003e-10,-2.775557561562891e-17,4.900000000000003e-10,0,4.900000000000003e-10,0,4.900000000000003e-10,-2.775557561562891e-17,4.900000000000003e-10,0,4.900000000000003e-10,-5.551115123125783e-17,4.900000000000003e-10,0,4.900000000000003e-10,0
5.000000000000002e-10,0,5.000000000000002e-10,2.775557561562891e-17,5.000000000000002e-10,0,5.000000000000002e-10,2.775557561562891e-17,5.000000000000002e-10,0,5.000000000000002e-10,5.551115123125783e-17,5.000000000000002e-10,8.326672684688674e-17,5.000000000000002e-10,0,5.000000000000002e-10,0,5.000000000000002e-10,-2.775557561562891e-17,5.000000000000002e-10,-2.775557561562891e-17,5.000000000000002e-10,0,5.000000000000002e-10,-2.775557561562891e-17,5.000000000000002e-10,0,5.000000000000002e-10,0
