;Version, 1, 0
;tr_out (VCTRL=0.02),;tr_out (VCTRL=0.04),;tr_out (VCTRL=0.06),;tr_out (VCTRL=0.08),;tr_out (VCTRL=0.1),;tr_out (VCTRL=0.12),;tr_out (VCTRL=0.14),;tr_out (VCTRL=0.16),;tr_out (VCTRL=0.18),;tr_out (VCTRL=0.2),;tr_out (VCTRL=0.22),;tr_out (VCTRL=0.24),;tr_out (VCTRL=0.26),;tr_out (VCTRL=0.28),;tr_out (VCTRL=0.3)
;X, Y,;X, Y,;X, Y,;X, Y,;X, Y,;X, Y,;X, Y,;X, Y,;X, Y,;X, Y,;X, Y,;X, Y,;X, Y,;X, Y,;X, Y
;Re, Re,;Re, Re,;Re, Re,;Re, Re,;Re, Re,;Re, Re,;Re, Re,;Re, Re,;Re, Re,;Re, Re,;Re, Re,;Re, Re,;Re, Re,;Re, Re,;Re, Re
;time, V,;time, V,;time, V,;time, V,;time, V,;time, V,;time, V,;time, V,;time, V,;time, V,;time, V,;time, V,;time, V,;time, V,;time, V
;s, V,;s, V,;s, V,;s, V,;s, V,;s, V,;s, V,;s, V,;s, V,;s, V,;s, V,;s, V,;s, V,;s, V,;s, V
0,0,0,0,0,0,0,2.775557561562891e-17,0,0,0,2.775557561562891e-17,0,2.775557561562891e-17,0,0,0,-2.775557561562891e-17,0,-2.775557561562891e-17,0,2.775557561562891e-17,0,2.775557561562891e-17,0,-2.775557561562891e-17,0,0,0,0
1.5e-11,0,1.5e-11,0,1.5e-11,0,1.5e-11,2.775557561562891e-17,1.5e-11,0,1.5e-11,2.775557561562891e-17,1.5e-11,2.775557561562891e-17,1.5e-11,0,1.5e-11,-2.775557561562891e-17,1.5e-11,-2.775557561562891e-17,1.5e-11,2.775557561562891e-17,1.5e-11,2.775557561562891e-17,1.5e-11,-2.775557561562891e-17,1.5e-11,0,1.5e-11,0
3.484843248318499e-11,0,3.484843248318499e-11,0,3.484843248318499e-11,0,3.484843248318499e-11,2.775557561562891e-17,3.484843248318499e-11,0,3.484843248318499e-11,2.775557561562891e-17,3.484843248318499e-11,2.775557561562891e-17,3.484843248318499e-11,0,3.484843248318499e-11,-2.775557561562891e-17,3.484843248318499e-11,-2.775557561562891e-17,3.484843248318499e-11,0,3.484843248318499e-11,0,3.484843248318499e-11,0,3.484843248318499e-11,0,3.484843248318499e-11,0
5.937143154134639e-11,0,5.937143154134639e-11,0,5.937143154134639e-11,0,5.937143154134639e-11,5.551115123125783e-17,5.937143154134639e-11,0,5.937143154134639e-11,2.775557561562891e-17,5.937143154134639e-11,2.775557561562891e-17,5.937143154134639e-11,0,5.937143154134639e-11,-2.775557561562891e-17,5.937143154134639e-11,-2.775557561562891e-17,5.937143154134639e-11,0,5.937143154134639e-11,-2.775557561562891e-17,5.937143154134639e-11,-5.551115123125783e-17,5.937143154134639e-11,0,5.937143154134639e-11,0
9.754931134396375e-11,0,9.754931134396375e-11,0,9.754931134396375e-11,0,9.754931134396375e-11,5.551115123125783e-17,9.754931134396375e-11,0,9.754931134396375e-11,0,9.754931134396375e-11,2.775557561562891e-17,9.754931134396375e-11,0,9.754931134396375e-11,0,9.754931134396375e-11,-5.551115123125783e-17,9.754931134396375e-11,2.775557561562891e-17,9.754931134396375e-11,-5.551115123125783e-17,9.754931134396375e-11,2.775557561562891e-17,9.754931134396375e-11,0,9.754931134396375e-11,0
1.56435448696876e-10,0,1.56435448696876e-10,0,1.56435448696876e-10,0,1.56435448696876e-10,0,1.56435448696876e-10,0,1.56435448696876e-10,-2.775557561562891e-17,1.56435448696876e-10,2.775557561562891e-17,1.56435448696876e-10,0,1.56435448696876e-10,-2.775557561562891e-17,1.56435448696876e-10,-5.551115123125783e-17,1.56435448696876e-10,0,1.56435448696876e-10,-8.326672684688674e-17,1.56435448696876e-10,0,1.56435448696876e-10,0,1.56435448696876e-10,0
2.117872263545232e-10,0,2.117872263545232e-10,0,2.117872263545232e-10,0,2.117872263545232e-10,5.551115123125783e-17,2.117872263545232e-10,0,2.117872263545232e-10,2.775557561562891e-17,2.117872263545232e-10,5.551115123125783e-17,2.117872263545232e-10,0,2.117872263545232e-10,0,2.117872263545232e-10,-2.775557561562891e-17,2.117872263545232e-10,-2.775557561562891e-17,2.117872263545232e-10,-8.326672684688674e-17,2.117872263545232e-10,0,2.117872263545232e-10,0,2.117872263545232e-10,0
2.750945468089569e-10,0,2.750945468089569e-10,-2.775557561562891e-17,2.750945468089569e-10,0,2.750945468089569e-10,2.775557561562891e-17,2.750945468089569e-10,0,2.750945468089569e-10,2.775557561562891e-17,2.750945468089569e-10,8.326672684688674e-17,2.750945468089569e-10,0,2.750945468089569e-10,0,2.750945468089569e-10,-2.775557561562891e-17,2.750945468089569e-10,0,2.750945468089569e-10,-8.326672684688674e-17,2.750945468089569e-10,0,2.750945468089569e-10,0,2.750945468089569e-10,0
3.405061011785594e-10,0,3.405061011785594e-10,0,3.405061011785594e-10,0,3.405061011785594e-10,0,3.405061011785594e-10,0,3.405061011785594e-10,-2.775557561562891e-17,3.405061011785594e-10,5.551115123125783e-17,3.405061011785594e-10,0,3.405061011785594e-10,0,3.405061011785594e-10,-5.551115123125783e-17,3.405061011785594e-10,0,3.405061011785594e-10,-2.775557561562891e-17,3.405061011785594e-10,2.775557561562891e-17,3.405061011785594e-10,0,3.405061011785594e-10,0
4.090942264279859e-10,0,4.090942264279859e-10,0,4.090942264279859e-10,0,4.090942264279859e-10,5.551115123125783e-17,4.090942264279859e-10,0,4.090942264279859e-10,5.551115123125783e-17,4.090942264279859e-10,1.110223024625157e-16,4.090942264279859e-10,0,4.090942264279859e-10,0,4.090942264279859e-10,0,4.090942264279859e-10,2.775557561562891e-17,4.090942264279859e-10,-5.551115123125783e-17,4.090942264279859e-10,-5.551115123125783e-17,4.090942264279859e-10,0,4.090942264279859e-10,0
4.802775654939326e-10,2.775557561562891e-17,4.802775654939326e-10,0,4.802775654939326e-10,0,4.802775654939326e-10,0,4.802775654939326e-10,0,4.802775654939326e-10,-2.775557561562891e-17,4.802775654939326e-10,1.110223024625157e-16,4.802775654939326e-10,0,4.802775654939326e-10,-2.775557561562891e-17,4.802775654939326e-10,-5.551115123125783e-17,4.802775654939326e-10,-2.775557561562891e-17,4.802775654939326e-10,-1.110223024625157e-16,4.802775654939326e-10,5.551115123125783e-17,4.802775654939326e-10,0,4.802775654939326e-10,0
5.540992109816859e-10,-2.775557561562891e-17,5.540992109816859e-10,2.775557561562891e-17,5.540992109816859e-10,0,5.540992109816859e-10,0,5.540992109816859e-10,0,5.540992109816859e-10,5.551115123125783e-17,5.540992109816859e-10,8.326672684688674e-17,5.540992109816859e-10,0,5.540992109816859e-10,2.775557561562891e-17,5.540992109816859e-10,0,5.540992109816859e-10,2.775557561562891e-17,5.540992109816859e-10,-1.110223024625157e-16,5.540992109816859e-10,-2.775557561562891e-17,5.540992109816859e-10,0,5.540992109816859e-10,0
6.304447821954204e-10,2.775557561562891e-17,6.304447821954204e-10,2.775557561562891e-17,6.304447821954204e-10,0,6.304447821954204e-10,0,6.304447821954204e-10,0,6.304447821954204e-10,-2.775557561562891e-17,6.304447821954204e-10,8.326672684688674e-17,6.304447821954204e-10,0,6.304447821954204e-10,-2.775557561562891e-17,6.304447821954204e-10,-2.775557561562891e-17,6.304447821954204e-10,-2.775557561562891e-17,6.304447821954204e-10,-1.110223024625157e-16,6.304447821954204e-10,5.551115123125783e-17,6.304447821954204e-10,0,6.304447821954204e-10,0
7.093262844380227e-10,0,7.093262844380227e-10,8.326672684688674e-17,7.093262844380227e-10,0,7.093262844380227e-10,-2.775557561562891e-17,7.093262844380227e-10,0,7.093262844380227e-10,5.551115123125783e-17,7.093262844380227e-10,8.326672684688674e-17,7.093262844380227e-10,0,7.093262844380227e-10,2.775557561562891e-17,7.093262844380227e-10,-2.775557561562891e-17,7.093262844380227e-10,0,7.093262844380227e-10,-5.551115123125783e-17,7.093262844380227e-10,-5.551115123125783e-17,7.093262844380227e-10,0,7.093262844380227e-10,0
7.907212093813077e-10,0,7.907212093813077e-10,2.775557561562891e-17,7.907212093813077e-10,-2.775557561562891e-17,7.907212093813077e-10,0,7.907212093813077e-10,0,7.907212093813077e-10,-2.775557561562891e-17,7.907212093813077e-10,1.110223024625157e-16,7.907212093813077e-10,0,7.907212093813077e-10,-5.551115123125783e-17,7.907212093813077e-10,2.775557561562891e-17,7.907212093813077e-10,0,7.907212093813077e-10,-1.110223024625157e-16,7.907212093813077e-10,2.775557561562891e-17,7.907212093813077e-10,0,7.907212093813077e-10,0
8.740545427146411e-10,0,8.740545427146411e-10,0,8.740545427146411e-10,2.775557561562891e-17,8.740545427146411e-10,2.775557561562891e-17,8.740545427146411e-10,0,8.740545427146411e-10,2.775557561562891e-17,8.740545427146411e-10,5.551115123125783e-17,8.740545427146411e-10,2.775557561562891e-17,8.740545427146411e-10,5.551115123125783e-17,8.740545427146411e-10,-5.551115123125783e-17,8.740545427146411e-10,0,8.740545427146411e-10,-1.110223024625157e-16,8.740545427146411e-10,2.775557561562891e-17,8.740545427146411e-10,0,8.740545427146411e-10,0
9.573878760479744e-10,0,9.573878760479744e-10,5.551115123125783e-17,9.573878760479744e-10,0,9.573878760479744e-10,0,9.573878760479744e-10,0,9.573878760479744e-10,0,9.573878760479744e-10,1.110223024625157e-16,9.573878760479744e-10,-2.775557561562891e-17,9.573878760479744e-10,-2.775557561562891e-17,9.573878760479744e-10,2.775557561562891e-17,9.573878760479744e-10,2.775557561562891e-17,9.573878760479744e-10,-1.387778780781446e-16,9.573878760479744e-10,-5.551115123125783e-17,9.573878760479744e-10,0,9.573878760479744e-10,0
1.040721209381308e-09,0,1.040721209381308e-09,2.775557561562891e-17,1.040721209381308e-09,0,1.040721209381308e-09,0,1.040721209381308e-09,0,1.040721209381308e-09,0,1.040721209381308e-09,8.326672684688674e-17,1.040721209381308e-09,5.551115123125783e-17,1.040721209381308e-09,0,1.040721209381308e-09,-2.775557561562891e-17,1.040721209381308e-09,-2.775557561562891e-17,1.040721209381308e-09,-1.110223024625157e-16,1.040721209381308e-09,2.775557561562891e-17,1.040721209381308e-09,0,1.040721209381308e-09,0
1.124054542714641e-09,0,1.124054542714641e-09,2.775557561562891e-17,1.124054542714641e-09,0,1.124054542714641e-09,-2.775557561562891e-17,1.124054542714641e-09,0,1.124054542714641e-09,5.551115123125783e-17,1.124054542714641e-09,8.326672684688674e-17,1.124054542714641e-09,-5.551115123125783e-17,1.124054542714641e-09,-5.551115123125783e-17,1.124054542714641e-09,2.775557561562891e-17,1.124054542714641e-09,0,1.124054542714641e-09,-8.326672684688674e-17,1.124054542714641e-09,-5.551115123125783e-17,1.124054542714641e-09,-2.775557561562891e-17,1.124054542714641e-09,0
1.207387876047974e-09,0,1.207387876047974e-09,-5.551115123125783e-17,1.207387876047974e-09,5.551115123125783e-17,1.207387876047974e-09,5.551115123125783e-17,1.207387876047974e-09,2.775557561562891e-17,1.207387876047974e-09,0,1.207387876047974e-09,8.326672684688674e-17,1.207387876047974e-09,5.551115123125783e-17,1.207387876047974e-09,2.775557561562891e-17,1.207387876047974e-09,-2.775557561562891e-17,1.207387876047974e-09,0,1.207387876047974e-09,-5.551115123125783e-17,1.207387876047974e-09,2.775557561562891e-17,1.207387876047974e-09,0,1.207387876047974e-09,-2.775557561562891e-17
1.290721209381307e-09,-2.775557561562891e-17,1.290721209381307e-09,2.775557561562891e-17,1.290721209381307e-09,-2.775557561562891e-17,1.290721209381307e-09,0,1.290721209381307e-09,-2.775557561562891e-17,1.290721209381307e-09,0,1.290721209381307e-09,5.551115123125783e-17,1.290721209381307e-09,-2.775557561562891e-17,1.290721209381307e-09,-2.775557561562891e-17,1.290721209381307e-09,-5.551115123125783e-17,1.290721209381307e-09,-2.775557561562891e-17,1.290721209381307e-09,-8.326672684688674e-17,1.290721209381307e-09,-2.775557561562891e-17,1.290721209381307e-09,0,1.290721209381307e-09,0
1.374054542714641e-09,0,1.374054542714641e-09,0,1.374054542714641e-09,0,1.374054542714641e-09,0,1.374054542714641e-09,-2.775557561562891e-17,1.374054542714641e-09,0,1.374054542714641e-09,1.110223024625157e-16,1.374054542714641e-09,0,1.374054542714641e-09,0,1.374054542714641e-09,-5.551115123125783e-17,1.374054542714641e-09,-2.775557561562891e-17,1.374054542714641e-09,-5.551115123125783e-17,1.374054542714641e-09,0,1.374054542714641e-09,0,1.374054542714641e-09,-2.775557561562891e-17
1.457387876047974e-09,2.775557561562891e-17,1.457387876047974e-09,2.775557561562891e-17,1.457387876047974e-09,-5.551115123125783e-17,1.457387876047974e-09,2.775557561562891e-17,1.457387876047974e-09,0,1.457387876047974e-09,0,1.457387876047974e-09,2.775557561562891e-17,1.457387876047974e-09,-2.775557561562891e-17,1.457387876047974e-09,-2.775557561562891e-17,1.457387876047974e-09,-5.551115123125783e-17,1.457387876047974e-09,0,1.457387876047974e-09,-2.775557561562891e-17,1.457387876047974e-09,0,1.457387876047974e-09,0,1.457387876047974e-09,2.775557561562891e-17
1.540721209381307e-09,-2.775557561562891e-17,1.540721209381307e-09,-2.775557561562891e-17,1.540721209381307e-09,2.775557561562891e-17,1.540721209381307e-09,-2.775557561562891e-17,1.540721209381307e-09,0,1.540721209381307e-09,-2.775557561562891e-17,1.540721209381307e-09,5.551115123125783e-17,1.540721209381307e-09,2.775557561562891e-17,1.540721209381307e-09,-2.775557561562891e-17,1.540721209381307e-09,-5.551115123125783e-17,1.540721209381307e-09,-2.775557561562891e-17,1.540721209381307e-09,-5.551115123125783e-17,1.540721209381307e-09,-5.551115123125783e-17,1.540721209381307e-09,0,1.540721209381307e-09,-5.551115123125783e-17
1.62405454271464e-09,2.775557561562891e-17,1.62405454271464e-09,2.775557561562891e-17,1.62405454271464e-09,-2.775557561562891e-17,1.62405454271464e-09,0,1.62405454271464e-09,0,1.62405454271464e-09,2.775557561562891e-17,1.62405454271464e-09,2.775557561562891e-17,1.62405454271464e-09,0,1.62405454271464e-09,-2.775557561562891e-17,1.62405454271464e-09,-8.326672684688674e-17,1.62405454271464e-09,0,1.62405454271464e-09,-2.775557561562891e-17,1.62405454271464e-09,0,1.62405454271464e-09,0,1.62405454271464e-09,0
1.707387876047974e-09,-5.551115123125783e-17,1.707387876047974e-09,-2.775557561562891e-17,1.707387876047974e-09,5.551115123125783e-17,1.707387876047974e-09,5.551115123125783e-17,1.707387876047974e-09,2.775557561562891e-17,1.707387876047974e-09,2.775557561562891e-17,1.707387876047974e-09,2.775557561562891e-17,1.707387876047974e-09,5.551115123125783e-17,1.707387876047974e-09,0,1.707387876047974e-09,-5.551115123125783e-17,1.707387876047974e-09,2.775557561562891e-17,1.707387876047974e-09,0,1.707387876047974e-09,-5.551115123125783e-17,1.707387876047974e-09,0,1.707387876047974e-09,0
1.790721209381307e-09,2.775557561562891e-17,1.790721209381307e-09,5.551115123125783e-17,1.790721209381307e-09,-5.551115123125783e-17,1.790721209381307e-09,0,1.790721209381307e-09,-5.551115123125783e-17,1.790721209381307e-09,0,1.790721209381307e-09,5.551115123125783e-17,1.790721209381307e-09,-5.551115123125783e-17,1.790721209381307e-09,0,1.790721209381307e-09,-5.551115123125783e-17,1.790721209381307e-09,2.775557561562891e-17,1.790721209381307e-09,-2.775557561562891e-17,1.790721209381307e-09,5.551115123125783e-17,1.790721209381307e-09,-5.551115123125783e-17,1.790721209381307e-09,-2.775557561562891e-17
1.87405454271464e-09,-5.551115123125783e-17,1.87405454271464e-09,-2.775557561562891e-17,1.87405454271464e-09,5.551115123125783e-17,1.87405454271464e-09,8.326672684688674e-17,1.87405454271464e-09,5.551115123125783e-17,1.87405454271464e-09,5.551115123125783e-17,1.87405454271464e-09,0,1.87405454271464e-09,2.775557561562891e-17,1.87405454271464e-09,0,1.87405454271464e-09,-2.775557561562891e-17,1.87405454271464e-09,0,1.87405454271464e-09,2.775557561562891e-17,1.87405454271464e-09,-8.326672684688674e-17,1.87405454271464e-09,0,1.87405454271464e-09,2.775557561562891e-17
1.957387876047973e-09,5.551115123125783e-17,1.957387876047973e-09,-5.551115123125783e-17,1.957387876047973e-09,-5.551115123125783e-17,1.957387876047973e-09,0,1.957387876047973e-09,0,1.957387876047973e-09,-2.775557561562891e-17,1.957387876047973e-09,2.775557561562891e-17,1.957387876047973e-09,-2.775557561562891e-17,1.957387876047973e-09,-5.551115123125783e-17,1.957387876047973e-09,-5.551115123125783e-17,1.957387876047973e-09,0,1.957387876047973e-09,-2.775557561562891e-17,1.957387876047973e-09,2.775557561562891e-17,1.957387876047973e-09,-2.775557561562891e-17,1.957387876047973e-09,-5.551115123125783e-17
2.040721209381307e-09,-5.551115123125783e-17,2.040721209381307e-09,-2.775557561562891e-17,2.040721209381307e-09,2.775557561562891e-17,2.040721209381307e-09,2.775557561562891e-17,2.040721209381307e-09,0,2.040721209381307e-09,0,2.040721209381307e-09,8.326672684688674e-17,2.040721209381307e-09,2.775557561562891e-17,2.040721209381307e-09,0,2.040721209381307e-09,0,2.040721209381307e-09,2.775557561562891e-17,2.040721209381307e-09,5.551115123125783e-17,2.040721209381307e-09,-5.551115123125783e-17,2.040721209381307e-09,2.775557561562891e-17,2.040721209381307e-09,2.775557561562891e-17
2.12405454271464e-09,2.775557561562891e-17,2.12405454271464e-09,5.551115123125783e-17,2.12405454271464e-09,-2.775557561562891e-17,2.12405454271464e-09,-5.551115123125783e-17,2.12405454271464e-09,-2.775557561562891e-17,2.12405454271464e-09,0,2.12405454271464e-09,-2.775557561562891e-17,2.12405454271464e-09,-5.551115123125783e-17,2.12405454271464e-09,-2.775557561562891e-17,2.12405454271464e-09,-5.551115123125783e-17,2.12405454271464e-09,0,2.12405454271464e-09,0,2.12405454271464e-09,0,2.12405454271464e-09,-5.551115123125783e-17,2.12405454271464e-09,2.775557561562891e-17
2.207387876047973e-09,-2.775557561562891e-17,2.207387876047973e-09,5.551115123125783e-17,2.207387876047973e-09,5.551115123125783e-17,2.207387876047973e-09,5.551115123125783e-17,2.207387876047973e-09,2.775557561562891e-17,2.207387876047973e-09,2.775557561562891e-17,2.207387876047973e-09,0,2.207387876047973e-09,8.326672684688674e-17,2.207387876047973e-09,-5.551115123125783e-17,2.207387876047973e-09,0,2.207387876047973e-09,5.551115123125783e-17,2.207387876047973e-09,0,2.207387876047973e-09,0,2.207387876047973e-09,5.551115123125783e-17,2.207387876047973e-09,0
2.290721209381306e-09,-5.551115123125783e-17,2.290721209381306e-09,0,2.290721209381306e-09,-5.551115123125783e-17,2.290721209381306e-09,-5.551115123125783e-17,2.290721209381306e-09,0,2.290721209381306e-09,0,2.290721209381306e-09,-2.775557561562891e-17,2.290721209381306e-09,-2.775557561562891e-17,2.290721209381306e-09,-8.326672684688674e-17,2.290721209381306e-09,2.775557561562891e-17,2.290721209381306e-09,0,2.290721209381306e-09,2.775557561562891e-17,2.290721209381306e-09,0,2.290721209381306e-09,-2.775557561562891e-17,2.290721209381306e-09,5.551115123125783e-17
2.37405454271464e-09,2.775557561562891e-17,2.37405454271464e-09,1.110223024625157e-16,2.37405454271464e-09,1.110223024625157e-16,2.37405454271464e-09,1.942890293094024e-16,2.37405454271464e-09,2.775557561562891e-17,2.37405454271464e-09,1.665334536937735e-16,2.37405454271464e-09,8.326672684688674e-17,2.37405454271464e-09,2.220446049250313e-16,2.37405454271464e-09,1.665334536937735e-16,2.37405454271464e-09,8.326672684688674e-17,2.37405454271464e-09,1.387778780781446e-16,2.37405454271464e-09,1.387778780781446e-16,2.37405454271464e-09,5.551115123125783e-17,2.37405454271464e-09,1.665334536937735e-16,2.37405454271464e-09,1.387778780781446e-16
2.457387876047973e-09,5.551115123125783e-17,2.457387876047973e-09,1.665334536937735e-16,2.457387876047973e-09,3.885780586188048e-16,2.457387876047973e-09,4.718447854656915e-16,2.457387876047973e-09,6.38378239159465e-16,2.457387876047973e-09,6.661338147750939e-16,2.457387876047973e-09,6.661338147750939e-16,2.457387876047973e-09,6.938893903907228e-16,2.457387876047973e-09,6.38378239159465e-16,2.457387876047973e-09,6.938893903907228e-16,2.457387876047973e-09,7.216449660063518e-16,2.457387876047973e-09,7.771561172376096e-16,2.457387876047973e-09,7.216449660063518e-16,2.457387876047973e-09,7.216449660063518e-16,2.457387876047973e-09,6.938893903907228e-16
2.540721209381306e-09,9.159339953157541e-16,2.540721209381306e-09,1.859623566247137e-15,2.540721209381306e-09,2.720046410331634e-15,2.540721209381306e-09,3.358424649491099e-15,2.540721209381306e-09,3.802513859341161e-15,2.540721209381306e-09,4.135580766728708e-15,2.540721209381306e-09,4.246603069191224e-15,2.540721209381306e-09,4.413136522884997e-15,2.540721209381306e-09,4.496403249731884e-15,2.540721209381306e-09,4.468647674116255e-15,2.540721209381306e-09,4.357625371653739e-15,2.540721209381306e-09,4.524158825347513e-15,2.540721209381306e-09,4.440892098500626e-15,2.540721209381306e-09,4.524158825347513e-15,2.540721209381306e-09,4.413136522884997e-15
