;Version, 1, 0
;dc_out (VCTRL=0.02),;dc_out (VCTRL=0.04),;dc_out (VCTRL=0.06),;dc_out (VCTRL=0.08),;dc_out (VCTRL=0.1),;dc_out (VCTRL=0.12),;dc_out (VCTRL=0.14),;dc_out (VCTRL=0.16),;dc_out (VCTRL=0.18),;dc_out (VCTRL=0.2),;dc_out (VCTRL=0.22),;dc_out (VCTRL=0.24),;dc_out (VCTRL=0.26),;dc_out (VCTRL=0.28),;dc_out (VCTRL=0.3)
;X, Y,;X, Y,;X, Y,;X, Y,;X, Y,;X, Y,;X, Y,;X, Y,;X, Y,;X, Y,;X, Y,;X, Y,;X, Y,;X, Y,;X, Y
;Re, Re,;Re, Re,;Re, Re,;Re, Re,;Re, Re,;Re, Re,;Re, Re,;Re, Re,;Re, Re,;Re, Re,;Re, Re,;Re, Re,;Re, Re,;Re, Re,;Re, Re
;vin, V,;vin, V,;vin, V,;vin, V,;vin, V,;vin, V,;vin, V,;vin, V,;vin, V,;vin, V,;vin, V,;vin, V,;vin, V,;vin, V,;vin, V
;xunit, V,;xunit, V,;xunit, V,;xunit, V,;xunit, V,;xunit, V,;xunit, V,;xunit, V,;xunit, V,;xunit, V,;xunit, V,;xunit, V,;xunit, V,;xunit, V,;xunit, V
-0.4,-0.07628247815098219,-0.4,-0.1492425794199718,-0.4,-0.2151007104690364,-0.4,-0.270276139727734,-0.4,-0.3123895379526005,-0.4,-0.3411886489590495,-0.4,-0.3589688032076452,-0.4,-0.3691597437092926,-0.4,-0.3747270509166624,-0.4,-0.3776570877889715,-0.4,-0.3792017179340599,-0.4,-0.3800268154163519,-0.4,-0.380474083389763,-0.4,-0.3807236724724725,-0.4,-0.380868943335203
-0.399,-0.0762620200324429,-0.399,-0.1492060337368871,-0.399,-0.215054723227465,-0.399,-0.2702357461338977,-0.399,-0.3123351631512314,-0.399,-0.3411406299382234,-0.399,-0.358928847073933,-0.399,-0.3691244530170565,-0.399,-0.3746922596938462,-0.399,-0.3776205292275729,-0.399,-0.3791619299388927,-0.399,-0.3799845593564972,-0.399,-0.3804304338185022,-0.399,-0.3806793479480368,-0.399,-0.3808243610857575
-0.398,-0.07624126390234431,-0.398,-0.1491690435121836,-0.398,-0.2150063303197466,-0.398,-0.2701806945211145,-0.398,-0.3122799348864538,-0.398,-0.3410916154296058,-0.398,-0.3588876818267894,-0.398,-0.3690879071146195,-0.398,-0.3746562072852689,-0.398,-0.3775828341591113,-0.398,-0.3791210970112974,-0.398,-0.3799413461334415,-0.398,-0.3803858468755595,-0.398,-0.3806341140582435,-0.398,-0.3807788883029666
-0.397,-0.07622033045586843,-0.397,-0.149131748601359,-0.397,-0.2149575513366195,-0.397,-0.2701251756655752,-0.397,-0.3122241253176221,-0.397,-0.3410418833039869,-0.397,-0.3588457002377028,-0.397,-0.3690505110419544,-0.397,-0.3746192999654349,-0.397,-0.3775443682108322,-0.397,-0.3790795522959672,-0.397,-0.3798974641861819,-0.397,-0.3803406203308182,-0.397,-0.3805882581627725,-0.397,-0.3807328028866376
-0.396,-0.07619921624258577,-0.396,-0.1490941442258355,-0.396,-0.2149083804330377,-0.396,-0.2700691833156596,-0.396,-0.3121677285610739,-0.396,-0.3409914280015682,-0.396,-0.3588028966779369,-0.396,-0.3690122587759656,-0.396,-0.3745815304367532,-0.396,-0.3775051240122591,-0.396,-0.3790372881626268,-0.396,-0.3798529055918614,-0.396,-0.3802947459592875,-0.396,-0.3805417718061749,-0.396,-0.3806860962044247
-0.395,-0.07617791819682981,-0.395,-0.1490562250633446,-0.395,-0.214858811175324,-0.395,-0.2700127107673897,-0.395,-0.3121107381484683,-0.395,-0.3409402434724511,-0.395,-0.358759264972154,-0.395,-0.368973143636909,-0.395,-0.3745428905969566,-0.395,-0.3774650933702601,-0.395,-0.37899429612407,-0.395,-0.3798076615286439,-0.395,-0.3802482146294365,-0.395,-0.3804946456058884,-0.395,-0.3806387586806632
-0.394,-0.0761564331739889,-0.394,-0.1490179856619688,-0.394,-0.2148088369587043,-0.394,-0.2699557511193339,-0.394,-0.3120531473969539,-0.394,-0.3408883234533993,-0.394,-0.3587147987422812,-0.394,-0.3689331587489392,-0.394,-0.3745033721431504,-0.394,-0.3774242678896654,-0.394,-0.3789505674872127,-0.394,-0.3797617229667463,-0.394,-0.3802010170010224,-0.394,-0.3804468699706796,-0.394,-0.3805907805309087
-0.393,-0.07613475795913691,-0.393,-0.1489794204389365,-0.393,-0.2147584510050657,-0.393,-0.2698982972695714,-0.393,-0.3119949494053507,-0.393,-0.3408356614631989,-0.393,-0.3586694914021443,-0.393,-0.3688922970344199,-0.393,-0.3744629665660438,-0.393,-0.3773826389684964,-0.393,-0.378906093348903,-0.393,-0.3797150806645014,-0.393,-0.3801531435216773,-0.393,-0.3803984350974344,-0.393,-0.3805421517588949
-0.392,-0.07611288926555038,-0.392,-0.1489405236779638,-0.392,-0.2147076463592315,-0.392,-0.2698403419111423,-0.392,-0.3119361370487471,-0.392,-0.340782250796665,-0.392,-0.3586233361510305,-0.392,-0.3688505512074593,-0.392,-0.3744216651434108,-0.392,-0.3773401977920486,-0.392,-0.3788608645903481,-0.392,-0.3796677251630177,-0.392,-0.3801045844217262,-0.392,-0.380349330966072,-0.392,-0.380492862151504
-0.391,-0.07609082373332501,-0.391,-0.1489012895265674,-0.391,-0.2146564158851954,-0.391,-0.2697818775274422,-0.391,-0.3118767029730279,-0.391,-0.3407280845185633,-0.391,-0.3585763259671428,-0.391,-0.368807913767317,-0.391,-0.3743794589333949,-0.391,-0.3772969353268419,-0.391,-0.3788148718714179,-0.391,-0.3796196467807164,-0.391,-0.3800553297088887,-0.391,-0.380299547334348,-0.391,-0.3804429012736317
-0.39,-0.07606855792798262,-0.39,-0.1488617119933503,-0.39,-0.2146047522623137,-0.39,-0.2697228963875736,-0.39,-0.3118166395893375,-0.39,-0.3406731554574575,-0.39,-0.3585284536009521,-0.39,-0.3687643769916918,-0.39,-0.3743363387676624,-0.39,-0.377252842267673,-0.39,-0.3787681056248294,-0.39,-0.3795708356077566,-0.39,-0.3800053691628765,-0.39,-0.3802490737325507,-0.39,-0.3803922584629444
-0.389,-0.07604608833905452,-0.389,-0.1488217849452574,-0.389,-0.2145526479814632,-0.389,-0.2696633905416506,-0.389,-0.3117559390684815,-0.389,-0.3406174561994797,-0.389,-0.3584797115684492,-0.389,-0.368719932929889,-0.389,-0.3742922952444022,-0.389,-0.3772079091959371,-0.389,-0.3787205560502124,-0.389,-0.379521281500343,-0.389,-0.3799546923298787,-0.389,-0.3801978994580889,-0.389,-0.3803409228245295
-0.388,-0.07602341137865717,-0.388,-0.1487815021048088,-0.388,-0.2145000953411628,-0.388,-0.2696033518160614,-0.388,-0.3116945933352708,-0.388,-0.3405609790820301,-0.388,-0.3584300921442983,-0.388,-0.3686745733958686,-0.388,-0.3742473187211752,-0.388,-0.3771621263607214,-0.388,-0.3786722131080549,-0.388,-0.3794709740749127,-0.388,-0.3799032885169373,-0.388,-0.3801460135699725,-0.388,-0.3802888832254384
-0.387,-0.07600052338004826,-0.387,-0.1487408570472992,-0.387,-0.2144470864436555,-0.387,-0.2695427718086866,-0.387,-0.3116325940628007,-0.387,-0.3405037161874032,-0.387,-0.3583795873548958,-0.387,-0.3686282899611789,-0.387,-0.3742013993076087,-0.387,-0.3771154837902571,-0.387,-0.378623066513528,-0.387,-0.3794199027021976,-0.387,-0.3798511467862105,-0.387,-0.3800934048831797,-0.387,-0.3802361282891172
-0.386,-0.07597742059616638,-0.386,-0.148699843197972,-0.386,-0.2143936131909568,-0.386,-0.2694816418840777,-0.386,-0.3115699326666743,-0.386,-0.3404456593363461,-0.386,-0.3583281889713318,-0.386,-0.3685810739477711,-0.386,-0.3741545268579402,-0.386,-0.3770679712618092,-0.386,-0.378573105730187,-0.386,-0.3793680565011536,-0.386,-0.379798255949121,-0.386,-0.3800400619629121,-0.386,-0.380182646389725
-0.385,-0.07595409919815813,-0.385,-0.1486584538291664,-0.385,-0.2143396672808639,-0.385,-0.2694199531685902,-0.385,-0.3115066002991669,-0.385,-0.340386800081549,-0.385,-0.3582758885022589,-0.385,-0.3685329164207014,-0.385,-0.374106690963407,-0.385,-0.377019578294801,-0.385,-0.37852231996355,-0.385,-0.3793154243327404,-0.385,-0.3797446045603904,-0.385,-0.3799859731187356,-0.385,-0.380128425646338
-0.384,-0.07593055527388165,-0.384,-0.1486166820574309,-0.384,-0.2142852402029283,-0.384,-0.2693576965454766,-0.384,-0.3114425878433316,-0.384,-0.3403271297010653,-0.384,-0.3582226771866702,-0.384,-0.3684838081807191,-0.384,-0.3740578809444829,-0.384,-0.3769702941438361,-0.384,-0.378470698154552,-0.384,-0.3792619947935292,-0.384,-0.3796901809119533,-0.384,-0.3799311263986026,-0.384,-0.3800734539170353
-0.383,-0.07590678482639998,-0.383,-0.1485745208406087,-0.383,-0.2142303232343888,-0.383,-0.2692948626499362,-0.383,-0.3113778859070459,-0.383,-0.3402666391916693,-0.383,-0.3581685459865849,-0.383,-0.3684337397567405,-0.383,-0.3740080858429204,-0.383,-0.376920107791586,-0.383,-0.3784182289728721,-0.383,-0.3792077562090806,-0.383,-0.3796349730267539,-0.383,-0.3798755095827561,-0.383,-0.3800177187928662
-0.382,-0.07588278377244864,-0.382,-0.1485319629748902,-0.382,-0.2141749074360664,-0.382,-0.2692314418641221,-0.382,-0.3113124848170006,-0.382,-0.3402053192621455,-0.382,-0.3581134855796452,-0.382,-0.3683827013982129,-0.382,-0.3739582965438418,-0.382,-0.3768690079415414,-0.382,-0.3783649008101342,-0.382,-0.3791526966269771,-0.382,-0.3795789686524186,-0.382,-0.3798191101775104,-0.382,-0.3799612075916932
-0.381,-0.0758585479408905,-0.381,-0.1484890010918336,-0.381,-0.2141189836482156,-0.381,-0.2691674243121007,-0.381,-0.3112463746126257,-0.381,-0.3401431603265138,-0.381,-0.3580574863516244,-0.381,-0.3683306830673677,-0.381,-0.3739072691071898,-0.381,-0.3768169830106253,-0.381,-0.3783107017729768,-0.381,-0.3790968038092148,-0.381,-0.3795221552548063,-0.381,-0.3797619154089081,-0.381,-0.3799039073519109
-0.38,-0.0758340730711432,-0.38,-0.1484456276553467,-0.38,-0.214062542486334,-0.38,-0.2691027998547694,-0.38,-0.3111795450399583,-0.38,-0.3400801524971876,-0.38,-0.3580005383888455,-0.38,-0.3682776744313619,-0.38,-0.3738552562437445,-0.38,-0.3767640211216691,-0.38,-0.3782556196759936,-0.38,-0.379040065223146,-0.38,-0.3794645200114278,-0.38,-0.3797039122162501,-0.38,-0.3798458048260355
-0.379,-0.07580935481158996,-0.379,-0.1484018349586383,-0.379,-0.2140055743369248,-0.379,-0.2690375580847197,-0.379,-0.3111119855454423,-0.379,-0.3400162855780661,-0.379,-0.357942631470513,-0.379,-0.3682236648543104,-0.379,-0.3738022473206078,-0.379,-0.3767101100957475,-0.379,-0.378199642034539,-0.379,-0.3789824680282939,-0.379,-0.3794060498047391,-0.379,-0.3796450872454912,-0.379,-0.3797868864741633
-0.378,-0.07578438871796442,-0.378,-0.1483576151211212,-0.378,-0.2139480693532119,-0.378,-0.2689716883210532,-0.378,-0.3110436852696644,-0.378,-0.3399515490575602,-0.378,-0.3578837550609559,-0.378,-0.3681686433892075,-0.378,-0.3737482308482695,-0.378,-0.3766552374443727,-0.378,-0.3781427560573994,-0.378,-0.3789239990479229,-0.378,-0.3793467312152977,-0.378,-0.3795854268425056,-0.378,-0.3797271384572916
-0.377,-0.0757591702517128,-0.377,-0.1483129600852811,-0.377,-0.2138900174508029,-0.377,-0.2689051796041421,-0.377,-0.3109746330410202,-0.377,-0.3398859321015469,-0.377,-0.3578238983017812,-0.377,-0.3681125987697403,-0.377,-0.3736931950211006,-0.377,-0.3765993903615449,-0.377,-0.3780849486393254,-0.377,-0.3788646446582044,-0.377,-0.3792865505147836,-0.377,-0.3795249170462122,-0.377,-0.3796665466305025
-0.376,-0.07573369477832834,-0.376,-0.1482678616134978,-0.376,-0.2138314083032969,-0.376,-0.2688380206903286,-0.376,-0.3109048173693048,-0.376,-0.3398194235462547,-0.376,-0.357763050003938,-0.376,-0.368055519401989,-0.376,-0.3736371277073643,-0.376,-0.376542555715657,-0.376,-0.3780262063534237,-0.376,-0.3788043897265036,-0.376,-0.3792254936588804,-0.376,-0.3794635435815571,-0.376,-0.379605096536002
-0.375,-0.07570795756565785,-0.375,-0.1482223112848174,-0.375,-0.2137722313378325,-0.375,-0.2687702000465658,-0.375,-0.3108342264392275,-0.375,-0.3397520118910744,-0.375,-0.3577011986396912,-0.375,-0.3679973933560158,-0.375,-0.3735800164408119,-0.375,-0.3764847200412527,-0.375,-0.377966515443405,-0.375,-0.3787432213263033,-0.375,-0.3791635462800099,-0.375,-0.3794012918523528,-0.375,-0.3795427733960111
-0.374,-0.07568195378218254,-0.374,-0.1481763004916766,-0.374,-0.2137124757305733,-0.374,-0.2687017058449868,-0.374,-0.3107628481038425,-0.374,-0.3396836852912916,-0.374,-0.3576383323344995,-0.374,-0.367938208357342,-0.374,-0.3735218484121522,-0.374,-0.3764258695306325,-0.374,-0.3779058618156839,-0.374,-0.378681126147361,-0.374,-0.3791006936799197,-0.374,-0.3793381469339647,-0.374,-0.3794795621055047
-0.373,-0.07565567849526023,-0.373,-0.1481298204365702,-0.373,-0.2136521304021246,-0.373,-0.2686325259574054,-0.373,-0.3106906698778914,-0.373,-0.3396144315507383,-0.373,-0.3575744388588002,-0.373,-0.3678779517783088,-0.373,-0.3734626104603929,-0.373,-0.3763659900253072,-0.373,-0.3778442310313279,-0.373,-0.3786180889152841,-0.373,-0.3790369208221167,-0.373,-0.3792740935658428,-0.373,-0.3794154472247953
-0.372,-0.07562912666934116,-0.372,-0.1480828621286608,-0.372,-0.2135911840128779,-0.372,-0.2685626479497333,-0.372,-0.3106176789310502,-0.372,-0.3395442381143652,-0.372,-0.3575095056196927,-0.372,-0.3678166106293209,-0.372,-0.3734022890640483,-0.372,-0.376305067007295,-0.372,-0.3777816082978523,-0.372,-0.378554094521231,-0.372,-0.3789722123241426,-0.372,-0.3792091161438944,-0.372,-0.3793504129719515
-0.371,-0.07560229316414693,-0.371,-0.1480354163803293,-0.371,-0.2135296249582739,-0.371,-0.268492059076317,-0.371,-0.3105438620810741,-0.371,-0.3394730920607112,-0.371,-0.3574435196525219,-0.371,-0.3677541715499705,-0.371,-0.3733408703322141,-0.371,-0.3762430855902563,-0.371,-0.3777179784608543,-0.371,-0.3784891274994191,-0.371,-0.3789065524496871,-0.371,-0.3791431987126911,-0.371,-0.3792844432150524
-0.37,-0.07557517273280687,-0.37,-0.1479874738036542,-0.37,-0.2134674413639841,-0.37,-0.2684207462741804,-0.37,-0.3104692057868356,-0.37,-0.3394009800942887,-0.37,-0.3573764676123533,-0.37,-0.3676906208000376,-0.37,-0.3732783399955025,-0.37,-0.3761800305104659,-0.37,-0.3776533259954832,-0.37,-0.3784231720184277,-0.37,-0.3788399251005309,-0.37,-0.3790763249575056,-0.37,-0.3792175214642674
-0.369,-0.0755477600199625,-0.369,-0.1479390248068262,-0.369,-0.2134046210810003,-0.369,-0.2683486961571693,-0.369,-0.3103936961412415,-0.369,-0.3393278885378598,-0.369,-0.3573083357653369,-0.369,-0.3676259442503634,-0.369,-0.3732146833968363,-0.369,-0.3761158861176145,-0.369,-0.3775876349977436,-0.369,-0.378356211872799,-0.369,-0.3787723138083172,-0.369,-0.3790084781961724,-0.369,-0.3791496308637598
-0.368,-0.07552004955982566,-0.368,-0.147890059590484,-0.368,-0.2133411516806274,-0.368,-0.2682758950099882,-0.368,-0.3103173188640262,-0.368,-0.3392538033912058,-0.368,-0.3572391099799556,-0.368,-0.3675601273735917,-0.368,-0.3731498854820968,-0.368,-0.3760506363654375,-0.368,-0.3775208891756214,-0.368,-0.378288230474462,-0.368,-0.3787037017261409,-0.368,-0.3789396413707666,-0.368,-0.3790807541834044
-0.367,-0.07549203577419175,-0.367,-0.1478405681439738,-0.367,-0.2132770204493721,-0.367,-0.2682023287821272,-0.367,-0.3102400592944106,-0.367,-0.3391787165152237,-0.367,-0.3571687757181499,-0.367,-0.3674931552347743,-0.367,-0.3730839307906217,-0.367,-0.3759842648021638,-0.367,-0.3774530718400325,-0.367,-0.3782192108439753,-0.367,-0.3786340716199533,-0.367,-0.3788697970390968,-0.367,-0.3790108738103181
-0.366,-0.07546371297041093,-0.366,-0.1477905402415235,-0.366,-0.2132122143837243,-0.366,-0.2681279830816595,-0.366,-0.3101619023836131,-0.366,-0.3391026102381207,-0.366,-0.3570973180263152,-0.366,-0.3674250124818351,-0.366,-0.3730168034455459,-0.366,-0.3759167545607812,-0.366,-0.3773841658955842,-0.366,-0.3781491356015803,-0.366,-0.3785634058597723,-0.366,-0.3787989273660016,-0.366,-0.378939971740193
-0.365,-0.07543507533930721,-0.365,-0.1477399654383289,-0.365,-0.2131467201848179,-0.365,-0.2680528431689155,-0.365,-0.3100828326872104,-0.365,-0.3390254691015995,-0.365,-0.3570247215261619,-0.365,-0.3673556833358856,-0.365,-0.3729484871439833,-0.365,-0.3758480883491089,-0.365,-0.3773141538311461,-0.365,-0.3780779869580601,-0.365,-0.3784916864106944,-0.365,-0.3787270141144489,-0.365,-0.3788680295684284
-0.364,-0.07540611695304789,-0.364,-0.1476888330665495,-0.364,-0.2130805242529717,-0.364,-0.2679768939500105,-0.364,-0.3100028343573292,-0.364,-0.3389472772333825,-0.364,-0.3569509704054332,-0.364,-0.3672851515813886,-0.364,-0.3728789651470389,-0.364,-0.3757782484396762,-0.364,-0.3772430177102215,-0.364,-0.3780057467053978,-0.364,-0.3784188948236965,-0.364,-0.3786540386364275,-0.364,-0.3787950284810552
-0.363,-0.07537683176296123,-0.363,-0.147637132231203,-0.363,-0.2130136126820957,-0.363,-0.2679001199702299,-0.363,-0.3099218911346658,-0.363,-0.3388680183356564,-0.363,-0.3568760484084725,-0.363,-0.3672134005561583,-0.363,-0.3728082202696503,-0.363,-0.375707216659394,-0.363,-0.3771707391262465,-0.363,-0.3779323962072262,-0.363,-0.3783450122262207,-0.363,-0.3785799818636268,-0.363,-0.3787209492454461
-0.362,-0.07534721359729984,-0.362,-0.1475848518059637,-0.362,-0.2129459712539632,-0.362,-0.2678225054072532,-0.362,-0.3098399863403158,-0.362,-0.3387876756762538,-0.362,-0.3567999388266325,-0.362,-0.3671404131411961,-0.362,-0.3727362348702468,-0.362,-0.375634974379019,-0.362,-0.3770972993066715,-0.362,-0.377857916389063,-0.362,-0.3782700193125308,-0.362,-0.378504824297898,-0.362,-0.378645772200805
-0.361,-0.07531725615894239,-0.361,-0.1475319804288489,-0.361,-0.2128775854323379,-0.361,-0.2677440340642131,-0.361,-0.3097571078217057,-0.361,-0.3387062320796698,-0.361,-0.3567226244885129,-0.361,-0.3670661717503479,-0.361,-0.3726629908402208,-0.361,-0.3755615025023971,-0.361,-0.3770226789705409,-0.361,-0.3777822877283244,-0.361,-0.378193896333818,-0.361,-0.3784285460014877,-0.361,-0.3785694772484294
-0.36,-0.07528695302304272,-0.36,-0.1474785064978008,-0.36,-0.2128084403569476,-0.36,-0.2676646893625821,-0.36,-0.3096732373308966,-0.36,-0.3386236699179045,-0.36,-0.3566440877500275,-0.36,-0.3669906583197804,-0.36,-0.3725884695932076,-0.36,-0.3754867814554834,-0.36,-0.3769468583793691,-0.36,-0.377705490244111,-0.36,-0.3781166230880341,-0.36,-0.3783511265870413,-0.36,-0.3784920438417417
-0.359,-0.07525629763461492,-0.359,-0.1474244181661491,-0.359,-0.2127385208373024,-0.359,-0.2675844543348708,-0.359,-0.3095883567082937,-0.359,-0.3385399711011185,-0.359,-0.3565643104842803,-0.359,-0.3669138542972643,-0.359,-0.3725126520541585,-0.359,-0.3754107911751283,-0.359,-0.3768698173179604,-0.359,-0.3776275034867561,-0.359,-0.3780381789093878,-0.359,-0.3782725452073679,-0.359,-0.378413450976078
-0.358,-0.07522528330605538,-0.358,-0.1473697033379576,-0.358,-0.212667811346349,-0.358,-0.2675033116171389,-0.358,-0.3095024477679781,-0.358,-0.3384551170680972,-0.358,-0.3564832740712504,-0.358,-0.3668357406312573,-0.358,-0.372435518648206,-0.358,-0.3753335110976203,-0.358,-0.376791535083435,-0.358,-0.3775483065271323,-0.358,-0.3779585426573782,-0.358,-0.3781927805449579,-0.358,-0.3783336771782339
-0.357,-0.07519390321460256,-0.357,-0.1473143496632516,-0.357,-0.2125962960139526,-0.357,-0.2674212434413025,-0.357,-0.3094154918740915,-0.357,-0.3383690887765073,-0.357,-0.3564009593872699,-0.357,-0.3667562977597798,-0.357,-0.3723570492893084,-0.357,-0.3752549201469813,-0.357,-0.3767119904740154,-0.357,-0.3774678779457077,-0.357,-0.3778776927050054,-0.357,-0.3781118108012514,-0.357,-0.3782527004957575
-0.356,-0.07516215039972976,-0.356,-0.1472583445331133,-0.356,-0.212523958620205,-0.356,-0.267338231627234,-0.356,-0.3093274699317066,-0.356,-0.3382818666929385,-0.356,-0.356317346794289,-0.356,-0.3666755055990704,-0.356,-0.3722772233686691,-0.356,-0.3751749967230026,-0.356,-0.3766311617775563,-0.356,-0.3773861958213441,-0.356,-0.3777956069249971,-0.356,-0.378029613685647,-0.356,-0.3781704984859847
-0.355,-0.07513001776047132,-0.355,-0.1472016750746551,-0.355,-0.2124507825885485,-0.355,-0.2672542575746464,-0.355,-0.309238362377756,-0.355,-0.3381934307827217,-0.355,-0.3562324161289165,-0.355,-0.3665933435320156,-0.355,-0.372196019742918,-0.355,-0.3750937186890141,-0.355,-0.3765490267598095,-0.355,-0.377303237719831,-0.355,-0.3777122626692228,-0.355,-0.3779461664042459,-0.355,-0.3780870482048109
-0.354,-0.07509749805268118,-0.354,-0.1471443281458571,-0.354,-0.2123767509787153,-0.354,-0.2671693022547512,-0.354,-0.3091481491717233,-0.354,-0.3381037604995111,-0.354,-0.3561461466912283,-0.354,-0.3665097903963433,-0.354,-0.3721134167220493,-0.354,-0.375011063359377,-0.354,-0.3764655626524184,-0.354,-0.3772189806821478,-0.354,-0.3776276367119569,-0.354,-0.3778614456483277,-0.354,-0.3780023261951929
