;Version, 1, 0
;(VS("/out+") - VS("/out-")) (VCTRL=0.02),;(VS("/out+") - VS("/out-")) (VCTRL=0.04),;(VS("/out+") - VS("/out-")) (VCTRL=0.06),;(VS("/out+") - VS("/out-")) (VCTRL=0.08),;(VS("/out+") - VS("/out-")) (VCTRL=0.1),;(VS("/out+") - VS("/out-")) (VCTRL=0.12),;(VS("/out+") - VS("/out-")) (VCTRL=0.14),;(VS("/out+") - VS("/out-")) (VCTRL=0.16),;(VS("/out+") - VS("/out-")) (VCTRL=0.18),;(VS("/out+") - VS("/out-")) (VCTRL=0.2),;(VS("/out+") - VS("/out-")) (VCTRL=0.22),;(VS("/out+") - VS("/out-")) (VCTRL=0.24),;(VS("/out+") - VS("/out-")) (VCTRL=0.26),;(VS("/out+") - VS("/out-")) (VCTRL=0.28),;(VS("/out+") - VS("/out-")) (VCTRL=0.3)
;X, Y,;X, Y,;X, Y,;X, Y,;X, Y,;X, Y,;X, Y,;X, Y,;X, Y,;X, Y,;X, Y,;X, Y,;X, Y,;X, Y,;X, Y
;Re, Re,;Re, Re,;Re, Re,;Re, Re,;Re, Re,;Re, Re,;Re, Re,;Re, Re,;Re, Re,;Re, Re,;Re, Re,;Re, Re,;Re, Re,;Re, Re,;Re, Re
;vin, V,;vin, V,;vin, V,;vin, V,;vin, V,;vin, V,;vin, V,;vin, V,;vin, V,;vin, V,;vin, V,;vin, V,;vin, V,;vin, V,;vin, V
;xunit, V,;xunit, V,;xunit, V,;xunit, V,;xunit, V,;xunit, V,;xunit, V,;xunit, V,;xunit, V,;xunit, V,;xunit, V,;xunit, V,;xunit, V,;xunit, V,;xunit, V
-0.4,-0.02280268727954682,-0.4,-0.04586402995309002,-0.4,-0.06919050025071355,-0.4,-0.0925911460549218,-0.4,-0.1158510300509943,-0.4,-0.1387965947658436,-0.4,-0.1612966401275644,-0.4,-0.1832115719430679,-0.4,-0.2043944892475393,-0.4,-0.2246777835535705,-0.4,-0.2438705043240902,-0.4,-0.2617588002760063,-0.4,-0.2781224780381238,-0.4,-0.2927468127052197,-0.4,-0.3054663670346749
-0.399,-0.02278979658826277,-0.399,-0.04584099604802422,-0.399,-0.06916085256374294,-0.399,-0.09255805180802426,-0.399,-0.1158161705016016,-0.399,-0.1387641950807425,-0.399,-0.1612627853495731,-0.399,-0.1831771352461631,-0.399,-0.2043599499085776,-0.399,-0.2246432916925985,-0.399,-0.2438359923787011,-0.399,-0.2617261502033524,-0.399,-0.2780903961293269,-0.399,-0.2927125127159854,-0.399,-0.3054134069687343
-0.398,-0.02277659582218031,-0.398,-0.0458173284031097,-0.398,-0.06913054470885791,-0.398,-0.09252420047171503,-0.398,-0.1157804996794889,-0.398,-0.1387273767013401,-0.398,-0.1612249279359214,-0.398,-0.1831380754640614,-0.398,-0.204319370329347,-0.398,-0.2246007532131841,-0.398,-0.243790936364477,-0.398,-0.2616778955652039,-0.398,-0.2780381540622838,-0.398,-0.2926554338502918,-0.398,-0.305350686019371
-0.397,-0.02276321056742731,-0.397,-0.04579332133594061,-0.397,-0.06909978462598584,-0.397,-0.09248982999953334,-0.397,-0.1157442723765539,-0.397,-0.1386899795347435,-0.397,-0.1611864753974909,-0.397,-0.183098406221215,-0.397,-0.2042781672880351,-0.397,-0.2245575769820741,-0.397,-0.2437452277228405,-0.397,-0.2616289726166974,-0.397,-0.2779852271632369,-0.397,-0.2925976530950982,-0.397,-0.3052872461083146
-0.396,-0.02274963777646358,-0.396,-0.04576896803618485,-0.396,-0.06906856582689905,-0.396,-0.09245493277637021,-0.396,-0.1157074803317058,-0.396,-0.1386519948675341,-0.396,-0.1611474187715598,-0.396,-0.183058118325596,-0.396,-0.2042363313872491,-0.396,-0.2245137533510529,-0.396,-0.2436988564397783,-0.396,-0.2615793708441014,-0.396,-0.2779316041320345,-0.396,-0.2925391578678823,-0.396,-0.3052230727776227
-0.395,-0.02273587459606796,-0.395,-0.04574426310774019,-0.395,-0.06903688093113591,-0.395,-0.09241950014661052,-0.395,-0.1156701141637693,-0.395,-0.1386134129152417,-0.395,-0.1611077480177021,-0.395,-0.183017201537628,-0.395,-0.2041938522072493,-0.395,-0.2244692717256734,-0.395,-0.243651811745958,-0.395,-0.2615290793019266,-0.395,-0.2778772738450227,-0.395,-0.2924799368653443,-0.395,-0.3051581545465202
-0.394,-0.02272191812179455,-0.394,-0.04571920104295335,-0.394,-0.06900472243032735,-0.394,-0.09238352329969407,-0.394,-0.1156321643200942,-0.394,-0.138574223712588,-0.394,-0.1610674529088553,-0.394,-0.1829756454263624,-0.394,-0.2041507191325543,-0.394,-0.2244241213108544,-0.394,-0.2436040826657725,-0.394,-0.2614780868320494,-0.394,-0.2778222249586643,-0.394,-0.2924199785564414,-0.394,-0.3050924796980705
-0.393,-0.02270776540412153,-0.393,-0.04569377624474144,-0.393,-0.06897208268823438,-0.393,-0.09234699326977336,-0.393,-0.1155936210759521,-0.393,-0.1385344171127126,-0.393,-0.1610265230304483,-0.393,-0.1829334393686354,-0.393,-0.2041069213508224,-0.393,-0.2243782911095404,-0.393,-0.2435556580157157,-0.393,-0.2614263820615652,-0.393,-0.2777664459065495,-0.393,-0.2923592711779043,-0.393,-0.3050260362726029
-0.392,-0.02269341344781448,-0.392,-0.04566798302506733,-0.392,-0.06893895393870197,-0.392,-0.09230990093304856,-0.392,-0.115554474531452,-0.392,-0.1384939827838391,-0.392,-0.1609849477769155,-0.392,-0.1828905725454613,-0.392,-0.204062447849137,-0.392,-0.2243317699188573,-0.392,-0.2435065264003821,-0.392,-0.2613739533986091,-0.392,-0.2777099248949929,-0.392,-0.2922978027295727,-0.392,-0.3049588120627469
-0.391,-0.02267885921134455,-0.391,-0.04564181560362796,-0.391,-0.06890532828356891,-0.391,-0.09227223700504356,-0.391,-0.1155147146083861,-0.391,-0.1384529102058633,-0.391,-0.160942716348128,-0.391,-0.1828470339383496,-0.391,-0.2040172874102047,-0.391,-0.2242845463261824,-0.391,-0.2434566762083828,-0.391,-0.2613207890280856,-0.391,-0.2776526498985422,-0.391,-0.2922355609696424,-0.391,-0.3048907946083885
-0.39,-0.02266409960629862,-0.39,-0.04561526810651681,-0.39,-0.06887119769054034,-0.39,-0.09223399203782531,-0.39,-0.1154743310470032,-0.39,-0.1384111886668623,-0.39,-0.1608998177457442,-0.39,-0.1828028123255312,-0.39,-0.2039714286084676,-0.39,-0.2242366087051272,-0.39,-0.2434060956081739,-0.39,-0.261266876907314,-0.39,-0.2775946086554018,-0.39,-0.2921725334098322,-0.39,-0.3048219711915446
-0.389,-0.0226491314967818,-0.389,-0.04558833456486652,-0.389,-0.06883655399101643,-0.389,-0.09219515641716247,-0.389,-0.1154333134027115,-0.389,-0.1383688072595255,-0.389,-0.1608562407694737,-0.389,-0.1827578962781036,-0.389,-0.2039248598061302,-0.389,-0.224187945211433,-0.389,-0.2433547725437925,-0.389,-0.2612122047615839,-0.389,-0.2775357886627705,-0.389,-0.2921087073104632,-0.389,-0.3047523288311553
-0.388,-0.02263395169880955,-0.388,-0.04556100891346435,-0.388,-0.06880138887787707,-0.388,-0.09215572035962263,-0.388,-0.1153916510427049,-0.388,-0.1383257548775005,-0.388,-0.1608119740132559,-0.388,-0.1827122741560804,-0.388,-0.2038775691490907,-0.388,-0.2241385437787715,-0.388,-0.243302694730507,-0.388,-0.2611567600796215,-0.388,-0.2774761771720874,-0.388,-0.2920440696754515,-0.388,-0.3046818542777907
-0.387,-0.02261855697969406,-0.387,-0.04553328498934492,-0.387,-0.0687656939032211,-0.387,-0.09211567390960326,-0.387,-0.1153493331425084,-0.387,-0.138282020211649,-0.387,-0.1607670058613429,-0.387,-0.1826659341043494,-0.387,-0.2038295445627785,-0.387,-0.2240883921144508,-0.387,-0.2432498496503648,-0.387,-0.2611005301089581,-0.387,-0.2774157611841864,-0.387,-0.2919786072472096,-0.387,-0.3046105340082716
-0.386,-0.02260294405741645,-0.386,-0.04550515653035608,-0.386,-0.06872946047605613,-0.386,-0.09207500693629339,-0.386,-0.1153063486824431,-0.386,-0.1382375917462148,-0.386,-0.1607213244842867,-0.386,-0.1826188640485308,-0.386,-0.2037807737478917,-0.386,-0.2240374776950211,-0.386,-0.2431962245476431,-0.386,-0.2610435018512015,-0.386,-0.277354527444352,-0.386,-0.2919123065014563,-0.386,-0.3045383542202034
-0.385,-0.02258710959999188,-0.385,-0.04547661717369447,-0.385,-0.06869267985993746,-0.385,-0.0920337091305658,-0.385,-0.1152626864440035,-0.385,-0.1381924577548929,-0.385,-0.160674917834828,-0.385,-0.182571051690731,-0.385,-0.2037312441760282,-0.385,-0.2239857877617749,-0.385,-0.2431418064241948,-0.385,-0.2609856620572045,-0.385,-0.2772924624372771,-0.385,-0.2918451536419277,-0.385,-0.3044653008264146
-0.384,-0.02257105022482245,-0.384,-0.04544766045441465,-0.384,-0.06865534317055411,-0.384,-0.09199177000179296,-0.384,-0.115218335006143,-0.384,-0.1381466062967999,-0.384,-0.1606277736436772,-0.384,-0.182522484505191,-0.384,-0.2036809430852126,-0.384,-0.2239333093161395,-0.384,-0.2430865820346873,-0.384,-0.2609269972221278,-0.384,-0.2772295523819165,-0.384,-0.2917771345949919,-0.384,-0.304391359449306
-0.383,-0.02255476249803756,-0.383,-0.04541827980390728,-0.383,-0.06861744137325992,-0.383,-0.09194917887458562,-0.383,-0.1151732827414687,-0.383,-0.1381000252123423,-0.383,-0.1605798794151889,-0.383,-0.1824731497338242,-0.383,-0.2036298574753065,-0.383,-0.2238800291149574,-0.383,-0.2430305378817297,-0.383,-0.2608674935803922,-0.383,-0.2771657832262346,-0.383,-0.2917082350041593,-0.383,-0.3043165154151005
-0.382,-0.02253824293382362,-0.382,-0.04538846854834261,-0.382,-0.0685789652805463,-0.382,-0.0919059248854516,-0.382,-0.1151275178123365,-0.382,-0.1380527021189739,-0.382,-0.1605312224229221,-0.382,-0.1824230343816347,-0.382,-0.2035779741033046,-0.382,-0.2238259336656486,-0.382,-0.2429736602108825,-0.382,-0.2608071371005192,-0.382,-0.2771011406418422,-0.382,-0.2916384402244887,-0.382,-0.3042407537479946
-0.381,-0.02252148799374001,-0.381,-0.04535821990708414,-0.381,-0.06853990554945591,-0.381,-0.09186199697936945,-0.381,-0.115081028166846,-0.381,-0.1380046244068462,-0.381,-0.1604817897050848,-0.381,-0.1823721252120207,-0.381,-0.2035252794785098,-0.381,-0.2237710092212545,-0.381,-0.2429159350055491,-0.381,-0.2607459134798508,-0.381,-0.2770356100185188,-0.381,-0.2915677353168835,-0.381,-0.3041640591642089
-0.38,-0.02250449408602262,-0.38,-0.0453275269910674,-0.38,-0.068500252678935,-0.38,-0.09181738390627819,-0.38,-0.1150338015347321,-0.38,-0.1379557792343384,-0.38,-0.160431568059856,-0.38,-0.1823204087419514,-0.38,-0.2034717598575824,-0.38,-0.223715241775354,-0.38,-0.2428573479817431,-0.38,-0.2606838081391516,-0.38,-0.276969176458619,-0.38,-0.2914961050422762,-0.38,-0.3040864160659285
-0.379,-0.02248725756487316,-0.379,-0.04529638280114268,-0.379,-0.0684599970071221,-0.379,-0.09177207421747546,-0.379,-0.1149858254231468,-0.379,-0.1379061535234741,-0.379,-0.1603805440405827,-0.379,-0.1822678712370166,-0.379,-0.203417401239462,-0.379,-0.2236586170568536,-0.379,-0.2427978845827272,-0.379,-0.2606208062170823,-0.379,-0.2769018247713552,-0.379,-0.291423533855696,-0.379,-0.3040078085351394
-0.378,-0.0224697747297348,-0.378,-0.04526478022638247,-0.378,-0.06841912870857142,-0.378,-0.09172605626192543,-0.378,-0.1149370871123323,-0.378,-0.1378557339552099,-0.378,-0.1603287039508512,-0.378,-0.1822144987063447,-0.378,-0.2033621893601537,-0.378,-0.2236011205246426,-0.378,-0.242737529973521,-0.378,-0.2605568925645468,-0.378,-0.2768335394669556,-0.378,-0.2913500059002166,-0.378,-0.303928220327349
-0.377,-0.02245204182455512,-0.377,-0.04523271204235288,-0.377,-0.06837763779140998,-0.377,-0.09167931818247224,-0.377,-0.1148875736511783,-0.377,-0.1378045069646015,-0.377,-0.1602760338394216,-0.377,-0.1821602768973846,-0.377,-0.2033061096873817,-0.377,-0.2235427373621129,-0.377,-0.2426762690352728,-0.377,-0.2604920517389043,-0.377,-0.2767643047506956,-0.377,-0.2912755050007812,-0.377,-0.3038476348651912
-0.376,-0.02243405503703291,-0.376,-0.04520017090934725,-0.376,-0.06833551409442695,-0.376,-0.09163184791195783,-0.376,-0.1148372718526648,-0.376,-0.13775245873584,-0.376,-0.1602225194950291,-0.376,-0.1821051912905498,-0.376,-0.2032491474150979,-0.376,-0.2234834524715367,-0.376,-0.2426140863594912,-0.376,-0.2604262679980455,-0.376,-0.2766941045167916,-0.376,-0.2912000146578994,-0.376,-0.3037660352319116
-0.375,-0.02241581049785327,-0.375,-0.04516714937058366,-0.375,-0.06829274728409365,-0.375,-0.09158363316924095,-0.375,-0.1147861682891831,-0.375,-0.1376995751971541,-0.375,-0.1601681464410456,-0.375,-0.1820492270937203,-0.375,-0.2031912874578523,-0.375,-0.2234232504683047,-0.375,-0.2425509662421372,-0.375,-0.2603595252943277,-0.375,-0.2766229223421636,-0.375,-0.2911235180412144,-0.375,-0.303683404164729
-0.374,-0.0223973042799053,-0.374,-0.04513363985036309,-0.374,-0.068249326851515,-0.374,-0.09153466145511668,-0.374,-0.1147342492877371,-0.374,-0.1376458420155792,-0.374,-0.1601128999299996,-0.374,-0.181992369236596,-0.374,-0.2031325144450107,-0.374,-0.2233621156750109,-0.374,-0.2424868926775646,-0.374,-0.26029180726837,-0.374,-0.2765507414800536,-0.374,-0.2910459979829337,-0.374,-0.3035997240480686
-0.373,-0.02237853239749116,-0.373,-0.04509963465219263,-0.373,-0.06820524210930987,-0.373,-0.09148492004813547,-0.373,-0.1146815009250198,-0.373,-0.1375912445915887,-0.373,-0.1600567649379497,-0.373,-0.1819346023649064,-0.373,-0.2030728127148265,-0.373,-0.2233000321153946,-0.373,-0.2424218493523174,-0.373,-0.2602230972426951,-0.373,-0.2764775448535043,-0.373,-0.2909674369711232,-0.373,-0.3035149769066629
-0.372,-0.02235949080551694,-0.372,-0.04506512595687109,-0.372,-0.06816048218841927,-0.372,-0.09143439600031916,-0.372,-0.1146279090223654,-0.372,-0.1375357680535848,-0.372,-0.1599997261587128,-0.372,-0.181875910834465,-0.372,-0.2030121663083601,-0.372,-0.2232369835081232,-0.372,-0.2423558196387703,-0.372,-0.2601533782152268,-0.372,-0.2764033150486873,-0.372,-0.290887817142858,-0.372,-0.3034291443985193
-0.371,-0.02234017539867425,-0.371,-0.0450301058205381,-0.371,-0.0681150360348495,-0.371,-0.0913830761327748,-0.371,-0.1145734591405738,-0.371,-0.1374793972522482,-0.371,-0.1599417679979433,-0.371,-0.1818162787050746,-0.371,-0.2029505589632402,-0.371,-0.2231729532604236,-0.371,-0.2422887865886168,-0.371,-0.2600826328526317,-0.371,-0.2763280343080846,-0.371,-0.2908071202772282,-0.371,-0.3033422078077451
-0.37,-0.02232058201060769,-0.37,-0.04499456617268907,-0.37,-0.06806889240634015,-0.37,-0.09133094703120576,-0.37,-0.1145181365746081,-0.37,-0.1374221167547453,-0.37,-0.159882874567058,-0.37,-0.1817556897342744,-0.37,-0.2028879741072731,-0.37,-0.2231079244615563,-0.37,-0.242220732926198,-0.37,-0.2600108434835067,-0.37,-0.2762516845235161,-0.37,-0.2907253277881976,-0.37,-0.3032541480372317
-0.369,-0.02230070641307311,-0.369,-0.04495849881415584,-0.369,-0.06802203986896635,-0.369,-0.09127799504131762,-0.369,-0.1144619263481633,-0.369,-0.1373639108387907,-0.369,-0.1598230296770137,-0.369,-0.1816941273709326,-0.369,-0.2028243948518887,-0.369,-0.2230418798761281,-0.369,-0.2421516410416759,-0.369,-0.2599379920914082,-0.369,-0.2761742472290106,-0.369,-0.2906424207173066,-0.369,-0.3031649456011892
-0.368,-0.02228054431508497,-0.368,-0.04492189541505698,-0.368,-0.06797446679367317,-0.368,-0.09122420626412711,-0.368,-0.1144048132081064,-0.368,-0.1373047634865665,-0.368,-0.159762216831926,-0.368,-0.1816315747486816,-0.368,-0.2027598039854317,-0.368,-0.2229748019372464,-0.368,-0.2420814929840422,-0.368,-0.2598640603077219,-0.368,-0.2760957035935219,-0.368,-0.2905583797262244,-0.368,-0.3030745806175331
-0.367,-0.02226009136205478,-0.367,-0.04488474751271415,-0.367,-0.06792616135274271,-0.367,-0.09116956655116162,-0.367,-0.1143467816187898,-0.367,-0.1372446583784936,-0.367,-0.1597004192225396,-0.367,-0.1815680146791933,-0.367,-0.2026941839662877,-0.367,-0.2229066727395109,-0.367,-0.2420102704539677,-0.367,-0.2597890294043707,-0.367,-0.2760160344134808,-0.367,-0.2904731850891399,-0.367,-0.3029830328001137
-0.366,-0.02223934313492157,-0.366,-0.04484704650954474,-0.366,-0.06787711151619949,-0.366,-0.09111406149956475,-0.366,-0.1142878157562334,-0.366,-0.1371835788868617,-0.366,-0.15963761971954,-0.366,-0.1815034296452967,-0.366,-0.2026275169158518,-0.366,-0.2228374740318427,-0.366,-0.2419379547965776,-0.366,-0.2597128802863595,-0.366,-0.2759352201051882,-0.366,-0.2903868166849948,-0.366,-0.3028902814507886
-0.365,-0.02221829514927945,-0.365,-0.04480878367092608,-0.365,-0.06782730504815276,-0.365,-0.09105767644710105,-0.365,-0.1142278995021844,-0.365,-0.1371215080693129,-0.365,-0.1595738008667147,-0.365,-0.1814378017939383,-0.365,-0.2025597846113348,-0.365,-0.2227671872101519,-0.365,-0.2418645270991433,-0.365,-0.2596355934841576,-0.365,-0.2758532406970434,-0.365,-0.2902992539895526,-0.365,-0.3027963054513357
-0.364,-0.02219694285449736,-0.364,-0.04476995012304055,-0.364,-0.06777672950308133,-0.364,-0.09100039646706409,-0.364,-0.114167016438049,-0.364,-0.1370584286621814,-0.364,-0.1595089448739595,-0.364,-0.1813711129289808,-0.364,-0.2024909684784068,-0.364,-0.2226957933098407,-0.364,-0.2417899678839366,-0.364,-0.259557149145915,-0.364,-0.2757700758216071,-0.364,-0.2902104760673023,-0.364,-0.3027010832552003
-0.363,-0.0221752816328388,-0.363,-0.04473053685069645,-0.363,-0.06772537222206224,-0.363,-0.09094220636309072,-0.363,-0.1141051498387008,-0.363,-0.136994323073693,-0.363,-0.1594430336101328,-0.363,-0.1813033445038493,-0.363,-0.202421049583684,-0.363,-0.2226232729981464,-0.363,-0.2417142574090457,-0.363,-0.2594775270295132,-0.363,-0.2756857047074991,-0.363,-0.2901204615631978,-0.363,-0.3026045928790766
-0.362,-0.02215330679858227,-0.362,-0.04469053469513767,-0.362,-0.06767322032894915,-0.362,-0.09088309066388611,-0.362,-0.1140422826661697,-0.362,-0.1369291733770235,-0.362,-0.1593760485957603,-0.362,-0.1812344776140165,-0.362,-0.2023500086270541,-0.362,-0.2225496065663217,-0.362,-0.2416373755233264,-0.362,-0.2593967064944529,-0.362,-0.2756001061711283,-0.362,-0.2900291886942267,-0.362,-0.3025068118943202
-0.361,-0.02213101359714151,-0.361,-0.04464993435183903,-0.361,-0.06762026072650168,-0.361,-0.09082303361786001,-0.361,-0.1139783975632119,-0.361,-0.1368629613032179,-0.361,-0.1593079709955889,-0.361,-0.1811644929893377,-0.361,-0.2022778259338434,-0.361,-0.2224747739216549,-0.361,-0.2415593016811171,-0.361,-0.259314666493576,-0.361,-0.2755132586082587,-0.361,-0.289936635240812,-0.361,-0.3024077174181894
-0.36,-0.02210839720419211,-0.36,-0.04460872636829485,-0.36,-0.0675664800924734,-0.36,-0.09076201918767957,-0.36,-0.1139134768467635,-0.36,-0.1367956682339761,-0.36,-0.159238781610997,-0.36,-0.1810933709862306,-0.36,-0.2022044814468301,-0.36,-0.2223987545793323,-0.36,-0.2414800149339558,-0.36,-0.2592313855646234,-0.36,-0.2754251399854052,-0.36,-0.2898427785380434,-0.36,-0.3023072861049131
-0.359,-0.02208545272480567,-0.359,-0.04456690114180392,-0.359,-0.06751186487566022,-0.359,-0.09070003104474372,-0.359,-0.1138475025012845,-0.359,-0.1367272751943051,-0.359,-0.1591684608722578,-0.359,-0.1810210915797074,-0.359,-0.202129954718104,-0.359,-0.2223215276541436,-0.359,-0.2413994939221354,-0.359,-0.2591468418216299,-0.359,-0.2753357278310639,-0.359,-0.289747595466737,-0.359,-0.302205494136586
-0.358,-0.0220621751925921,-0.358,-0.04452444891725454,-0.358,-0.06745640129191668,-0.358,-0.09063705256358306,-0.358,-0.1137804561719938,-0.358,-0.1366577628450401,-0.358,-0.1590969888306629,-0.358,-0.1809476343552573,-0.358,-0.2020542249007723,-0.358,-0.2222430718520322,-0.358,-0.2413177168660954,-0.358,-0.2590610129461602,-0.358,-0.2752449992267793,-0.358,-0.289651062444328,-0.358,-0.3021023172138868
-0.357,-0.02203855956885722,-0.357,-0.04448135978491849,-0.357,-0.06740007532014447,-0.357,-0.09057306681619015,-0.357,-0.1137123191580004,-0.357,-0.136587111475245,-0.357,-0.1590243451505092,-0.357,-0.180872978500587,-0.357,-0.2019772707405204,-0.357,-0.2221633654614961,-0.357,-0.2412346615576642,-0.357,-0.2589738761783819,-0.357,-0.2751529307980455,-0.357,-0.2895531554155893,-0.357,-0.3019977305466205
-0.356,-0.02201460074177278,-0.356,-0.04443762367825482,-0.356,-0.06734287269826014,-0.356,-0.09050805656628466,-0.356,-0.1136430724053364,-0.356,-0.1365153009944844,-0.356,-0.1589505091009495,-0.356,-0.1807971027972196,-0.356,-0.201899070567026,-0.356,-0.2220823863448376,-0.356,-0.2411503053511427,-0.356,-0.258885408307983,-0.356,-0.2750594987050416,-0.356,-0.2894538498431848,-0.356,-0.3018917088440863
-0.355,-0.02199029352556986,-0.355,-0.04439323037173118,-0.355,-0.06728477891914694,-0.355,-0.09044200426352234,-0.355,-0.1135726964998967,-0.355,-0.1364423109249849,-0.355,-0.1588754595477152,-0.355,-0.1807199856119567,-0.355,-0.2018196022852333,-0.355,-0.2220001119292702,-0.355,-0.2410646251542444,-0.355,-0.258795585664936,-0.355,-0.2749646786332138,-0.355,-0.2893531206980517,-0.355,-0.3017842263052696
