;Version, 1, 0
;ac_gain (VCTRL=0.02),;ac_gain (VCTRL=0.04),;ac_gain (VCTRL=0.06),;ac_gain (VCTRL=0.08),;ac_gain (VCTRL=0.1),;ac_gain (VCTRL=0.12),;ac_gain (VCTRL=0.14),;ac_gain (VCTRL=0.16),;ac_gain (VCTRL=0.18),;ac_gain (VCTRL=0.2),;ac_gain (VCTRL=0.22),;ac_gain (VCTRL=0.26),;ac_gain (VCTRL=0.28),;ac_gain (VCTRL=0.24)
;X, Y,;X, Y,;X, Y,;X, Y,;X, Y,;X, Y,;X, Y,;X, Y,;X, Y,;X, Y,;X, Y,;X, Y,;X, Y,;X, Y
;Re, Re,;Re, Re,;Re, Re,;Re, Re,;Re, Re,;Re, Re,;Re, Re,;Re, Re,;Re, Re,;Re, Re,;Re, Re,;Re, Re,;Re, Re,;Re, Re
;freq, V,;freq, V,;freq, V,;freq, V,;freq, V,;freq, V,;freq, V,;freq, V,;freq, V,;freq, V,;freq, V,;freq, V,;freq, V,;freq, V
;Hz, dB,;Hz, dB,;Hz, dB,;Hz, dB,;Hz, dB,;Hz, dB,;Hz, dB,;Hz, dB,;Hz, dB,;Hz, dB,;Hz, dB,;Hz, dB,;Hz, dB,;Hz, dB
1000000,-11.66360323516606,1000000,-6.156566170676154,1000000,-3.426917390454938,1000000,-1.848498267316745,1000000,-0.8441066122323332,1000000,-0.1733949636270452,1000000,0.265284816056388,1000000,0.5306019461755408,1000000,0.6684004003863019,1000000,0.7181570993022758,1000000,0.713347280018225,1000000,0.6220594585516711,1000000,0.5583620955697634,1000000,0.6772905331743285
1002305.2380779,-11.6636033507268,1002305.2380779,-6.156566333932432,1002305.2380779,-3.426917643299872,1002305.2380779,-1.848498655909692,1002305.2380779,-0.8441071726758419,1002305.2380779,-0.1733957055284633,1002305.2380779,0.2652839133725249,1002305.2380779,0.5306009180376456,1002305.2380779,0.668399279823275,1002305.2380779,0.7181559103761873,1002305.2380779,0.7133460397788329,1002305.2380779,0.6220581591835118,1002305.2380779,0.5583607875803352,1002305.2380779,0.6772892559674307
1004615.790278395,-11.66360346682097,1004615.790278395,-6.156566497942189,1004615.790278395,-3.426917897311687,1004615.790278395,-1.848499046295871,1004615.790278395,-0.8441077357054224,1004615.790278395,-0.1733964508530643,1004615.790278395,0.2652830065238334,1004615.790278395,0.5305998851563012,1004615.790278395,0.6683981540905805,1004615.790278395,0.7181547159652218,1004615.790278395,0.7133447938179714,1004615.790278395,0.6220568538214205,1004615.790278395,0.5583594735573614,1004615.790278395,0.6772879728686867
1006931.668851804,-11.66360358345103,1006931.668851804,-6.156566662708968,1006931.668851804,-3.426918152495808,1006931.668851804,-1.84849943848358,1006931.668851804,-0.8441083013330547,1006931.668851804,-0.1733971996166888,1006931.668851804,0.2652820954910725,1006931.668851804,0.5305988475096226,1006931.668851804,0.668397023164347,1006931.668851804,0.7181535160440407,1006931.668851804,0.7133435421092484,1006931.668851804,0.6220555424377601,1006931.668851804,0.5583581534730085,1006931.668851804,0.6772866838509132
1009252.886076684,-11.66360370061942,1009252.886076684,-6.156566828236185,1009252.886076684,-3.426918408857587,1009252.886076684,-1.848499832481078,1009252.886076684,-0.8441088695706714,1009252.886076684,-0.1733979518351251,1009252.886076684,0.2652811802549978,1009252.886076684,0.5305978050756801,1009252.886076684,0.6683958870206768,1009252.886076684,0.7181523105872789,1009252.886076684,0.7133422846262063,1009252.886076684,0.6220542250047916,1009252.886076684,0.558356827299377,1009252.886076684,0.6772853888868552
1011579.454259898,-11.66360381832865,1011579.454259898,-6.156566994527402,1011579.454259898,-3.426918666402494,1011579.454259898,-1.848500228296773,1011579.454259898,-0.8441094404303451,1011579.454259898,-0.1733987075243576,1011579.454259898,0.2652802607961943,1011579.454259898,0.5305967578323563,1011579.454259898,0.66839474563547,1011579.454259898,0.7181510995693939,1011579.454259898,0.7133410213421777,1011579.454259898,0.6220529014946011,1011579.454259898,0.5583554950083728,1011579.454259898,0.6772840879490744
1013911.385736679,-11.66360393658121,1013911.385736679,-6.15656716158611,1013911.385736679,-3.426918925135949,1013911.385736679,-1.84850062593898,1013911.385736679,-0.8441100139241553,1013911.385736679,-0.1733994667003587,1013911.385736679,0.265279337095208,1013911.385736679,0.530595705757498,1013911.385736679,0.6683935989845984,1013911.385736679,0.718149882964749,1013911.385736679,0.7133397522304348,1013911.385736679,0.6220515718792147,1013911.385736679,0.5583541565718029,1013911.385736679,0.6772827810100412
1016248.692870695,-11.66360405537963,1016248.692870695,-6.156567329415909,1016248.692870695,-3.426919185063503,1016248.692870695,-1.848501025416224,1016248.692870695,-0.8441105900642913,1016248.692870695,-0.1734002293792523,1016248.692870695,0.2652784091324406,1016248.692870695,0.5305946488287615,1016248.692870695,0.6683924470437246,1016248.692870695,0.7181486607475686,1016248.692870695,0.7133384772640953,1016248.692870695,0.6220502361304364,1016248.692870695,0.5583528119613134,1016248.692870695,0.6772814680420673
1018591.388054117,-11.66360417472639,1018591.388054117,-6.156567498020277,1018591.388054117,-3.426919446190599,1018591.388054117,-1.848501426736868,1018591.388054117,-0.8441111688628816,1018591.388054117,-0.1734009955771605,1018591.388054117,0.2652774768882865,1018591.388054117,0.5305935870238681,1018591.388054117,0.6683912897885113,1018591.388054117,0.7181474328920066,1018591.388054117,0.7133371964161984,1018591.388054117,0.62204889422003,1018591.388054117,0.5583514611484831,1018591.388054117,0.677280149017395
1020939.483707679,-11.66360429462403,1020939.483707679,-6.156567667402835,1020939.483707679,-3.4269197085228,1020939.483707679,-1.848501829909489,1020939.483707679,-0.8441117503322482,1020939.483707679,-0.1734017653103145,1020939.483707679,0.2652765403429641,1020939.483707679,0.5305925203202688,1020939.483707679,0.6683901271944479,1020939.483707679,0.718146199372062,1020939.483707679,0.7133359096596115,1020939.483707679,0.6220475461195913,1020939.483707679,0.5583501041047247,1020939.483707679,0.6772788239080911
1023292.992280754,-11.66360441507511,1023292.992280754,-6.156567837567152,1023292.992280754,-3.426919972065664,1023292.992280754,-1.848502234942581,1023292.992280754,-0.844112334484675,1023292.992280754,-0.173402538595031,1023292.992280754,0.2652755994766581,1023292.992280754,0.5305914486953821,1023292.992280754,0.668388959236897,1023292.992280754,0.7181449601615955,1023292.992280754,0.7133346169670877,1023292.992280754,0.6220461918005629,1023292.992280754,0.5583487408012662,1023292.992280754,0.6772774926860908
1025651.926251407,-11.66360453608218,1025651.926251407,-6.156568008516883,1025651.926251407,-3.426920236824802,1025651.926251407,-1.848502641844785,1025651.926251407,-0.8441129213325904,1025651.926251407,-0.1734033154477007,1025651.926251407,0.265274654269428,1025651.926251407,0.5305903721265085,1025651.926251407,0.6683877858911197,1025651.926251407,0.7181437152343825,1025651.926251407,0.7133333183112629,1025651.926251407,0.6220448312342782,1025651.926251407,0.5583473712092993,1025651.926251407,0.6772761553231994
1028016.298126473,-11.66360465764782,1028016.298126473,-6.156568180255613,1028016.298126473,-3.426920502805785,1028016.298126473,-1.84850305062468,1028016.298126473,-0.8441135108883948,1028016.298126473,-0.1734040958847722,1028016.298126473,0.2652737047012396,1028016.298126473,0.5305892905908522,1028016.298126473,0.668386607132287,1028016.298126473,0.7181424645640508,1028016.298126473,0.7133320136646366,1028016.298126473,0.6220434643919369,1028016.298126473,0.5583459952998115,1028016.298126473,0.6772748117911411
1030386.120441615,-11.66360477977459,1030386.120441615,-6.156568352787018,1030386.120441615,-3.42692077001429,1030386.120441615,-1.848503461290949,1030386.120441615,-0.8441141031645997,1030386.120441615,-0.1734048799227798,1030386.120441615,0.265272750751999,1030386.120441615,0.5305882040655105,1030386.120441615,0.6683854229354349,1030386.120441615,0.718141208124131,1030386.120441615,0.71333070299958,1030386.120441615,0.6220420912446291,1030386.120441615,0.558344613043671,1030386.120441615,0.6772734620614446
1032761.405761397,-11.66360490246506,1032761.405761397,-6.156568526114682,1032761.405761397,-3.426921038455928,1032761.405761397,-1.848503873852258,1032761.405761397,-0.8441146981737,1032761.405761397,-0.173405667578301,1032761.405761397,0.2652717924015354,1032761.405761397,0.5305871125275116,1032761.405761397,0.6683842332755189,1032761.405761397,0.718139945888059,1032761.405761397,0.7133293862884057,1032761.405761397,0.6220407117632899,1032761.405761397,0.558343224411666,1032761.405761397,0.6772721061055896
1035142.166679343,-11.66360502572188,1035142.166679343,-6.156568700242361,1035142.166679343,-3.426921308136452,1035142.166679343,-1.848504288317401,1035142.166679343,-0.8441152959283635,1035142.166679343,-0.1734064588680806,1035142.166679343,0.2652708296294929,1035142.166679343,0.530586015953675,1035142.166679343,0.6683830381272887,1035142.166679343,0.7181386778290543,1035142.166679343,0.7133280635031598,1035142.166679343,0.6220393259186791,1035142.166679343,0.5583418293743552,1035142.166679343,0.677270743894796
1037528.415818012,-11.66360514954762,1037528.415818012,-6.156568875173701,1037528.415818012,-3.426921579061527,1037528.415818012,-1.848504704695128,1037528.415818012,-0.8441158964412173,1037528.415818012,-0.1734072538088221,1037528.415818012,0.2652698624155175,1037528.415818012,0.5305849143208348,1037528.415818012,0.6683818374654855,1037528.415818012,0.7181374039202886,1037528.415818012,0.7133267346158848,1037528.415818012,0.6220379336815109,1037528.415818012,0.5583404279022631,1037528.415818012,0.6772693754002976
1039920.165829058,-11.66360527394491,1039920.165829058,-6.156569050912416,1039920.165829058,-3.426921851236916,1039920.165829058,-1.848505122994257,1039920.165829058,-0.8441164997249818,1039920.165829058,-0.1734080524173688,1039920.165829058,0.2652688907391296,1039920.165829058,0.5305838076056436,1039920.165829058,0.6683806312646929,1039920.165829058,0.7181361241348088,1039920.165829058,0.7133253995984634,1039920.165829058,0.6220365350223117,1039920.165829058,0.5583390199657131,1039920.165829058,0.6772680005931037
1042317.429393303,-11.6636053989164,1042317.429393303,-6.156569227462234,1042317.429393303,-3.426922124668371,1042317.429393303,-1.848505543223669,1042317.429393303,-0.8441171057924542,1042317.429393303,-0.1734088547106621,1042317.429393303,0.2652679145797433,1042317.429393303,0.5305826957846796,1042317.429393303,0.6683794194993701,1042317.429393303,0.7181348384455347,1042317.429393303,0.7133240584226127,1042317.429393303,0.6220351299114869,1042317.429393303,0.5583376055348968,1042317.429393303,0.6772666194441229
1044720.219220799,-11.66360552446478,1044720.219220799,-6.15656940482692,1044720.219220799,-3.426922399361734,1044720.219220799,-1.848505965392298,1044720.219220799,-0.8441177146565029,1044720.219220799,-0.1734096607057116,1044720.219220799,0.2652669339166377,1044720.219220799,0.5305815788343559,1044720.219220799,0.6683782021438041,1044720.219220799,0.7181335468251774,1044720.219220799,0.7133227110599082,1044720.219220799,0.6220337183192143,1044720.219220799,0.5583361845798533,1044720.219220799,0.6772652319240738
1047128.548050899,-11.66360565059269,1047128.548050899,-6.156569583010257,1047128.548050899,-3.426922675322818,1047128.548050899,-1.848506389509079,1047128.548050899,-0.8441183263300089,1047128.548050899,-0.1734104704195907,1047128.548050899,0.2652659487290866,1047128.548050899,0.5305804567310456,1047128.548050899,0.6683769791722484,1047128.548050899,0.718132249246422,1047128.548050899,0.7133213574818572,1047128.548050899,0.6220323002156948,1047128.548050899,0.5583347570705305,1047128.548050899,0.6772638380036032
1049542.428652321,-11.66360577730276,1049542.428652321,-6.156569762015927,1049542.428652321,-3.426922952557423,1049542.428652321,-1.848506815582922,1049542.428652321,-0.8441189408258938,1049542.428652321,-0.1734112838693837,1049542.428652321,0.2652649589962568,1049542.428652321,0.5305793294510146,1049542.428652321,0.6683757505588545,1049542.428652321,0.7181309456818593,1049542.428652321,0.713319997659829,1049542.428652321,0.6220308755709173,1049542.428652321,0.5583333229767611,1049542.428652321,0.6772624376532616
1051961.873823222,-11.66360590459768,1051961.873823222,-6.15656994184778,1051961.873823222,-3.426923231071441,1051961.873823222,-1.848507243622923,1051961.873823222,-0.8441195581571833,1051961.873823222,-0.1734121010723597,1051961.873823222,0.2652639646971562,1051961.873823222,0.5305781969703859,1051961.873823222,0.6683745162775884,1051961.873823222,0.7181296361038279,1051961.873823222,0.7133186315650256,1051961.873823222,0.6220294443547258,1051961.873823222,0.5583318822681869,1051961.873823222,0.6772610308433672
1054386.896391258,-11.6636060324802,1054386.896391258,-6.156570122509644,1054386.896391258,-3.426923510870781,1054386.896391258,-1.848507673638138,1054386.896391258,-0.8441201783369953,1054386.896391258,-0.1734129220458422,1054386.896391258,0.2652629658107218,1054386.896391258,0.5305770592651404,1054386.896391258,0.668373276302287,1054386.896391258,0.7181283204846308,1054386.896391258,0.7133172591685137,1054386.896391258,0.622028006536793,1054386.896391258,0.5583304349142304,1054386.896391258,0.6772596175441512
1056817.509213657,-11.66360616095305,1056817.509213657,-6.156570304005371,1056817.509213657,-3.426923791961427,1056817.509213657,-1.848508105637721,1056817.509213657,-0.8441208013784745,1056817.509213657,-0.1734137468072421,1056817.509213657,0.2652619623157706,1056817.509213657,0.5305759163111888,1056817.509213657,0.6683720306067039,1056817.509213657,0.7181269987963704,1056817.509213657,0.7133158804412255,1056817.509213657,0.6220265620866877,1056817.509213657,0.5583289808843467,1056817.509213657,0.6772581977256485
1059253.725177287,-11.66360629001886,1059253.725177287,-6.156570486338724,1059253.725177287,-3.426924074349246,1059253.725177287,-1.848508539630746,1059253.725177287,-0.8441214272947445,1059253.725177287,-0.1734145753739545,1059253.725177287,0.2652609541911367,1059253.725177287,0.5305747680844048,1059253.725177287,0.6683707791645118,1059253.725177287,0.7181256710111508,1059253.725177287,0.713314495354043,1059253.725177287,0.6220251109739072,1059253.725177287,0.5583275201477488,1059253.725177287,0.677256771357908
1061695.557198723,-11.66360641968044,1061695.557198723,-6.156570669513656,1061695.557198723,-3.426924358040298,1061695.557198723,-1.848508975626488,1061695.557198723,-0.8441220560991518,1061695.557198723,-0.1734154077636156,1061695.557198723,0.2652599414153637,1061695.557198723,0.5305736145603888,1061695.557198723,0.6683695219491443,1061695.557198723,0.7181243371007761,1061695.557198723,0.7133131038775656,1061695.557198723,0.6220236531676574,1061695.557198723,0.5583260526735064,1061695.557198723,0.6772553384106414
1064143.018224314,-11.66360654994057,1064143.018224314,-6.156570853534049,1064143.018224314,-3.426924643040599,1064143.018224314,-1.848509413634176,1064143.018224314,-0.8441226878050154,1064143.018224314,-0.1734162439938381,1064143.018224314,0.2652589239670463,1064143.018224314,0.5305724557147206,1064143.018224314,0.6683682589339957,1064143.018224314,0.718122997037004,1064143.018224314,0.7133117059823506,1064143.018224314,0.6220221886370941,1064143.018224314,0.5583245784305231,1064143.018224314,0.6772538988535287
1066596.121230256,-11.6636066808019,1066596.121230256,-6.156571038403694,1066596.121230256,-3.426924929356104,1066596.121230256,-1.848509853663003,1066596.121230256,-0.8441233224256333,1066596.121230256,-0.1734170840822416,1066596.121230256,0.2652579018247022,1066596.121230256,0.5305712915229405,1066596.121230256,0.6683669900924188,1066596.121230256,0.7181216507915835,1066596.121230256,0.7133103016389085,1066596.121230256,0.6220207173512977,1066596.121230256,0.5583230973877492,1066596.121230256,0.677252452656208
1069054.879222656,-11.66360681226729,1069054.879222656,-6.15657122412661,1069054.879222656,-3.426925216992939,1069054.879222656,-1.848510295722382,1069054.879222656,-0.8441239599745196,1069054.879222656,-0.1734179280467179,1069054.879222656,0.2652568749666114,1069054.879222656,0.53057012196034,1069054.879222656,0.6683657153974439,1069054.879222656,0.7181202983359279,1069054.879222656,0.7133088908173948,1069054.879222656,0.622019239279063,1069054.879222656,0.5583216095136919,1069054.879222656,0.6772509997879562
1071519.305237605,-11.66360694433955,1071519.305237605,-6.156571410706761,1071519.305237605,-3.42692550595724,1071519.305237605,-1.84851073982168,1071519.305237605,-0.8441246004651903,1071519.305237605,-0.1734187759051603,1071519.305237605,0.2652558433710149,1071519.305237605,0.5305689470021273,1071519.305237605,0.6683644348221076,1071519.305237605,0.7181189396413687,1071519.305237605,0.713307473487979,1071519.305237605,0.6220177543891113,1071519.305237605,0.5583201147768948,1071519.305237605,0.6772495402180333
1073989.412341243,-11.66360707702138,1073989.412341243,-6.156571598147994,1073989.412341243,-3.426925796255049,1073989.412341243,-1.848511185970253,1073989.412341243,-0.8441252439111481,1073989.412341243,-0.1734196276754193,1073989.412341243,0.2652548070161423,1073989.412341243,0.5305677666234996,1073989.412341243,0.6683631483393472,1073989.412341243,0.7181175746792484,1073989.412341243,0.7133060496207008,1073989.412341243,0.6220162626500633,1073989.412341243,0.5583186131457999,1073989.412341243,0.6772480739156248
1076465.213629833,-11.66360721031568,1076465.213629833,-6.156571786454363,1076465.213629833,-3.426926087892559,1076465.213629833,-1.848511634177607,1076465.213629833,-0.8441258903260788,1076465.213629833,-0.1734204833756203,1076465.213629833,0.265253765880006,1076465.213629833,0.5305665807994052,1076465.213629833,0.6683618559218832,1076465.213629833,0.7181162034205963,1076465.213629833,0.7133046191853921,1076465.213629833,0.6220147640303078,1076465.213629833,0.5583171045885762,1076465.213629833,0.6772466008496267
1078946.722229827,-11.66360734422525,1078946.722229827,-6.156571975629854,1078946.722229827,-3.426926380875984,1078946.722229827,-1.848512084453203,1078946.722229827,-0.8441265397236776,1078946.722229827,-0.1734213430238708,1078946.722229827,0.2652527199405197,1078946.722229827,0.5305653895047566,1078946.722229827,0.6683605575423403,1078946.722229827,0.7181148258363925,1078946.722229827,0.7133031821517553,1078946.722229827,0.6220132584981333,1078946.722229827,0.5583155890732749,1078946.722229827,0.677245120988868
1081433.951297936,-11.66360747875292,1081433.951297936,-6.156572165678445,1081433.951297936,-3.426926675211478,1081433.951297936,-1.848512536806594,1081433.951297936,-0.8441271921176725,1081433.951297936,-0.1734222066383707,1081433.951297936,0.2652516691755984,1081433.951297936,0.5305641927143445,1081433.951297936,0.6683592531732855,1081433.951297936,0.7181134418975156,1081433.951297936,0.713301738489407,1081433.951297936,0.6220117460216917,1081433.951297936,0.5583140665678988,1081433.951297936,0.677243634302068
1083926.914021201,-11.66360761390157,1083926.914021201,-6.156572356604215,1083926.914021201,-3.426926970905316,1083926.914021201,-1.848512991247399,1083926.914021201,-0.8441278475219206,1083926.914021201,-0.1734230742374344,1083926.914021201,0.2652506135629462,1083926.914021201,0.5305629904027925,1083926.914021201,0.6683579427870431,1083926.914021201,0.7181120515746205,1083926.914021201,0.7133002881677689,1083926.914021201,0.6220102265689591,1083926.914021201,0.5583125370401589,1083926.914021201,0.6772421407577037
1086425.623617063,-11.66360774967404,1086425.623617063,-6.156572548411151,1086425.623617063,-3.426927267963737,1086425.623617063,-1.848513447785173,1086425.623617063,-0.8441285059502616,1086425.623617063,-0.1734239458393954,1086425.623617063,0.2652495530802554,1086425.623617063,0.5305617825446863,1086425.623617063,0.6683566263559179,1086425.623617063,0.718110654838316,1086425.623617063,0.7132988311561717,1086425.623617063,0.6220087001078178,1086425.623617063,0.5583110004577522,1086425.623617063,0.6772406403242234
