;Version, 1, 0
;dB20((VF("/out+") - VF("/out-"))) (VCTRL=0.02),;dB20((VF("/out+") - VF("/out-"))) (VCTRL=0.04),;dB20((VF("/out+") - VF("/out-"))) (VCTRL=0.06),;dB20((VF("/out+") - VF("/out-"))) (VCTRL=0.08),;dB20((VF("/out+") - VF("/out-"))) (VCTRL=0.1),;dB20((VF("/out+") - VF("/out-"))) (VCTRL=0.12),;dB20((VF("/out+") - VF("/out-"))) (VCTRL=0.14),;dB20((VF("/out+") - VF("/out-"))) (VCTRL=0.16),;dB20((VF("/out+") - VF("/out-"))) (VCTRL=0.18),;dB20((VF("/out+") - VF("/out-"))) (VCTRL=0.2),;dB20((VF("/out+") - VF("/out-"))) (VCTRL=0.22),;dB20((VF("/out+") - VF("/out-"))) (VCTRL=0.24),;dB20((VF("/out+") - VF("/out-"))) (VCTRL=0.26),;dB20((VF("/out+") - VF("/out-"))) (VCTRL=0.28),;dB20((VF("/out+") - VF("/out-"))) (VCTRL=0.3)
;X, Y,;X, Y,;X, Y,;X, Y,;X, Y,;X, Y,;X, Y,;X, Y,;X, Y,;X, Y,;X, Y,;X, Y,;X, Y,;X, Y,;X, Y
;Re, Re,;Re, Re,;Re, Re,;Re, Re,;Re, Re,;Re, Re,;Re, Re,;Re, Re,;Re, Re,;Re, Re,;Re, Re,;Re, Re,;Re, Re,;Re, Re,;Re, Re
;freq, V,;freq, V,;freq, V,;freq, V,;freq, V,;freq, V,;freq, V,;freq, V,;freq, V,;freq, V,;freq, V,;freq, V,;freq, V,;freq, V,;freq, V
;Hz, dB,;Hz, dB,;Hz, dB,;Hz, dB,;Hz, dB,;Hz, dB,;Hz, dB,;Hz, dB,;Hz, dB,;Hz, dB,;Hz, dB,;Hz, dB,;Hz, dB,;Hz, dB,;Hz, dB
1,-19.98708352780748,1,-13.72497766833186,1,-9.917183312950019,1,-7.251181639698039,1,-5.415951342635067,1,-4.24134028191281,1,-3.525205512553644,1,-3.073618806917031,1,-2.747207081162435,1,-2.460921699771759,1,-2.169496457861602,1,-1.851810886462453,1,-1.501969243870723,1,-1.126450428922807,1,-0.7443104663682547
1.023292992280754,-19.98708352780748,1.023292992280754,-13.72497766833186,1.023292992280754,-9.917183312950023,1.023292992280754,-7.251181639698043,1.023292992280754,-5.415951342635071,1.023292992280754,-4.241340281912811,1.023292992280754,-3.525205512553641,1.023292992280754,-3.073618806917031,1.023292992280754,-2.747207081162434,1.023292992280754,-2.460921699771756,1.023292992280754,-2.169496457861603,1.023292992280754,-1.851810886462455,1.023292992280754,-1.501969243870724,1.023292992280754,-1.126450428922809,1.023292992280754,-0.7443104663682558
1.047128548050899,-19.98708352780747,1.047128548050899,-13.72497766833186,1.047128548050899,-9.917183312950019,1.047128548050899,-7.25118163969804,1.047128548050899,-5.415951342635069,1.047128548050899,-4.241340281912813,1.047128548050899,-3.525205512553644,1.047128548050899,-3.073618806917031,1.047128548050899,-2.747207081162431,1.047128548050899,-2.460921699771756,1.047128548050899,-2.169496457861601,1.047128548050899,-1.851810886462451,1.047128548050899,-1.501969243870723,1.047128548050899,-1.126450428922806,1.047128548050899,-0.7443104663682547
1.071519305237606,-19.9870835278075,1.071519305237606,-13.72497766833185,1.071519305237606,-9.917183312950023,1.071519305237606,-7.251181639698045,1.071519305237606,-5.415951342635073,1.071519305237606,-4.241340281912813,1.071519305237606,-3.525205512553644,1.071519305237606,-3.073618806917028,1.071519305237606,-2.747207081162434,1.071519305237606,-2.460921699771756,1.071519305237606,-2.169496457861601,1.071519305237606,-1.85181088646245,1.071519305237606,-1.501969243870726,1.071519305237606,-1.126450428922812,1.071519305237606,-0.7443104663682537
1.096478196143185,-19.98708352780749,1.096478196143185,-13.72497766833185,1.096478196143185,-9.917183312950019,1.096478196143185,-7.251181639698046,1.096478196143185,-5.415951342635073,1.096478196143185,-4.241340281912812,1.096478196143185,-3.52520551255364,1.096478196143185,-3.073618806917026,1.096478196143185,-2.747207081162431,1.096478196143185,-2.460921699771754,1.096478196143185,-2.169496457861601,1.096478196143185,-1.851810886462449,1.096478196143185,-1.501969243870726,1.096478196143185,-1.126450428922809,1.096478196143185,-0.7443104663682537
1.122018454301963,-19.98708352780749,1.122018454301963,-13.72497766833186,1.122018454301963,-9.917183312950021,1.122018454301963,-7.251181639698044,1.122018454301963,-5.415951342635071,1.122018454301963,-4.24134028191281,1.122018454301963,-3.525205512553644,1.122018454301963,-3.073618806917026,1.122018454301963,-2.747207081162433,1.122018454301963,-2.460921699771755,1.122018454301963,-2.169496457861601,1.122018454301963,-1.851810886462454,1.122018454301963,-1.501969243870722,1.122018454301963,-1.126450428922807,1.122018454301963,-0.7443104663682537
1.148153621496882,-19.9870835278075,1.148153621496882,-13.72497766833185,1.148153621496882,-9.917183312950021,1.148153621496882,-7.251181639698043,1.148153621496882,-5.415951342635073,1.148153621496882,-4.24134028191281,1.148153621496882,-3.525205512553644,1.148153621496882,-3.073618806917028,1.148153621496882,-2.747207081162431,1.148153621496882,-2.460921699771755,1.148153621496882,-2.169496457861601,1.148153621496882,-1.851810886462453,1.148153621496882,-1.501969243870723,1.148153621496882,-1.126450428922809,1.148153621496882,-0.7443104663682547
1.174897554939529,-19.98708352780749,1.174897554939529,-13.72497766833185,1.174897554939529,-9.917183312950023,1.174897554939529,-7.251181639698046,1.174897554939529,-5.415951342635071,1.174897554939529,-4.24134028191281,1.174897554939529,-3.525205512553643,1.174897554939529,-3.073618806917026,1.174897554939529,-2.747207081162433,1.174897554939529,-2.460921699771755,1.174897554939529,-2.169496457861599,1.174897554939529,-1.851810886462451,1.174897554939529,-1.501969243870723,1.174897554939529,-1.126450428922809,1.174897554939529,-0.7443104663682579
1.202264434617413,-19.98708352780748,1.202264434617413,-13.72497766833185,1.202264434617413,-9.917183312950025,1.202264434617413,-7.251181639698046,1.202264434617413,-5.415951342635071,1.202264434617413,-4.24134028191281,1.202264434617413,-3.525205512553643,1.202264434617413,-3.073618806917028,1.202264434617413,-2.747207081162434,1.202264434617413,-2.460921699771754,1.202264434617413,-2.169496457861599,1.202264434617413,-1.851810886462453,1.202264434617413,-1.501969243870725,1.202264434617413,-1.126450428922809,1.202264434617413,-0.7443104663682527
1.230268770812381,-19.98708352780748,1.230268770812381,-13.72497766833185,1.230268770812381,-9.917183312950019,1.230268770812381,-7.251181639698042,1.230268770812381,-5.415951342635069,1.230268770812381,-4.24134028191281,1.230268770812381,-3.52520551255364,1.230268770812381,-3.073618806917025,1.230268770812381,-2.747207081162433,1.230268770812381,-2.460921699771752,1.230268770812381,-2.1694964578616,1.230268770812381,-1.851810886462455,1.230268770812381,-1.501969243870723,1.230268770812381,-1.126450428922805,1.230268770812381,-0.7443104663682527
1.258925411794167,-19.98708352780748,1.258925411794167,-13.72497766833185,1.258925411794167,-9.917183312950019,1.258925411794167,-7.251181639698042,1.258925411794167,-5.415951342635071,1.258925411794167,-4.24134028191281,1.258925411794167,-3.52520551255364,1.258925411794167,-3.073618806917025,1.258925411794167,-2.74720708116243,1.258925411794167,-2.460921699771754,1.258925411794167,-2.169496457861601,1.258925411794167,-1.851810886462449,1.258925411794167,-1.501969243870722,1.258925411794167,-1.126450428922804,1.258925411794167,-0.7443104663682527
1.288249551693134,-19.98708352780748,1.288249551693134,-13.72497766833185,1.288249551693134,-9.917183312950025,1.288249551693134,-7.251181639698044,1.288249551693134,-5.415951342635071,1.288249551693134,-4.24134028191281,1.288249551693134,-3.525205512553638,1.288249551693134,-3.073618806917025,1.288249551693134,-2.747207081162431,1.288249551693134,-2.460921699771756,1.288249551693134,-2.169496457861596,1.288249551693134,-1.851810886462447,1.288249551693134,-1.501969243870724,1.288249551693134,-1.126450428922806,1.288249551693134,-0.7443104663682547
1.318256738556407,-19.98708352780748,1.318256738556407,-13.72497766833186,1.318256738556407,-9.917183312950023,1.318256738556407,-7.251181639698046,1.318256738556407,-5.415951342635071,1.318256738556407,-4.24134028191281,1.318256738556407,-3.525205512553641,1.318256738556407,-3.073618806917029,1.318256738556407,-2.747207081162431,1.318256738556407,-2.460921699771756,1.318256738556407,-2.169496457861595,1.318256738556407,-1.85181088646245,1.318256738556407,-1.501969243870724,1.318256738556407,-1.126450428922809,1.318256738556407,-0.7443104663682558
1.348962882591653,-19.98708352780749,1.348962882591653,-13.72497766833185,1.348962882591653,-9.917183312950023,1.348962882591653,-7.251181639698045,1.348962882591653,-5.415951342635073,1.348962882591653,-4.241340281912811,1.348962882591653,-3.525205512553645,1.348962882591653,-3.073618806917026,1.348962882591653,-2.747207081162431,1.348962882591653,-2.460921699771754,1.348962882591653,-2.1694964578616,1.348962882591653,-1.851810886462451,1.348962882591653,-1.501969243870722,1.348962882591653,-1.126450428922805,1.348962882591653,-0.7443104663682558
1.380384264602885,-19.98708352780749,1.380384264602885,-13.72497766833185,1.380384264602885,-9.917183312950019,1.380384264602885,-7.251181639698045,1.380384264602885,-5.415951342635075,1.380384264602885,-4.241340281912811,1.380384264602885,-3.525205512553643,1.380384264602885,-3.073618806917025,1.380384264602885,-2.74720708116243,1.380384264602885,-2.46092169977175,1.380384264602885,-2.169496457861602,1.380384264602885,-1.851810886462451,1.380384264602885,-1.501969243870722,1.380384264602885,-1.126450428922806,1.380384264602885,-0.7443104663682558
1.412537544622754,-19.98708352780748,1.412537544622754,-13.72497766833185,1.412537544622754,-9.917183312950018,1.412537544622754,-7.251181639698046,1.412537544622754,-5.415951342635069,1.412537544622754,-4.241340281912806,1.412537544622754,-3.52520551255364,1.412537544622754,-3.073618806917025,1.412537544622754,-2.747207081162433,1.412537544622754,-2.460921699771755,1.412537544622754,-2.169496457861597,1.412537544622754,-1.851810886462451,1.412537544622754,-1.501969243870721,1.412537544622754,-1.126450428922809,1.412537544622754,-0.7443104663682516
1.445439770745927,-19.98708352780748,1.445439770745927,-13.72497766833185,1.445439770745927,-9.917183312950018,1.445439770745927,-7.251181639698045,1.445439770745927,-5.415951342635076,1.445439770745927,-4.241340281912806,1.445439770745927,-3.52520551255364,1.445439770745927,-3.073618806917025,1.445439770745927,-2.747207081162431,1.445439770745927,-2.460921699771754,1.445439770745927,-2.169496457861602,1.445439770745927,-1.851810886462455,1.445439770745927,-1.501969243870726,1.445439770745927,-1.126450428922809,1.445439770745927,-0.7443104663682569
1.479108388168207,-19.98708352780749,1.479108388168207,-13.72497766833185,1.479108388168207,-9.917183312950018,1.479108388168207,-7.251181639698044,1.479108388168207,-5.415951342635069,1.479108388168207,-4.241340281912804,1.479108388168207,-3.525205512553645,1.479108388168207,-3.073618806917025,1.479108388168207,-2.747207081162431,1.479108388168207,-2.460921699771755,1.479108388168207,-2.169496457861603,1.479108388168207,-1.851810886462453,1.479108388168207,-1.501969243870724,1.479108388168207,-1.126450428922809,1.479108388168207,-0.7443104663682537
1.513561248436208,-19.98708352780748,1.513561248436208,-13.72497766833185,1.513561248436208,-9.917183312950021,1.513561248436208,-7.251181639698044,1.513561248436208,-5.415951342635067,1.513561248436208,-4.24134028191281,1.513561248436208,-3.52520551255364,1.513561248436208,-3.073618806917023,1.513561248436208,-2.747207081162433,1.513561248436208,-2.460921699771756,1.513561248436208,-2.169496457861599,1.513561248436208,-1.851810886462449,1.513561248436208,-1.501969243870725,1.513561248436208,-1.126450428922809,1.513561248436208,-0.7443104663682579
1.548816618912481,-19.98708352780747,1.548816618912481,-13.72497766833185,1.548816618912481,-9.917183312950025,1.548816618912481,-7.251181639698042,1.548816618912481,-5.415951342635067,1.548816618912481,-4.24134028191281,1.548816618912481,-3.525205512553638,1.548816618912481,-3.073618806917028,1.548816618912481,-2.747207081162431,1.548816618912481,-2.460921699771754,1.548816618912481,-2.169496457861597,1.548816618912481,-1.851810886462454,1.548816618912481,-1.501969243870725,1.548816618912481,-1.126450428922812,1.548816618912481,-0.7443104663682589
1.584893192461113,-19.98708352780748,1.584893192461113,-13.72497766833185,1.584893192461113,-9.917183312950021,1.584893192461113,-7.251181639698039,1.584893192461113,-5.415951342635067,1.584893192461113,-4.24134028191281,1.584893192461113,-3.525205512553641,1.584893192461113,-3.073618806917028,1.584893192461113,-2.747207081162431,1.584893192461113,-2.460921699771755,1.584893192461113,-2.169496457861599,1.584893192461113,-1.851810886462451,1.584893192461113,-1.501969243870725,1.584893192461113,-1.126450428922812,1.584893192461113,-0.7443104663682547
1.621810097358929,-19.98708352780747,1.621810097358929,-13.72497766833185,1.621810097358929,-9.917183312950021,1.621810097358929,-7.251181639698042,1.621810097358929,-5.415951342635067,1.621810097358929,-4.241340281912811,1.621810097358929,-3.52520551255364,1.621810097358929,-3.073618806917028,1.621810097358929,-2.74720708116243,1.621810097358929,-2.460921699771756,1.621810097358929,-2.169496457861601,1.621810097358929,-1.85181088646245,1.621810097358929,-1.501969243870723,1.621810097358929,-1.126450428922807,1.621810097358929,-0.7443104663682537
1.65958690743756,-19.98708352780748,1.65958690743756,-13.72497766833185,1.65958690743756,-9.917183312950018,1.65958690743756,-7.25118163969804,1.65958690743756,-5.415951342635067,1.65958690743756,-4.241340281912811,1.65958690743756,-3.525205512553645,1.65958690743756,-3.073618806917028,1.65958690743756,-2.747207081162431,1.65958690743756,-2.460921699771761,1.65958690743756,-2.169496457861597,1.65958690743756,-1.851810886462449,1.65958690743756,-1.501969243870723,1.65958690743756,-1.126450428922807,1.65958690743756,-0.7443104663682569
1.698243652461743,-19.98708352780749,1.698243652461743,-13.72497766833186,1.698243652461743,-9.917183312950018,1.698243652461743,-7.251181639698042,1.698243652461743,-5.415951342635071,1.698243652461743,-4.24134028191281,1.698243652461743,-3.52520551255364,1.698243652461743,-3.073618806917031,1.698243652461743,-2.747207081162431,1.698243652461743,-2.460921699771755,1.698243652461743,-2.169496457861601,1.698243652461743,-1.85181088646245,1.698243652461743,-1.501969243870722,1.698243652461743,-1.126450428922809,1.698243652461743,-0.7443104663682558
1.737800828749374,-19.9870835278075,1.737800828749374,-13.72497766833185,1.737800828749374,-9.917183312950023,1.737800828749374,-7.251181639698044,1.737800828749374,-5.415951342635069,1.737800828749374,-4.241340281912811,1.737800828749374,-3.525205512553647,1.737800828749374,-3.073618806917026,1.737800828749374,-2.74720708116243,1.737800828749374,-2.460921699771754,1.737800828749374,-2.169496457861603,1.737800828749374,-1.851810886462451,1.737800828749374,-1.501969243870722,1.737800828749374,-1.126450428922809,1.737800828749374,-0.7443104663682547
1.778279410038922,-19.98708352780749,1.778279410038922,-13.72497766833185,1.778279410038922,-9.917183312950021,1.778279410038922,-7.25118163969804,1.778279410038922,-5.415951342635076,1.778279410038922,-4.241340281912812,1.778279410038922,-3.525205512553647,1.778279410038922,-3.073618806917031,1.778279410038922,-2.747207081162435,1.778279410038922,-2.460921699771756,1.778279410038922,-2.169496457861599,1.778279410038922,-1.851810886462451,1.778279410038922,-1.501969243870723,1.778279410038922,-1.126450428922807,1.778279410038922,-0.7443104663682611
1.819700858609982,-19.98708352780748,1.819700858609982,-13.72497766833185,1.819700858609982,-9.917183312950018,1.819700858609982,-7.25118163969804,1.819700858609982,-5.415951342635071,1.819700858609982,-4.241340281912807,1.819700858609982,-3.525205512553647,1.819700858609982,-3.073618806917029,1.819700858609982,-2.747207081162434,1.819700858609982,-2.460921699771756,1.819700858609982,-2.169496457861597,1.819700858609982,-1.85181088646245,1.819700858609982,-1.501969243870723,1.819700858609982,-1.126450428922807,1.819700858609982,-0.7443104663682579
1.862087136662866,-19.9870835278075,1.862087136662866,-13.72497766833185,1.862087136662866,-9.917183312950023,1.862087136662866,-7.251181639698044,1.862087136662866,-5.415951342635073,1.862087136662866,-4.241340281912811,1.862087136662866,-3.525205512553641,1.862087136662866,-3.073618806917025,1.862087136662866,-2.747207081162433,1.862087136662866,-2.460921699771752,1.862087136662866,-2.169496457861599,1.862087136662866,-1.851810886462451,1.862087136662866,-1.501969243870726,1.862087136662866,-1.126450428922809,1.862087136662866,-0.7443104663682547
1.905460717963246,-19.98708352780749,1.905460717963246,-13.72497766833185,1.905460717963246,-9.917183312950023,1.905460717963246,-7.251181639698046,1.905460717963246,-5.415951342635071,1.905460717963246,-4.241340281912812,1.905460717963246,-3.525205512553637,1.905460717963246,-3.073618806917026,1.905460717963246,-2.747207081162433,1.905460717963246,-2.460921699771756,1.905460717963246,-2.169496457861602,1.905460717963246,-1.851810886462453,1.905460717963246,-1.501969243870723,1.905460717963246,-1.126450428922806,1.905460717963246,-0.7443104663682558
1.949844599758044,-19.98708352780749,1.949844599758044,-13.72497766833185,1.949844599758044,-9.917183312950025,1.949844599758044,-7.25118163969804,1.949844599758044,-5.415951342635069,1.949844599758044,-4.241340281912807,1.949844599758044,-3.525205512553641,1.949844599758044,-3.073618806917025,1.949844599758044,-2.747207081162429,1.949844599758044,-2.460921699771755,1.949844599758044,-2.169496457861601,1.949844599758044,-1.85181088646245,1.949844599758044,-1.501969243870723,1.949844599758044,-1.126450428922807,1.949844599758044,-0.7443104663682547
1.995262314968878,-19.98708352780748,1.995262314968878,-13.72497766833185,1.995262314968878,-9.917183312950025,1.995262314968878,-7.25118163969804,1.995262314968878,-5.415951342635075,1.995262314968878,-4.24134028191281,1.995262314968878,-3.52520551255364,1.995262314968878,-3.073618806917029,1.995262314968878,-2.747207081162434,1.995262314968878,-2.460921699771756,1.995262314968878,-2.169496457861597,1.995262314968878,-1.851810886462449,1.995262314968878,-1.501969243870723,1.995262314968878,-1.126450428922812,1.995262314968878,-0.7443104663682589
2.041737944669527,-19.98708352780748,2.041737944669527,-13.72497766833185,2.041737944669527,-9.917183312950025,2.041737944669527,-7.251181639698046,2.041737944669527,-5.415951342635067,2.041737944669527,-4.241340281912811,2.041737944669527,-3.525205512553643,2.041737944669527,-3.073618806917029,2.041737944669527,-2.747207081162431,2.041737944669527,-2.460921699771755,2.041737944669527,-2.169496457861596,2.041737944669527,-1.85181088646245,2.041737944669527,-1.501969243870726,2.041737944669527,-1.126450428922811,2.041737944669527,-0.7443104663682589
2.089296130854037,-19.98708352780747,2.089296130854037,-13.72497766833185,2.089296130854037,-9.917183312950026,2.089296130854037,-7.251181639698043,2.089296130854037,-5.415951342635069,2.089296130854037,-4.24134028191281,2.089296130854037,-3.525205512553643,2.089296130854037,-3.073618806917028,2.089296130854037,-2.747207081162431,2.089296130854037,-2.460921699771754,2.089296130854037,-2.169496457861596,2.089296130854037,-1.851810886462456,2.089296130854037,-1.501969243870723,2.089296130854037,-1.126450428922809,2.089296130854037,-0.7443104663682547
2.13796208950223,-19.98708352780749,2.13796208950223,-13.72497766833185,2.13796208950223,-9.917183312950018,2.13796208950223,-7.251181639698042,2.13796208950223,-5.415951342635067,2.13796208950223,-4.241340281912807,2.13796208950223,-3.525205512553638,2.13796208950223,-3.073618806917021,2.13796208950223,-2.747207081162425,2.13796208950223,-2.460921699771754,2.13796208950223,-2.169496457861596,2.13796208950223,-1.851810886462451,2.13796208950223,-1.501969243870722,2.13796208950223,-1.126450428922807,2.13796208950223,-0.7443104663682527
