;Version, 1, 0
;ac_gain (VCTRL=0.02),;ac_gain (VCTRL=0.04),;ac_gain (VCTRL=0.06),;ac_gain (VCTRL=0.08),;ac_gain (VCTRL=0.1),;ac_gain (VCTRL=0.12),;ac_gain (VCTRL=0.14),;ac_gain (VCTRL=0.16),;ac_gain (VCTRL=0.18),;ac_gain (VCTRL=0.2),;ac_gain (VCTRL=0.22),;ac_gain (VCTRL=0.24),;ac_gain (VCTRL=0.26),;ac_gain (VCTRL=0.28),;ac_gain (VCTRL=0.3)
;X, Y,;X, Y,;X, Y,;X, Y,;X, Y,;X, Y,;X, Y,;X, Y,;X, Y,;X, Y,;X, Y,;X, Y,;X, Y,;X, Y,;X, Y
;Re, Re,;Re, Re,;Re, Re,;Re, Re,;Re, Re,;Re, Re,;Re, Re,;Re, Re,;Re, Re,;Re, Re,;Re, Re,;Re, Re,;Re, Re,;Re, Re,;Re, Re
;freq, V,;freq, V,;freq, V,;freq, V,;freq, V,;freq, V,;freq, V,;freq, V,;freq, V,;freq, V,;freq, V,;freq, V,;freq, V,;freq, V,;freq, V
;Hz, dB,;Hz, dB,;Hz, dB,;Hz, dB,;Hz, dB,;Hz, dB,;Hz, dB,;Hz, dB,;Hz, dB,;Hz, dB,;Hz, dB,;Hz, dB,;Hz, dB,;Hz, dB,;Hz, dB
1000000,-15.56725157434228,1000000,-9.628728683124127,1000000,-6.604274767848853,1000000,-5.288036936233248,1000000,-5.10678985319997,1000000,-5.234583476719764,1000000,-5.27713314067885,1000000,-4.878551932700575,1000000,-4.333327491230306,1000000,-3.782585761830075,1000000,-3.297234251858275,1000000,-2.902268171899725,1000000,-2.599915625854587,1000000,-2.379162919937408,1000000,-2.222471688612533
1002305.2380779,-15.567252538871,1002305.2380779,-9.628729779593957,1002305.2380779,-6.604276137364456,1002305.2380779,-5.288038680707925,1002305.2380779,-5.106791637498002,1002305.2380779,-5.234584714814853,1002305.2380779,-5.277133853788182,1002305.2380779,-4.878552368866564,1002305.2380779,-4.333327787382574,1002305.2380779,-3.782585979884645,1002305.2380779,-3.297234423806727,1002305.2380779,-2.902268315981693,1002305.2380779,-2.599915753040752,1002305.2380779,-2.379163036985808,1002305.2380779,-2.222471799724433
1004615.790278395,-15.56725350785103,1004615.790278395,-9.628730881123793,1004615.790278395,-6.604277513199449,1004615.790278395,-5.288040433230703,1004615.790278395,-5.106793430025654,1004615.790278395,-5.234585958618985,1004615.790278395,-5.277134570185352,1004615.790278395,-4.878552807043424,1004615.790278395,-4.333328084900113,1004615.790278395,-3.782586198944403,1004615.790278395,-3.297234596547833,1004615.790278395,-2.902268460727831,1004615.790278395,-2.599915880813195,1004615.790278395,-2.379163154573792,1004615.790278395,-2.222471911348583
1006931.668851804,-15.56725448130286,1006931.668851804,-9.628731987736904,1006931.668851804,-6.604278895382971,1006931.668851804,-5.288042193838673,1006931.668851804,-5.106795230820828,1006931.668851804,-5.234587208158478,1006931.668851804,-5.277135289885512,1006931.668851804,-4.878553247240348,1006931.668851804,-4.333328383789209,1006931.668851804,-3.782586419014019,1006931.668851804,-3.2972347700852,1006931.668851804,-2.902268606141186,1006931.668851804,-2.599916009174632,1006931.668851804,-2.379163272703829,1006931.668851804,-2.22247202348731
1009252.886076684,-15.56725545924718,1009252.886076684,-9.628733099456797,1009252.886076684,-6.604280283944342,1009252.886076684,-5.288043962569136,1009252.886076684,-5.106797039921662,1009252.886076684,-5.234588463459736,1009252.886076684,-5.27713601290388,1009252.886076684,-4.878553689466715,1009252.886076684,-4.333328684056189,1009252.886076684,-3.782586640098098,1009252.886076684,-3.297234944422539,1009252.886076684,-2.902268752224856,1009252.886076684,-2.599916138127784,1009252.886076684,-2.379163391378437,1009252.886076684,-2.22247213614301
1011579.454259898,-15.56725644170463,1011579.454259898,-9.628734216306968,1011579.454259898,-6.604281678912871,1011579.454259898,-5.288045739459483,1011579.454259898,-5.106798857366341,1011579.454259898,-5.234589724549258,1011579.454259898,-5.277136739255662,1011579.454259898,-4.878554133731759,1011579.454259898,-4.33332898570734,1011579.454259898,-3.782586862201271,1011579.454259898,-3.297235119563447,1011579.454259898,-2.902268898981873,1011579.454259898,-2.599916267675312,1011579.454259898,-2.379163510600044,1011579.454259898,-2.222472249317986
1013911.385736679,-15.56725742869613,1013911.385736679,-9.628735338311156,1013911.385736679,-6.604283080318247,1013911.385736679,-5.288047524547441,1013911.385736679,-5.106800683193426,1013911.385736679,-5.234590991453777,1013911.385736679,-5.277137468956325,1013911.385736679,-4.878554580044981,1013911.385736679,-4.333329288749115,1013911.385736679,-3.782587085328314,1013911.385736679,-3.297235295511737,1013911.385736679,-2.902269046415396,1013911.385736679,-2.599916397820028,1013911.385736679,-2.379163630371289,1013911.385736679,-2.222472363014719
1016248.692870695,-15.56725842024253,1016248.692870695,-9.62873646549308,1016248.692870695,-6.60428448819008,1016248.692870695,-5.2880493178707,1016248.692870695,-5.106802517441477,1016248.692870695,-5.234592264200023,1016248.692870695,-5.277138202021205,1016248.692870695,-4.878555028415762,1016248.692870695,-4.333329593187859,1016248.692870695,-3.782587309483894,1016248.692870695,-3.297235472271027,1016248.692870695,-2.902269194528512,1016248.692870695,-2.599916528564648,1016248.692870695,-2.3791637506946,1016248.692870695,-2.222472477235583
1018591.388054117,-15.56725941636486,1018591.388054117,-9.628737597876659,1018591.388054117,-6.604285902558206,1018591.388054117,-5.288051119467298,1018591.388054117,-5.106804360149297,1018591.388054117,-5.234593542814902,1018591.388054117,-5.277138938465791,1018591.388054117,-4.878555478853515,1018591.388054117,-4.333329899029986,1018591.388054117,-3.78258753467271,1018591.388054117,-3.297235649845073,1018591.388054117,-2.902269343324275,1018591.388054117,-2.599916659911892,1018591.388054117,-2.379163871572527,1018591.388054117,-2.222472591982917
1020939.483707679,-15.56726041708428,1020939.483707679,-9.628738735485914,1020939.483707679,-6.604287323452632,1020939.483707679,-5.288052929375389,1020939.483707679,-5.106806211355942,1020939.483707679,-5.234594827325527,1020939.483707679,-5.277139678305734,1020939.483707679,-4.878555931367897,1020939.483707679,-4.333330206282072,1020939.483707679,-3.782587760899633,1020939.483707679,-3.297235828237695,1020939.483707679,-2.902269492805988,1020939.483707679,-2.599916791864632,1020939.483707679,-2.379163993007718,1020939.483707679,-2.222472707259296
1023292.992280754,-15.56726142242195,1023292.992280754,-9.628739878344881,1023292.992280754,-6.604288750903394,1023292.992280754,-5.288054747633245,1023292.992280754,-5.106808071100495,1023292.992280754,-5.234596117758925,1023292.992280754,-5.277140421556545,1023292.992280754,-4.878556385968317,1023292.992280754,-4.33333051495043,1023292.992280754,-3.782587988169294,1023292.992280754,-3.297236007452546,1023292.992280754,-2.902269642976651,1023292.992280754,-2.599916924425536,1023292.992280754,-2.379164115002591,1023292.992280754,-2.222472823066983
1025651.926251407,-15.5672624323992,1025651.926251407,-9.628741026477874,1025651.926251407,-6.604290184940811,1025651.926251407,-5.288056574279434,1025651.926251407,-5.106809939422368,1025651.926251407,-5.234597414142492,1025651.926251407,-5.277141168234042,1025651.926251407,-4.878556842664498,1025651.926251407,-4.333330825041711,1025651.926251407,-3.782588216486606,1025651.926251407,-3.297236187493509,1025651.926251407,-2.902269793839552,1025651.926251407,-2.599917057597513,1025651.926251407,-2.379164237559852,1025651.926251407,-2.222472939408569
1028016.298126473,-15.56726344703745,1028016.298126473,-9.628742179909159,1028016.298126473,-6.604291625595231,1028016.298126473,-5.28805840935259,1028016.298126473,-5.10681181636108,1028016.298126473,-5.234598716503595,1028016.298126473,-5.277141918353965,1028016.298126473,-4.878557301466045,1028016.298126473,-4.333331136562484,1028016.298126473,-3.782588445856361,1028016.298126473,-3.297236368364363,1028016.298126473,-2.902269945397824,1028016.298126473,-2.599917191383321,1028016.298126473,-2.379164360682043,1028016.298126473,-2.222473056286447
1030386.120441615,-15.56726446635814,1030386.120441615,-9.628743338663179,1030386.120441615,-6.604293072897137,1030386.120441615,-5.288060252891526,1030386.120441615,-5.106813701956256,1030386.120441615,-5.2346000248697,1030386.120441615,-5.27714267193211,1030386.120441615,-4.878557762382593,1030386.120441615,-4.333331449519195,1030386.120441615,-3.782588676283351,1030386.120441615,-3.297236550068861,1030386.120441615,-2.902270097654623,1030386.120441615,-2.599917325785767,1030386.120441615,-2.379164484371714,1030386.120441615,-2.22247317370304
1032761.405761397,-15.56726549038301,1032761.405761397,-9.628744502764565,1032761.405761397,-6.60429452687727,1032761.405761397,-5.288062104935419,1032761.405761397,-5.106815596247923,1032761.405761397,-5.234601339268618,1032761.405761397,-5.277143428984516,1032761.405761397,-4.878558225424021,1032761.405761397,-4.3333317639186,1032761.405761397,-3.78258890777255,1032761.405761397,-3.297236732610962,1032761.405761397,-2.902270250613288,1032761.405761397,-2.599917460807749,1032761.405761397,-2.37916460863159,1032761.405761397,-2.222473291660958
1035142.166679343,-15.56726651913357,1035142.166679343,-9.628745672237878,1035142.166679343,-6.604295987566331,1035142.166679343,-5.288063965523309,1035142.166679343,-5.106817499276017,1035142.166679343,-5.234602659727948,1035142.166679343,-5.277144189527043,1035142.166679343,-4.878558690599949,1035142.166679343,-4.333332079767198,1035142.166679343,-3.782589140328708,1035142.166679343,-3.297236915994356,1035142.166679343,-2.902270404276893,1035142.166679343,-2.599917596452025,1035142.166679343,-2.379164733464149,1035142.166679343,-2.22247341016252
1037528.415818012,-15.56726755263183,1037528.415818012,-9.628746847108003,1037528.415818012,-6.604297454995395,1037528.415818012,-5.288065834694737,1037528.415818012,-5.106819411080933,1037528.415818012,-5.234603986275788,1037528.415818012,-5.27714495357589,1037528.415818012,-4.878559157920328,1037528.415818012,-4.333332397071825,1037528.415818012,-3.782589373956878,1037528.415818012,-3.297237100223113,1037528.415818012,-2.902270558648825,1037528.415818012,-2.599917732721579,1037528.415818012,-2.379164858872178,1037528.415818012,-2.222473529210401
1039920.165829058,-15.56726859089956,1039920.165829058,-9.628748027399757,1039920.165829058,-6.604298929195441,1039920.165829058,-5.288067712489208,1039920.165829058,-5.106821331702992,1039920.165829058,-5.234605318940051,1039920.165829058,-5.27714572114711,1039920.165829058,-4.878559627394953,1039920.165829058,-4.333332715839055,1039920.165829058,-3.782589608661878,1039920.165829058,-3.297237285300939,1039920.165829058,-2.902270713732247,1039920.165829058,-2.599917869619184,1039920.165829058,-2.3791649848582,1039920.165829058,-2.222473648806959
1042317.429393303,-15.56726963395885,1042317.429393303,-9.628749213138274,1042317.429393303,-6.604300410197799,1042317.429393303,-5.288069598946516,1042317.429393303,-5.106823261182969,1042317.429393303,-5.234606657749002,1042317.429393303,-5.277146492257034,1042317.429393303,-4.878560099033841,1042317.429393303,-4.333333036075718,1042317.429393303,-3.782589844448799,1042317.429393303,-3.297237471231921,1042317.429393303,-2.902270869530525,1042317.429393303,-2.599918007147851,1042317.429393303,-2.379165111424994,1042317.429393303,-2.222473768954904
1044720.219220799,-15.56727068183171,1044720.219220799,-9.628750404348512,1044720.219220799,-6.604301898033735,1044720.219220799,-5.288071494106535,1044720.219220799,-5.106825199561515,1044720.219220799,-5.234608002730843,1044720.219220799,-5.277147266921797,1044720.219220799,-4.878560572846829,1044720.219220799,-4.333333357788453,1044720.219220799,-3.782590081322461,1044720.219220799,-3.297237658019814,1044720.219220799,-2.902271026046845,1044720.219220799,-2.599918145310324,1044720.219220799,-2.379165238575118,1044720.219220799,-2.222473889656578
1047128.548050899,-15.56727173454043,1047128.548050899,-9.628751601055839,1047128.548050899,-6.604303392734835,1047128.548050899,-5.288073398009451,1047128.548050899,-5.106827146879736,1047128.548050899,-5.234609353914057,1047128.548050899,-5.277148045157873,1047128.548050899,-4.878561048843999,1047128.548050899,-4.333333680984164,1047128.548050899,-3.782590319287973,1047128.548050899,-3.297237845668657,1047128.548050899,-2.902271183284558,1047128.548050899,-2.599918284109637,1047128.548050899,-2.37916536631132,1047128.548050899,-2.222474010914659
1049542.428652321,-15.56727279210729,1049542.428652321,-9.62875280328554,1049542.428652321,-6.60430489433275,1049542.428652321,-5.288075310695547,1049542.428652321,-5.106829103178788,1049542.428652321,-5.23461071132718,1049542.428652321,-5.277148826981674,1049542.428652321,-4.878561527035353,1049542.428652321,-4.333334005669585,1049542.428652321,-3.782590558350285,1049542.428652321,-3.297238034182372,1049542.428652321,-2.902271341246999,1049542.428652321,-2.599918423548659,1049542.428652321,-2.379165494636268,1049542.428652321,-2.222474132731634
1051961.873823222,-15.56727385455474,1051961.873823222,-9.628754011063174,1051961.873823222,-6.604306402859316,1051961.873823222,-5.288077232205356,1051961.873823222,-5.106831068500113,1051961.873823222,-5.234612074998989,1051961.873823222,-5.277149612409758,1051961.873823222,-4.878562007431093,1051961.873823222,-4.333334331851693,1051961.873823222,-3.782590798514544,1051961.873823222,-3.297238223564995,1051961.873823222,-2.9022714999375,1051961.873823222,-2.599918563630396,1051961.873823222,-2.379165623552732,1051961.873823222,-2.22247425511014
1054386.896391258,-15.56727492190524,1054386.896391258,-9.628755224414286,1054386.896391258,-6.604307918346447,1054386.896391258,-5.288079162579516,1054386.896391258,-5.106833042885205,1054386.896391258,-5.234613444958182,1054386.896391258,-5.277150401458655,1054386.896391258,-4.87856249004126,1054386.896391258,-4.333334659537258,1054386.896391258,-3.782591039785724,1054386.896391258,-3.297238413820449,1054386.896391258,-2.90227165935937,1054386.896391258,-2.599918704357745,1054386.896391258,-2.379165753063341,1054386.896391258,-2.222474378052706
1056817.509213657,-15.5672759941815,1056817.509213657,-9.628756443364644,1056817.509213657,-6.604309440826334,1056817.509213657,-5.288081101858978,1056817.509213657,-5.10683502637594,1056817.509213657,-5.234614821233852,1056817.509213657,-5.277151194145135,1056817.509213657,-4.878562974876183,1056817.509213657,-4.333334988733347,1056817.509213657,-3.782591282169056,1056817.509213657,-3.297238604952894,1056817.509213657,-2.902271819516096,1056817.509213657,-2.599918845733792,1056817.509213657,-2.379165883170969,1056817.509213657,-2.222474501562024
1059253.725177287,-15.56727707140615,1059253.725177287,-9.628757667939979,1059253.725177287,-6.60431097033111,1059253.725177287,-5.288083050084688,1059253.725177287,-5.10683701901414,1059253.725177287,-5.234616203854967,1059253.725177287,-5.27715199048582,1059253.725177287,-4.878563461945923,1059253.725177287,-4.333335319446746,1059253.725177287,-3.782591525669472,1059253.725177287,-3.297238796966165,1059253.725177287,-2.902271980410869,1059253.725177287,-2.599918987761342,1059253.725177287,-2.379166013878192,1059253.725177287,-2.222474625640551
1061695.557198723,-15.56727815360208,1061695.557198723,-9.628758898166311,1061695.557198723,-6.604312506893264,1061695.557198723,-5.28808500729798,1061695.557198723,-5.106839020842044,1061695.557198723,-5.234617592850805,1061695.557198723,-5.277152790497616,1061695.557198723,-4.878563951260904,1061695.557198723,-4.333335651684514,1061695.557198723,-3.782591770292231,1061695.557198723,-3.297238989864443,1061695.557198723,-2.902272142047235,1061695.557198723,-2.599919130443514,1061695.557198723,-2.379166145187886,1061695.557198723,-2.222474750291024
1064143.018224314,-15.56727924079222,1064143.018224314,-9.628760134069712,1064143.018224314,-6.604314050545323,1064143.018224314,-5.28808697354023,1064143.018224314,-5.106841031901974,1064143.018224314,-5.23461898825073,1064143.018224314,-5.277153594197422,1064143.018224314,-4.878564442831411,1064143.018224314,-4.333335985453687,1064143.018224314,-3.7825920160425,1064143.018224314,-3.297239183651794,1064143.018224314,-2.902272304428568,1064143.018224314,-2.599919273783303,1064143.018224314,-2.379166277102782,1064143.018224314,-2.222474875516037
1066596.121230256,-15.56728033299961,1066596.121230256,-9.628761375676374,1066596.121230256,-6.604315601319997,1066596.121230256,-5.288088948853123,1066596.121230256,-5.106843052236477,1066596.121230256,-5.234620390084245,1066596.121230256,-5.277154401602214,1066596.121230256,-4.87856493666785,1066596.121230256,-4.3333363207613,1066596.121230256,-3.782592262925432,1066596.121230256,-3.297239378332285,1066596.121230256,-2.902272467558284,1066596.121230256,-2.599919417783744,1066596.121230256,-2.379166409625698,1066596.121230256,-2.222475001318259
1069054.879222656,-15.56728143024735,1069054.879222656,-9.628762623012559,1069054.879222656,-6.604317159250098,1069054.879222656,-5.28809093327842,1069054.879222656,-5.106845081888246,1069054.879222656,-5.234621798380911,1069054.879222656,-5.277155212728974,1069054.879222656,-4.878565432780574,1069054.879222656,-4.333336657614371,1069054.879222656,-3.782592510946225,1069054.879222656,-3.297239573909986,1069054.879222656,-2.902272631439783,1069054.879222656,-2.599919562447786,1069054.879222656,-2.379166542759358,1069054.879222656,-2.222475127700273
1071519.305237605,-15.56728253255879,1071519.305237605,-9.628763876104744,1071519.305237605,-6.604318724368681,1071519.305237605,-5.288092926858207,1071519.305237605,-5.106847120900269,1071519.305237605,-5.234623213170555,1071519.305237605,-5.277156027594946,1071519.305237605,-4.878565931180164,1071519.305237605,-4.333336996020117,1071519.305237605,-3.782592760110153,1071519.305237605,-3.297239770389098,1071519.305237605,-2.902272796076611,1071519.305237605,-2.599919707778604,1071519.305237605,-2.379166676506635,1071519.305237605,-2.222475254664825
1073989.412341243,-15.56728363995722,1073989.412341243,-9.628765134979465,1073989.412341243,-6.604320296708878,1073989.412341243,-5.288094929634639,1073989.412341243,-5.106849169315649,1073989.412341243,-5.23462463448308,1073989.412341243,-5.277156846217274,1073989.412341243,-4.878566431877112,1073989.412341243,-4.33333733598563,1073989.412341243,-3.782593010422472,1073989.412341243,-3.297239967773753,1073989.412341243,-2.902272961472206,1073989.412341243,-2.599919853779218,1073989.412341243,-2.379166810870361,1073989.412341243,-2.222475382214571
1076465.213629833,-15.56728475246619,1076465.213629833,-9.628766399663471,1076465.213629833,-6.60432187630405,1076465.213629833,-5.288096941650172,1076465.213629833,-5.106851227177756,1076465.213629833,-5.234626062348546,1076465.213629833,-5.277157668613353,1076465.213629833,-4.878566934882014,1076465.213629833,-4.333337677518144,1076465.213629833,-3.782593261888517,1076465.213629833,-3.297240166068131,1076465.213629833,-2.902273127630096,1076465.213629833,-2.599920000452758,1076465.213629833,-2.379166945853405,1076465.213629833,-2.222475510352256
1078946.722229827,-15.56728587010913,1078946.722229827,-9.628767670183423,1078946.722229827,-6.604323463187537,1078946.722229827,-5.288098962947296,1078946.722229827,-5.106853294529987,1078946.722229827,-5.234627496797005,1078946.722229827,-5.277158494800397,1078946.722229827,-4.878567440205388,1078946.722229827,-4.333338020624723,1078946.722229827,-3.782593514513453,1078946.722229827,-3.297240365276338,1078946.722229827,-2.90227329455366,1078946.722229827,-2.59992014780219,1078946.722229827,-2.379167081458457,1078946.722229827,-2.222475639080434
1081433.951297936,-15.56728699290993,1081433.951297936,-9.628768946566392,1081433.951297936,-6.604325057393105,1081433.951297936,-5.288100993568919,1081433.951297936,-5.106855371416271,1081433.951297936,-5.234628937858949,1081433.951297936,-5.277159324796015,1081433.951297936,-4.878567947858079,1081433.951297936,-4.333338365312815,1081433.951297936,-3.782593768302765,1081433.951297936,-3.297240565402686,1081433.951297936,-2.902273462246615,1081433.951297936,-2.599920295830775,1081433.951297936,-2.379167217688582,1081433.951297936,-2.222475768402023
