;Version, 1, 0
;dc_out (VCTRL=0.02),;dc_out (VCTRL=0.04),;dc_out (VCTRL=0.06),;dc_out (VCTRL=0.08),;dc_out (VCTRL=0.1),;dc_out (VCTRL=0.12),;dc_out (VCTRL=0.14),;dc_out (VCTRL=0.16),;dc_out (VCTRL=0.18),;dc_out (VCTRL=0.2)
;X, Y,;X, Y,;X, Y,;X, Y,;X, Y,;X, Y,;X, Y,;X, Y,;X, Y,;X, Y
;Re, Re,;Re, Re,;Re, Re,;Re, Re,;Re, Re,;Re, Re,;Re, Re,;Re, Re,;Re, Re,;Re, Re
;vin, V,;vin, V,;vin, V,;vin, V,;vin, V,;vin, V,;vin, V,;vin, V,;vin, V,;vin, V
;xunit, V,;xunit, V,;xunit, V,;xunit, V,;xunit, V,;xunit, V,;xunit, V,;xunit, V,;xunit, V,;xunit, V
-0.4,-0.02476337806198192,-0.4,-0.0504579443359775,-0.4,-0.07791573617705294,-0.4,-0.1074142547528472,-0.4,-0.1392057145454278,-0.4,-0.1740608874312963,-0.4,-0.2122936058091415,-0.4,-0.250818391220471,-0.4,-0.2888148504286606,-0.4,-0.3262717443167752
-0.3999,-0.02476274612564255,-0.3999,-0.05045666707841456,-0.3999,-0.07791375998819872,-0.3999,-0.1074115401343168,-0.3999,-0.1392021644364463,-0.3999,-0.1740562925065586,-0.3999,-0.2122881837676074,-0.3999,-0.2508128087571858,-0.3999,-0.2888091483000244,-0.3999,-0.3262659013362365
-0.3998,-0.02476213554075668,-0.3998,-0.05045543426611832,-0.3998,-0.07791186472183997,-0.3998,-0.1074089454346954,-0.3998,-0.1391987725038727,-0.3998,-0.1740519011404142,-0.3998,-0.2122831540077669,-0.3998,-0.250807650584185,-0.3998,-0.2888038841398447,-0.3998,-0.3262605319288384
-0.3997000000000001,-0.0247615243782171,-0.3997000000000001,-0.05045420030819803,-0.3997000000000001,-0.07790996769065794,-0.3997000000000001,-0.1074063482746899,-0.3997000000000001,-0.139195377284666,-0.3997000000000001,-0.1740475054210912,-0.3997000000000001,-0.2122781189876867,-0.3997000000000001,-0.2508024870012115,-0.3997000000000001,-0.2887986144360594,-0.3997000000000001,-0.3262551568304701
-0.3996000000000001,-0.02476091263660185,-0.3996000000000001,-0.05045296520182085,-0.3996000000000001,-0.07790806889032409,-0.3996000000000001,-0.1074037486483979,-0.3996000000000001,-0.1391919787711557,-0.3996000000000001,-0.1740431053387446,-0.3996000000000001,-0.2122730786953455,-0.3996000000000001,-0.2507973179959064,-0.3996000000000001,-0.2887933391760543,-0.3996000000000001,-0.3262497760282727
-0.3995000000000001,-0.02476030031448606,-0.3995000000000001,-0.05045172894414918,-0.3995000000000001,-0.07790616831650055,-0.3995000000000001,-0.1074011465499024,-0.3995000000000001,-0.1391885769556543,-0.3995000000000001,-0.1740387008835106,-0.3995000000000001,-0.2122680331186955,-0.3995000000000001,-0.2507921435558832,-0.3995000000000001,-0.2887880583471969,-0.3995000000000001,-0.3262443895093616
-0.3994000000000001,-0.02475968741044166,-0.3994000000000001,-0.0504504915323396,-0.3994000000000001,-0.07790426596483979,-0.3994000000000001,-0.1073985419732745,-0.3994000000000001,-0.13918517183046,-0.3994000000000001,-0.1740342920455027,-0.3994000000000001,-0.2122629822456638,-0.3994000000000001,-0.2507869636687298,-0.3994000000000001,-0.2887827719368231,-0.3994000000000001,-0.3262389972608231
-0.3993000000000001,-0.02475907392303556,-0.3993000000000001,-0.05044925296353797,-0.3993000000000001,-0.07790236183097898,-0.3993000000000001,-0.1073959349125692,-0.3993000000000001,-0.1391817633878466,-0.3993000000000001,-0.1740298788148079,-0.3993000000000001,-0.2122579260641441,-0.3993000000000001,-0.2507817783219949,-0.3993000000000001,-0.2887774799322345,-0.3993000000000001,-0.3262335992697084
-0.3992000000000001,-0.02475845985083325,-0.3992000000000001,-0.05044801323488635,-0.3992000000000001,-0.07790045591055106,-0.3992000000000001,-0.1073933253618264,-0.3992000000000001,-0.1391783516200747,-0.3992000000000001,-0.1740254611814989,-0.3992000000000001,-0.212252864562004,-0.3992000000000001,-0.2507765875032097,-0.3992000000000001,-0.288772182320709,-0.3992000000000001,-0.3262281955230427
-0.3991000000000001,-0.0247578451923961,-0.3991000000000001,-0.0504467723435178,-0.3991000000000001,-0.07789854819917397,-0.3991000000000001,-0.107390713315075,-0.3991000000000001,-0.1391749365193871,-0.3991000000000001,-0.1740210391356155,-0.3991000000000001,-0.2122477977270851,-0.3991000000000001,-0.2507713911998692,-0.3991000000000001,-0.2887668790894904,-0.3991000000000001,-0.3262227860078226
-0.3990000000000001,-0.02475722994628105,-0.3990000000000001,-0.05044553028656029,-0.3990000000000001,-0.07789663869245533,-0.3990000000000001,-0.1073880987663262,-0.3990000000000001,-0.1391715180780049,-0.3990000000000001,-0.1740166126671842,-0.3990000000000001,-0.2122427255471975,-0.3990000000000001,-0.2507661893994458,-0.3990000000000001,-0.288761570225797,-0.3990000000000001,-0.3262173707110126
-0.3989000000000001,-0.02475661411104169,-0.3989000000000001,-0.05044428706113313,-0.3989000000000001,-0.07789472738599468,-0.3989000000000001,-0.1073854817095783,-0.3989000000000001,-0.1391680962881329,-0.3989000000000001,-0.1740121817662026,-0.3989000000000001,-0.2122376480101237,-0.3989000000000001,-0.2507609820893728,-0.3989000000000001,-0.2887562557168136,-0.3989000000000001,-0.3262119496195436
-0.3988000000000002,-0.02475599768522929,-0.3988000000000002,-0.05044304266434962,-0.3988000000000002,-0.07789281427537753,-0.3988000000000002,-0.107382862138817,-0.3988000000000002,-0.1391646711419591,-0.3988000000000002,-0.1740077464226512,-0.3988000000000002,-0.2122325651036215,-0.3988000000000002,-0.2507557692570616,-0.3988000000000002,-0.2887509355496984,-0.3988000000000002,-0.3262065227203247
-0.3987000000000002,-0.02475538066739047,-0.3987000000000002,-0.05044179709331553,-0.3987000000000002,-0.07789089935618099,-0.3987000000000002,-0.1073802400480101,-0.3987000000000002,-0.1391612426316525,-0.3987000000000002,-0.174003306626486,-0.3987000000000002,-0.2122274768154158,-0.3987000000000002,-0.2507505508898955,-0.3987000000000002,-0.2887456097115771,-0.3987000000000002,-0.3262010900002281
-0.3986000000000002,-0.02475476305606905,-0.3986000000000002,-0.05044055034512973,-0.3986000000000002,-0.07788898262397115,-0.3986000000000002,-0.1073776154311137,-0.3986000000000002,-0.1391578107493637,-0.3986000000000002,-0.1739988623676385,-0.3986000000000002,-0.2122223831332061,-0.3986000000000002,-0.2507453269752243,-0.3986000000000002,-0.2887402781895508,-0.3986000000000002,-0.3261956514460995
-0.3985000000000002,-0.02475414484980454,-0.3985000000000002,-0.05043930241688421,-0.3985000000000002,-0.07788706407430246,-0.3985000000000002,-0.1073749882820699,-0.3985000000000002,-0.1391543754872246,-0.3985000000000002,-0.1739944136360209,-0.3985000000000002,-0.2122172840446604,-0.3985000000000002,-0.2507400975003713,-0.3985000000000002,-0.2887349409706859,-0.3985000000000002,-0.3261902070447522
-0.3984000000000002,-0.02475352604713343,-0.3984000000000002,-0.05043805330566287,-0.3984000000000002,-0.07788514370271826,-0.3984000000000002,-0.1073723585948037,-0.3984000000000002,-0.1391509368373508,-0.3984000000000002,-0.1739899604215199,-0.3984000000000002,-0.2122121795374217,-0.3984000000000002,-0.2507348624526268,-0.3984000000000002,-0.2887295980420173,-0.3984000000000002,-0.3261847567829722
-0.3983000000000002,-0.02475290664658869,-0.3983000000000002,-0.05043680300854503,-0.3983000000000002,-0.07788322150475435,-0.3983000000000002,-0.1073697263632294,-0.3983000000000002,-0.1391474947918385,-0.3983000000000002,-0.1739855027140021,-0.3983000000000002,-0.212207069599103,-0.3983000000000002,-0.2507296218192587,-0.3983000000000002,-0.288724249390559,-0.3983000000000002,-0.3261793006475137
-0.3982000000000002,-0.02475228664669959,-0.3982000000000002,-0.05043555152260004,-0.3982000000000002,-0.07788129747593109,-0.3982000000000002,-0.1073670915812432,-0.3982000000000002,-0.1391440493427645,-0.3982000000000002,-0.173981040503311,-0.3982000000000002,-0.212201954217287,-0.3982000000000002,-0.2507243755874952,-0.3982000000000002,-0.288718895003285,-0.3982000000000002,-0.3261738386250963
-0.3981000000000002,-0.02475166604599166,-0.3981000000000002,-0.05043429884489137,-0.3981000000000002,-0.07787937161176139,-0.3981000000000002,-0.107364454242728,-0.3981000000000002,-0.1391406004821892,-0.3981000000000002,-0.173976573779265,-0.3981000000000002,-0.2121968333795302,-0.3981000000000002,-0.2507191237445452,-0.3981000000000002,-0.2887135348671457,-0.3981000000000002,-0.3261683707024159
-0.3980000000000002,-0.0247510448429874,-0.3980000000000002,-0.05043304497247547,-0.3980000000000002,-0.07787744390774642,-0.3980000000000002,-0.1073618143415541,-0.3980000000000002,-0.1391371482021547,-0.3980000000000002,-0.1739721025316633,-0.3980000000000002,-0.2121917070733602,-0.3980000000000002,-0.2507138662775815,-0.3980000000000002,-0.2887081689690579,-0.3980000000000002,-0.3261628968661355
-0.3979000000000003,-0.024750423036206,-0.3979000000000003,-0.05043178990240216,-0.3979000000000003,-0.07787551435937645,-0.3979000000000003,-0.1073591718715768,-0.3979000000000003,-0.1391336924946834,-0.3979000000000003,-0.173967626750281,-0.3979000000000003,-0.2121865752862773,-0.3979000000000003,-0.2507086031737515,-0.3979000000000003,-0.2887027972959121,-0.3979000000000003,-0.3261574171028905
-0.3978000000000003,-0.02474980062416154,-0.3978000000000003,-0.05043053363171435,-0.3978000000000003,-0.07787358296213187,-0.3978000000000003,-0.1073565268266347,-0.3978000000000003,-0.1391302333517825,-0.3978000000000003,-0.1739631464248719,-0.3978000000000003,-0.2121814380057501,-0.3978000000000003,-0.2507033344201716,-0.3978000000000003,-0.2886974198345666,-0.3978000000000003,-0.326151931399278
-0.3977000000000003,-0.02474917760536555,-0.3977000000000003,-0.0504292761574453,-0.3977000000000003,-0.07787164971147897,-0.3977000000000003,-0.1073538792005548,-0.3977000000000003,-0.1391267707654351,-0.3977000000000003,-0.1739586615451627,-0.3977000000000003,-0.2121762952192174,-0.3977000000000003,-0.2506980600039267,-0.3977000000000003,-0.2886920365718474,-0.3977000000000003,-0.3261464397418715
-0.3976000000000003,-0.02474855397832632,-0.3976000000000003,-0.05042801747662362,-0.3976000000000003,-0.07786971460287684,-0.3976000000000003,-0.1073512289871449,-0.3976000000000003,-0.1391233047276108,-0.3976000000000003,-0.1739541721008602,-0.3976000000000003,-0.2121711469140941,-0.3976000000000003,-0.250692779912072,-0.3976000000000003,-0.2886866474945545,-0.3976000000000003,-0.3261409421172132
-0.3975000000000003,-0.02474792974154916,-0.3975000000000003,-0.05042675758627058,-0.3975000000000003,-0.07786777763177322,-0.3975000000000003,-0.1073485761802057,-0.3975000000000003,-0.1391198352302613,-0.3975000000000003,-0.1739496780816534,-0.3975000000000003,-0.2121659930777638,-0.3975000000000003,-0.2506874941316382,-0.3975000000000003,-0.2886812525894572,-0.3975000000000003,-0.3261354385118128
-0.3974000000000003,-0.02474730489353305,-0.3974000000000003,-0.05042549648339956,-0.3974000000000003,-0.07786583879360287,-0.3974000000000003,-0.1073459207735162,-0.3974000000000003,-0.1391163622653153,-0.3974000000000003,-0.1739451794771967,-0.3974000000000003,-0.2121608336975787,-0.3974000000000003,-0.250682202649619,-0.3974000000000003,-0.2886758518432891,-0.3974000000000003,-0.3261299289121499
-0.3973000000000003,-0.02474667943277642,-0.3973000000000003,-0.05042423416501707,-0.3973000000000003,-0.07786389808379168,-0.3973000000000003,-0.1073432627608449,-0.3973000000000003,-0.1391128858246889,-0.3973000000000003,-0.1739406762771357,-0.3973000000000003,-0.212155668760868,-0.3973000000000003,-0.2506769054529839,-0.3973000000000003,-0.2886704452427629,-0.3973000000000003,-0.326124413304675
-0.3972000000000003,-0.02474605335777247,-0.3972000000000003,-0.0504229706281214,-0.3972000000000003,-0.07786195549775232,-0.3972000000000003,-0.1073406021359433,-0.3972000000000003,-0.1391094059002733,-0.3972000000000003,-0.1739361684710807,-0.3972000000000003,-0.2121504982549257,-0.3972000000000003,-0.2506716025286688,-0.3972000000000003,-0.2886650327745501,-0.3972000000000003,-0.3261188916758015
-0.3971000000000003,-0.02474542666701074,-0.3971000000000003,-0.0504217058697064,-0.3971000000000003,-0.07786001103088991,-0.3971000000000003,-0.1073379388925524,-0.3971000000000003,-0.1391059224839463,-0.3971000000000003,-0.173931656048625,-0.3971000000000003,-0.2121453221670202,-0.3971000000000003,-0.2506662938635835,-0.3971000000000003,-0.2886596144253002,-0.3971000000000003,-0.3261133640119238
-0.3970000000000004,-0.02474479935897844,-0.3970000000000004,-0.05042043988675537,-0.3970000000000004,-0.07785806467859602,-0.3970000000000004,-0.1073352730243915,-0.3970000000000004,-0.1391024355675653,-0.3970000000000004,-0.1739271389993413,-0.3970000000000004,-0.2121401404843904,-0.3970000000000004,-0.2506609794446029,-0.3970000000000004,-0.2886541901816297,-0.3970000000000004,-0.3261078302993943
-0.3969000000000004,-0.0247441714321579,-0.3969000000000004,-0.05041917267624718,-0.3969000000000004,-0.07785611643625123,-0.3969000000000004,-0.1073326045251726,-0.3969000000000004,-0.1390989451429689,-0.3969000000000004,-0.1739226173127745,-0.3969000000000004,-0.2121349531942454,-0.3969000000000004,-0.2506556592585767,-0.3969000000000004,-0.2886487600301245,-0.3969000000000004,-0.326102290524539
-0.3968000000000004,-0.02474354288502867,-0.3968000000000004,-0.05041790423515202,-0.3968000000000004,-0.07785416629922837,-0.3968000000000004,-0.1073299333885882,-0.3968000000000004,-0.1390954512019795,-0.3968000000000004,-0.1739180909784505,-0.3968000000000004,-0.2121297602837685,-0.3968000000000004,-0.2506503332923249,-0.3968000000000004,-0.2886433239573403,-0.3968000000000004,-0.326096744673657
-0.3967000000000004,-0.02474291371606552,-0.3967000000000004,-0.05041663456043244,-0.3967000000000004,-0.07785221426288358,-0.3967000000000004,-0.1073272596083192,-0.3967000000000004,-0.1390919537363973,-0.3967000000000004,-0.173913559985866,-0.3967000000000004,-0.2121245617401077,-0.3967000000000004,-0.2506450015326271,-0.3967000000000004,-0.2886378819497988,-0.3967000000000004,-0.3260911927330065
-0.3966000000000004,-0.02474228392374145,-0.3966000000000004,-0.05041536364904575,-0.3966000000000004,-0.0778502603225677,-0.3966000000000004,-0.107324583178029,-0.3966000000000004,-0.1390884527380069,-0.3966000000000004,-0.1739090243245046,-0.3966000000000004,-0.2121193575503874,-0.3966000000000004,-0.2506396639662498,-0.3966000000000004,-0.2886324339939992,-0.3966000000000004,-0.3260856346888281
-0.3965000000000004,-0.02474165350652391,-0.3965000000000004,-0.05041409149793863,-0.3965000000000004,-0.07784830447361635,-0.3965000000000004,-0.1073219040913675,-0.3965000000000004,-0.1390849481985709,-0.3965000000000004,-0.1739044839838159,-0.3965000000000004,-0.2121141477016982,-0.3965000000000004,-0.2506343205799154,-0.3965000000000004,-0.2886269800763985,-0.3965000000000004,-0.3260800705273148
-0.3964000000000004,-0.02474102246287779,-0.3964000000000004,-0.05041281810405507,-0.3964000000000004,-0.07784634671135648,-0.3964000000000004,-0.1073192223419704,-0.3964000000000004,-0.1390814401098376,-0.3964000000000004,-0.1738999389532345,-0.3964000000000004,-0.2121089321811054,-0.3964000000000004,-0.2506289713603224,-0.3964000000000004,-0.2886215201834351,-0.3964000000000004,-0.3260745002346452
-0.3963000000000004,-0.02474039079126433,-0.3963000000000004,-0.05041154346432786,-0.3963000000000004,-0.07784438703110419,-0.3963000000000004,-0.1073165379234586,-0.3963000000000004,-0.1390779284635334,-0.3963000000000004,-0.1738953892221679,-0.3963000000000004,-0.2121037109756431,-0.3963000000000004,-0.250623616294137,-0.3963000000000004,-0.2886160543015097,-0.3963000000000004,-0.3260689237969556
-0.3962000000000004,-0.02473975849014032,-0.3962000000000004,-0.05041026757568401,-0.3962000000000004,-0.07784242542816289,-0.3962000000000004,-0.1073138508294377,-0.3962000000000004,-0.139074413251367,-0.3962000000000004,-0.1738908347800049,-0.3962000000000004,-0.2120984840723171,-0.3962000000000004,-0.250618255367997,-0.3962000000000004,-0.2886105824169921,-0.3962000000000004,-0.3260633412003542
-0.3961000000000005,-0.02473912555796032,-0.3961000000000005,-0.05040899043504421,-0.3961000000000005,-0.07784046189782545,-0.3961000000000005,-0.1073111610534964,-0.3961000000000005,-0.1390708944650305,-0.3961000000000005,-0.1738862756161036,-0.3961000000000005,-0.2120932514581032,-0.3961000000000005,-0.2506128885685079,-0.3961000000000005,-0.2886051045162256,-0.3961000000000005,-0.3260577524309206
-0.3960000000000005,-0.02473849199317435,-0.3960000000000005,-0.05040771203932048,-0.3960000000000005,-0.07783849643537566,-0.3960000000000005,-0.1073084685892143,-0.3960000000000005,-0.1390673720961941,-0.3960000000000005,-0.1738817117198075,-0.3960000000000005,-0.2120880131199456,-0.3960000000000005,-0.2506075158822465,-0.3960000000000005,-0.2885996205855176,-0.3960000000000005,-0.326052157474702
-0.3959000000000005,-0.02473785779422777,-0.3959000000000005,-0.0504064323854172,-0.3959000000000005,-0.07783652903608218,-0.3959000000000005,-0.1073057734301496,-0.3959000000000005,-0.1390638461365085,-0.3959000000000005,-0.1738771430804287,-0.3959000000000005,-0.2120827690447624,-0.3959000000000005,-0.2506021372957565,-0.3959000000000005,-0.2885941306111474,-0.3959000000000005,-0.3260465563177085
-0.3958000000000005,-0.0247372229595646,-0.3958000000000005,-0.05040515147023306,-0.3958000000000005,-0.07783455969520681,-0.3958000000000005,-0.1073030755698505,-0.3958000000000005,-0.1390603165776113,-0.3958000000000005,-0.1738725696872629,-0.3958000000000005,-0.2120775192194405,-0.3958000000000005,-0.2505967527955556,-0.3958000000000005,-0.2885886345793633,-0.3958000000000005,-0.3260409489459273
-0.3957000000000005,-0.02473658748762331,-0.3957000000000005,-0.05040386929065832,-0.3957000000000005,-0.07783258840799601,-0.3957000000000005,-0.1073003750018473,-0.3957000000000005,-0.1390567834111147,-0.3957000000000005,-0.1738679915295784,-0.3957000000000005,-0.2120722636308371,-0.3957000000000005,-0.2505913623681265,-0.3957000000000005,-0.2885831324763818,-0.3957000000000005,-0.3260353353453117
-0.3956000000000005,-0.02473595137683959,-0.3956000000000005,-0.05040258584357571,-0.3956000000000005,-0.07783061516969025,-0.3956000000000005,-0.1072976717196577,-0.3956000000000005,-0.1390532466286157,-0.3956000000000005,-0.1738634085966226,-0.3956000000000005,-0.2120670022657821,-0.3956000000000005,-0.2505859659999243,-0.3956000000000005,-0.2885776242883888,-0.3956000000000005,-0.3260297155017802
-0.3955000000000005,-0.02473531462564504,-0.3955000000000005,-0.05040130112586183,-0.3955000000000005,-0.07782863997551381,-0.3955000000000005,-0.1072949657167815,-0.3955000000000005,-0.139049706221693,-0.3955000000000005,-0.1738588208776157,-0.3955000000000005,-0.2120617351110715,-0.3955000000000005,-0.2505805636773711,-0.3955000000000005,-0.2885721100015405,-0.3955000000000005,-0.3260240894012216
-0.3954000000000005,-0.02473467723246781,-0.3954000000000005,-0.05040001513438463,-0.3954000000000005,-0.07782666282068273,-0.3954000000000005,-0.1072922569867066,-0.3954000000000005,-0.1390461621819021,-0.3954000000000005,-0.1738542283617613,-0.3954000000000005,-0.2120564621534737,-0.3954000000000005,-0.2505751553868618,-0.3954000000000005,-0.2885665896019587,-0.3954000000000005,-0.3260184570294962
-0.3953000000000005,-0.02473403919573247,-0.3953000000000005,-0.0503987278660063,-0.3953000000000005,-0.07782468370039997,-0.3953000000000005,-0.1072895455229058,-0.3953000000000005,-0.139042614500787,-0.3953000000000005,-0.1738496310382343,-0.3953000000000005,-0.2120511833797308,-0.3953000000000005,-0.2505697411147575,-0.3953000000000005,-0.2885610630757364,-0.3953000000000005,-0.3260128183724272
-0.3952000000000006,-0.02473340051385975,-0.3952000000000006,-0.05039743931758001,-0.3952000000000006,-0.07782270260986168,-0.3952000000000006,-0.1072868313188354,-0.3952000000000006,-0.1390390631698678,-0.3952000000000006,-0.1738450288961879,-0.3952000000000006,-0.2120458987765509,-0.3952000000000006,-0.2505643208473918,-0.3952000000000006,-0.2885555304089387,-0.3952000000000006,-0.3260071734158163
