;Version, 1, 0
;/M0/D (L=5e-07),;/M0/D (L=1e-06),;/M0/D (L=1.5e-06),;/M0/D (L=2e-06),;/M0/D (L=2.5e-06),;/M0/D (L=3e-06),;/M0/D (L=3.5e-06),;/M0/D (L=4e-06),;/M0/D (L=4.5e-06),;/M0/D (L=5e-06)
;X, Y,;X, Y,;X, Y,;X, Y,;X, Y,;X, Y,;X, Y,;X, Y,;X, Y,;X, Y
;Re, Re,;Re, Re,;Re, Re,;Re, Re,;Re, Re,;Re, Re,;Re, Re,;Re, Re,;Re, Re,;Re, Re
;vds, I,;vds, I,;vds, I,;vds, I,;vds, I,;vds, I,;vds, I,;vds, I,;vds, I,;vds, I
;xunit, A,;xunit, A,;xunit, A,;xunit, A,;xunit, A,;xunit, A,;xunit, A,;xunit, A,;xunit, A,;xunit, A
0,0,0,0,0,0,0,0,0,0,0,0,0,0,0,0,0,0,0,0
0.036,0.0005576725885472512,0.036,0.000295425065384515,0.036,0.000200925305224187,0.036,0.0001522312118423155,0.036,0.0001225355675335771,0.036,0.0001025345725440333,0.036,8.814688379438283e-05,0.036,7.730018782680495e-05,0.036,6.883047802104223e-05,0.036,6.203355165581313e-05
0.07200000000000001,0.001064530789510685,0.07200000000000001,0.0005657441499184309,0.07200000000000001,0.0003852353683257861,0.07200000000000001,0.0002920601459752785,0.07200000000000001,0.0002351820362313535,0.07200000000000001,0.0001968481264474606,0.07200000000000001,0.0001692601482069528,0.07200000000000001,0.0001484548687683303,0.07200000000000001,0.0001322046636595995,0.07200000000000001,0.0001191611634517214
0.108,0.001521492152552838,0.108,0.0008111907577856101,0.108,0.0005530345689656926,0.108,0.0004195456755836638,0.108,0.0003379771430894084,0.108,0.0002829668937009215,0.108,0.0002433590787298107,0.108,0.0002134788155152858,0.108,0.0001901342334928088,0.108,0.0001713922961549205
0.144,0.00192945226826396,0.144,0.001031995506435954,0.144,0.0007044264143236021,0.144,0.0005347463018141366,0.144,0.0004309584333394261,0.144,0.0003609169948092069,0.144,0.0003104628904127164,0.144,0.0002723867534469467,0.144,0.000242630830802575,0.144,0.0002187363862208194
0.18,0.00228928542117029,0.18,0.00122838617105907,0.18,0.0008395135481965197,0.18,0.0006377201567108806,0.18,0.0005141632616667263,0.18,0.0004307244393843917,0.18,0.0003705907281859084,0.18,0.0003251933608218977,0.18,0.0002897060656956575,0.18,0.0002612028458725782
0.216,0.002601845219576081,0.216,0.001400587728236814,0.216,0.0009583977599821721,0.216,0.0007285250061219964,0.216,0.0005876287934175373,0.216,0.0004924151267336897,0.216,0.0004237616671796622,0.216,0.0003719132689663604,0.216,0.0003313715152217409,0.216,0.000298801063178842
0.252,0.002867965203193972,0.252,0.001548822398793758,0.252,0.001061179993550491,0.252,0.0008072182525784783,0.252,0.0006513920057971022,0.252,0.0005460148464435816,0.252,0.0004699947130421044,0.252,0.000412561062461623,0.252,0.000367638723491006,0.252,0.000331540402131176
0.288,0.00308845942947219,0.288,0.001673309689862767,0.288,0.00114796035600479,0.288,0.0008738569381460761,0.288,0.0007054896890587015,0.288,0.0005915492789602298,0.288,0.000509308802255288,0.288,0.0004471512793305692,0.288,0.0003985192017911967,0.288,0.0003594302027212027
0.3240000000000001,0.003264123039484916,0.3240000000000001,0.001774266436182362,0.3240000000000001,0.001218838126334225,0.3240000000000001,0.0009284977472503323,0.3240000000000001,0.0007499584476836641,0.3240000000000001,0.0006290439961662146,0.3240000000000001,0.0005417228024495474,0.3240000000000001,0.000475698411223316,0.3240000000000001,0.0004240244287041885,0.3240000000000001,0.0003824797810174415
0.3600000000000001,0.003395732804211986,0.3600000000000001,0.00185190684064223,0.3600000000000001,0.001273911763959111,0.3600000000000001,0.0009711970094750987,0.3600000000000001,0.0007848347015524604,0.3600000000000001,0.0006585244619536144,0.3600000000000001,0.0005672555127161397,0.3600000000000001,0.000498216903601963,0.3600000000000001,0.000444165850222062,0.3600000000000001,0.0004006984292418556
0.3960000000000001,0.003485374885180122,0.3960000000000001,0.00190644251409275,0.3960000000000001,0.001313278917170644,0.3960000000000001,0.001002010702334806,0.3960000000000001,0.0008101546871069363,0.3960000000000001,0.0006800160327934649,0.3960000000000001,0.0005859256639181814,0.3960000000000001,0.0005147211559244618,0.3960000000000001,0.0004589548798626814,0.3960000000000001,0.0004140954158461031
0.4320000000000002,0.00354284862980724,0.4320000000000002,0.001938661902252901,0.4320000000000002,0.001337036431466531,0.4320000000000002,0.00102099445402079,0.4320000000000002,0.0008259544585037911,0.4320000000000002,0.0006935439583016128,0.4320000000000002,0.0005977519189998988,0.4320000000000002,0.0005252255218276029,0.4320000000000002,0.0004684028987847794,0.4320000000000002,0.0004226799855874974
0.4680000000000002,0.003582150634539792,0.4680000000000002,0.001957579096695467,0.4680000000000002,0.00134853284025628,0.4680000000000002,0.001029381388926908,0.4680000000000002,0.0008327244271068365,0.4680000000000002,0.0006993070397736142,0.4680000000000002,0.0006028129377787268,0.4680000000000002,0.0005297599997820844,0.4680000000000002,0.000472522714003004,0.4680000000000002,0.0004264613596046474
0.5040000000000002,0.00361072884467524,0.5040000000000002,0.001970170819675818,0.5040000000000002,0.001355734800292595,0.5040000000000002,0.001034069842026505,0.5040000000000002,0.0008360274638661013,0.5040000000000002,0.0007017625329373525,0.5040000000000002,0.0006047112127236039,0.5040000000000002,0.0005312719694792306,0.5040000000000002,0.0004737557015033738,0.5040000000000002,0.0004274867592471448
0.5400000000000003,0.003632450246481466,0.5400000000000003,0.001979155532916393,0.5400000000000003,0.001360700533045368,0.5400000000000003,0.001037232666288832,0.5400000000000003,0.0008382220989718535,0.5400000000000003,0.0007033758833469882,0.5400000000000003,0.0006059477830427016,0.5400000000000003,0.0005322502152167413,0.5400000000000003,0.0004745490514441875,0.5400000000000003,0.0004281431822249522
0.5760000000000003,0.003649522086054923,0.5760000000000003,0.001985889158137241,0.5760000000000003,0.001364331771027514,0.5760000000000003,0.001039510462971265,0.5760000000000003,0.0008397862135718225,0.5760000000000003,0.0007045170160285748,0.5760000000000003,0.000606817378723249,0.5760000000000003,0.0005329350314966864,0.5760000000000003,0.0004751024010868845,0.5760000000000003,0.0004285996477698307
0.6120000000000003,0.003663296046124892,0.6120000000000003,0.001991123681403237,0.6120000000000003,0.001367102873688661,0.6120000000000003,0.001041229222170326,0.6120000000000003,0.0008409574939984122,0.6120000000000003,0.0007053668672885226,0.6120000000000003,0.0006074623232360079,0.6120000000000003,0.0005334412878916956,0.6120000000000003,0.0004755104058675406,0.6120000000000003,0.0004289354984589542
0.6480000000000004,0.003674646161829186,0.6480000000000004,0.001995309708794625,0.6480000000000004,0.001369287195799011,0.6480000000000004,0.001042572341635594,0.6480000000000004,0.0008418674955995742,0.6480000000000004,0.0007060244050748595,0.6480000000000004,0.0006079597688861253,0.6480000000000004,0.0005338308170920497,0.6480000000000004,0.0004758237289214573,0.6480000000000004,0.0004291930032141596
0.6840000000000004,0.003684162679098083,0.6840000000000004,0.001998733699703656,0.6840000000000004,0.001371053356185741,0.6840000000000004,0.001043650906189676,0.6840000000000004,0.0008425949308374716,0.6840000000000004,0.000706548323767472,0.6840000000000004,0.0006083551681669685,0.6840000000000004,0.0005341398571263041,0.6840000000000004,0.0004760719381277598,0.6840000000000004,0.0004293967462048432
0.7200000000000004,0.003692258586150219,0.7200000000000004,0.002001586472205246,0.7200000000000004,0.001372511014855084,0.7200000000000004,0.00104453613054951,0.7200000000000004,0.0008431897803473582,0.7200000000000004,0.0007069756384409196,0.7200000000000004,0.0006086770379592934,0.7200000000000004,0.0005343910525648037,0.7200000000000004,0.0004762734505611035,0.7200000000000004,0.0004295619998864158
0.7560000000000004,0.003699231507321768,0.7560000000000004,0.002004000043238808,0.7560000000000004,0.001373734570707145,0.7560000000000004,0.001045275773974024,0.7560000000000004,0.0008436853063529667,0.7560000000000004,0.0007073308480496934,0.7560000000000004,0.0006089441751625569,0.7560000000000004,0.0005345992819326885,0.7560000000000004,0.0004764403361623,0.7560000000000004,0.000429698752372012
0.7920000000000005,0.003705301355698129,0.7920000000000005,0.002006068658198724,0.7920000000000005,0.001374776279732116,0.7920000000000005,0.001045903062303505,0.7920000000000005,0.0008441045035540382,0.7920000000000005,0.0007076308132696602,0.7920000000000005,0.0006091694728327713,0.7920000000000005,0.0005347747240514008,0.7920000000000005,0.0004765808351344494,0.7920000000000005,0.000429813810982399
0.8280000000000005,0.003710634142440372,0.8280000000000005,0.00200786139777879,0.8280000000000005,0.001375673922345364,0.8280000000000005,0.001046441825377283,0.8280000000000005,0.0008444637770736798,0.8280000000000005,0.0007078875180732639,0.8280000000000005,0.0006093620693222281,0.8280000000000005,0.0005349245778569609,0.8280000000000005,0.0004767007652574092,0.8280000000000005,0.0004299119750582829
0.8640000000000005,0.003715357537838063,0.8640000000000005,0.002009430051502202,0.8640000000000005,0.001376455491143623,0.8640000000000005,0.001046909599114883,0.8640000000000005,0.0008447751451181917,0.8640000000000005,0.0007081097139794785,0.8640000000000005,0.0006095286223245749,0.8640000000000005,0.0005350540784981894,0.8640000000000005,0.000476804351113028,0.8640000000000005,0.0004299967254885834
0.9000000000000006,0.003719571335807708,0.9000000000000006,0.002010814209178973,0.9000000000000006,0.001377142167777251,0.9000000000000006,0.001047319574740954,0.9000000000000006,0.000845047613477231,0.9000000000000006,0.0007083039410713725,0.9000000000000006,0.0006096740971179655,0.9000000000000006,0.0005351671242090923,0.9000000000000006,0.0004768947345113614,0.9000000000000006,0.0004300706483629066
0.9360000000000006,0.003723354668463046,0.9360000000000006,0.002012044653377001,0.9360000000000006,0.001377750275655653,0.9360000000000006,0.001047681865853729,0.9360000000000006,0.0008452880637112487,0.9360000000000006,0.0007084751850052054,0.9360000000000006,0.000609802272205525,0.9360000000000006,0.0005352666774625863,0.9360000000000006,0.0004769743004982054,0.9360000000000006,0.0004301357051316978
0.9720000000000006,0.003726771090349817,0.9720000000000006,0.002013145679489852,0.9720000000000006,0.001378292597274209,0.9720000000000006,0.001048004356504896,0.9720000000000006,0.000845501844587758,0.9720000000000006,0.0007086273129230583,0.9720000000000006,0.0006099160738940495,0.9720000000000006,0.000535355029857926,0.9720000000000006,0.0004770448922650154,0.9720000000000006,0.0004301934104593573
1.008000000000001,0.00372987223181466,1.008000000000001,0.00201413671910841,1.008000000000001,0.001378779284954157,1.008000000000001,0.00104829328348865,1.008000000000001,0.0008456931763367113,1.008000000000001,0.0007087633704628759,1.008000000000001,0.0006100178037238801,1.008000000000001,0.0005354339818507192,1.008000000000001,0.0004771079567574311,1.008000000000001,0.0004302449525833952
1.044000000000001,0.003732700470287038,1.044000000000001,0.002015033499142607,1.044000000000001,0.001379218504239322,1.044000000000001,0.001048553645198805,1.044000000000001,0.000845865433375593,1.044000000000001,0.000708885788899777,1.044000000000001,0.0006101092967549928,1.044000000000001,0.0005355049676409191,1.044000000000001,0.0004771646457246806,1.044000000000001,0.000430291276754629
1.080000000000001,0.003735290914295833,1.080000000000001,0.002015848884544883,1.080000000000001,0.001379616897236706,1.080000000000001,0.001048789494469047,1.080000000000001,0.0008460213460949275,1.080000000000001,0.000708996532619898,1.080000000000001,0.0006101920340513264,1.080000000000001,0.0005355691437972509,1.080000000000001,0.0004772158873464862,1.080000000000001,0.0004303331443277858
1.116000000000001,0.003737672898091935,1.116000000000001,0.002016593501015906,1.116000000000001,0.001379979922071099,1.116000000000001,0.001049004152070962,1.116000000000001,0.000846163147507587,1.116000000000001,0.0007090972060606287,1.116000000000001,0.0006102672241144053,1.116000000000001,0.0005356274533359967,1.116000000000001,0.0004772624379698046,1.116000000000001,0.0004303711754081257
1.152000000000001,0.003739871122259829,1.152000000000001,0.002017276201928347,1.152000000000001,0.00138031210545397,1.152000000000001,0.001049200364867868,1.152000000000001,0.0008462926815736783,1.152000000000001,0.0007091891325461228,1.152000000000001,0.0006103358628268335,1.152000000000001,0.0005356806728357959,1.152000000000001,0.000477304920114522,1.152000000000001,0.0004304058801564609
1.188000000000001,0.003741906534594003,1.188000000000001,0.002017904423140506,1.188000000000001,0.00138061723325916,1.188000000000001,0.001049380424673199,1.188000000000001,0.0008464114844004831,1.188000000000001,0.0007092734132751912,1.188000000000001,0.0006103987782443637,1.188000000000001,0.0005357294476073059,1.188000000000001,0.000477343850820211,1.188000000000001,0.000430437682122608
1.224000000000001,0.003743797017957207,1.224000000000001,0.002018484455934762,1.224000000000001,0.001380898496174095,1.224000000000001,0.001049546258758216,1.224000000000001,0.0008465208459283225,1.224000000000001,0.0007093509720591713,1.224000000000001,0.0006104566645258227,1.224000000000001,0.000535774318309118,1.224000000000001,0.000477379663082558,1.224000000000001,0.0004304669358799249
1.260000000000001,0.00374555793303861,1.260000000000001,0.002019021659363158,1.260000000000001,0.001381158602335833,1.260000000000001,0.00104969949960765,1.260000000000001,0.0008466218573693926,1.260000000000001,0.0007094225896748243,1.260000000000001,0.0006105101079576673,1.260000000000001,0.0005358157413447748,1.260000000000001,0.000477412722269834,1.260000000000001,0.0004304939405226968
1.296000000000001,0.003747202550896877,1.296000000000001,0.002019520627210071,1.296000000000001,0.001381399865394848,1.296000000000001,0.001049841539285637,1.296000000000001,0.0008467154481056516,1.296000000000001,0.0007094889305462614,1.296000000000001,0.0006105596071462099,1.296000000000001,0.0005358541046759654,1.296000000000001,0.000477443338842017,1.296000000000001,0.00043051895011821
1.332000000000001,0.00374874240099872,1.332000000000001,0.002019985320594531,1.332000000000001,0.001381624274079932,1.332000000000001,0.001049973572253249,1.332000000000001,0.0008468024146933805,1.332000000000001,0.0007095505636911173,1.332000000000001,0.000610605588853674,1.332000000000001,0.0005358897402149434,1.332000000000001,0.0004774717783125203,1.332000000000001,0.0004305421818889641
1.368000000000001,0.003750187553911105,1.368000000000001,0.002020419174302174,1.368000000000001,0.001381833547691755,1.368000000000001,0.001050096629427206,1.368000000000001,0.0008468834438924632,1.368000000000001,0.0007096079793305266,1.368000000000001,0.0006106484205442285,1.368000000000001,0.0005359229336353471,1.368000000000001,0.0004774982691302342,1.368000000000001,0.00043056382268372
1.404000000000001,0.003751546853060612,1.404000000000001,0.00202082518285262,1.404000000000001,0.001382029180792098,1.404000000000001,0.00105021160553113,1.404000000000001,0.000846959131127637,1.404000000000001,0.0007096616021880804,1.404000000000001,0.0006106884204200907,1.404000000000001,0.0005359539322148952,1.404000000000001,0.0004775230089769471,1.404000000000001,0.0004305840341453286
1.440000000000001,0.00375282810649359,1.440000000000001,0.002021205970806085,1.440000000000001,0.001382212479525707,1.440000000000001,0.001050319281264701,1.440000000000001,0.0008470299954260373,1.440000000000001,0.0007097118022375379,1.440000000000001,0.0006107258655251973,1.440000000000001,0.0005359829511637374,1.440000000000001,0.0004775461698460983,1.440000000000001,0.0004306029568766955
1.476000000000001,0.003754038246987878,1.476000000000001,0.002021563850716784,1.476000000000001,0.00138238459140988,1.476000000000001,0.001050420341436349,1.476000000000001,0.0008470964916140184,1.476000000000001,0.0007097589034681635,1.476000000000001,0.000610760998348477,1.476000000000001,0.0005360101787776911,1.476000000000001,0.000477567902176304,1.476000000000001,0.0004306207138299662
1.512000000000001,0.003755183466929536,1.512000000000001,0.002021900871330272,1.512000000000001,0.001382546529985274,1.512000000000001,0.001050515389927329,1.512000000000001,0.0008471590203654628,1.512000000000001,0.0007098031910975536,1.512000000000001,0.0006107940322528716,1.512000000000001,0.0005360357806723172,1.512000000000001,0.0004775883382458435,1.512000000000001,0.0004306374130885939
1.548000000000001,0.003756269332901868,1.548000000000001,0.002022218858016817,1.548000000000001,0.001382699195393219,1.548000000000001,0.001050604962149493,1.548000000000001,0.0008472179365529634,1.548000000000001,0.0007098449175592433,1.548000000000001,0.0006108251559783292,1.548000000000001,0.0005360599032924994,1.548000000000001,0.0004776075949848705,1.548000000000001,0.0004306531501712227
1.584000000000001,0.003757300883816286,1.584000000000001,0.002022519446976521,1.584000000000001,0.001382843391698882,1.584000000000001,0.001050689535505254,1.584000000000001,0.0008472735562480957,1.584000000000001,0.0007098843075160002,1.584000000000001,0.0006108545374088868,1.584000000000001,0.0005360826768465869,1.584000000000001,0.0004776257763253451,1.584000000000001,0.000430668009956073
1.620000000000001,0.00375828271555799,1.620000000000001,0.002022804114404992,1.620000000000001,0.001382979841593281,1.620000000000001,0.001050769538242223,1.620000000000001,0.0008473261626377658,1.620000000000001,0.0007099215620921327,1.620000000000001,0.0006108823267503159,1.620000000000001,0.0005361042177798884,1.620000000000001,0.0004776429751810559,1.620000000000001,0.0004306820683017513
1.656000000000001,0.003759219054460689,1.656000000000001,0.002023074201543186,1.656000000000001,0.00138310919896529,1.656000000000001,0.001050845357006686,1.656000000000001,0.0008473760110634241,1.656000000000001,0.0007099568624745008,1.656000000000001,0.000610908659231683,1.656000000000001,0.000536124630876324,1.656000000000001,0.0004776592751291992,1.656000000000001,0.0004306953934232383
1.692000000000001,0.003760113821417266,1.692000000000001,0.002023330936331281,1.692000000000001,0.001383232059725891,1.692000000000001,0.001050917343332549,1.692000000000001,0.0008474233333439283,1.692000000000001,0.0007099903729985759,1.692000000000001,0.0006109336574188921,1.692000000000001,0.000536144011057223,1.692000000000001,0.0004776747518489985,1.692000000000001,0.0004307080470686524
1.728000000000001,0.003760970688042557,1.728000000000001,0.00202357545222957,1.728000000000001,0.00138334897118342,1.728000000000001,0.00105098581925046,1.728000000000001,0.0008474683415075185,1.728000000000001,0.0007100222438102943,1.728000000000001,0.0006109574332089057,1.728000000000001,0.0005361624449310613,1.728000000000001,0.0004776894743606383,1.728000000000001,0.0004307200855323386
1.764000000000001,0.003761793126004084,1.764000000000001,0.002023808804648438,1.764000000000001,0.001383460440203926,1.764000000000001,0.00105105108216186,1.764000000000001,0.0008475112310311456,1.764000000000001,0.0007100526131747437,1.764000000000001,0.0006109800895583847,1.764000000000001,0.0005361800121362184,1.764000000000001,0.0004777035060983575,1.764000000000001,0.0004307315605321055
1.8,0.003762584450406423,1.8,0.002024031985336319,1.8,0.001383566940341181,1.8,0.001051113409091866,1.8,0.0008475521836644461,1.8,0.0007100816094875499,1.8,0.0006110017219890135,1.8,0.0005361967865098498,1.8,0.0004777169058443001,1.8,0.0004307425199724462
