;Version, 1, 0
;/M0/D (vsb=0),;/M0/D (vsb=0.7),;/M0/D (vsb=0.2)
;X, Y,;X, Y,;X, Y
;Re, Re,;Re, Re,;Re, Re
;vin, I,;vin, I,;vin, I
;xunit, A,;xunit, A,;xunit, A
0,2.793537572615993e-11,0,7.865495195773561e-13,0,6.939703770613865e-12
0.001,2.884921836703581e-11,0.001,7.964967911526255e-13,0.001,7.157815851936096e-12
0.002,2.979346221893893e-11,0.002,8.067898655620027e-13,0.002,7.383311139526321e-12
0.003,3.076911672229324e-11,0.003,8.174407614558618e-13,0.003,7.616439315903867e-12
0.004,3.177722473799507e-11,0.004,8.284619150646323e-13,0.004,7.857458494821435e-12
0.005,3.281886364909163e-11,0.005,8.398661946947801e-13,0.005,8.106635505338095e-12
0.006,3.389514649841879e-11,0.006,8.516669157342793e-13,0.006,8.364246185471026e-12
0.007,3.500722316357693e-11,0.007,8.638778561760121e-13,0.007,8.630575685602005e-12
0.008,3.615628157024838e-11,0.008,8.765132726805851e-13,0.008,8.905918782177461e-12
0.009000000000000001,3.734354894533639e-11,0.009000000000000001,8.895879172011579e-13,0.009000000000000001,9.190580201867614e-12
0.01,3.857029311098567e-11,0.01,9.031170541757989e-13,0.01,9.484874956623107e-12
0.011,3.983782382082313e-11,0.011,9.171164783225737e-13,0.011,9.789128689982307e-12
0.012,4.114749414010703e-11,0.012,9.316025330502302e-13,0.012,1.010367803497452e-11
0.013,4.250070187069757e-11,0.013,9.465921295118857e-13,0.013,1.042887098405707e-11
0.01400000000000001,4.389889102263324e-11,0.01400000000000001,9.621027663111427e-13,0.01400000000000001,1.076506727140065e-11
0.01500000000000001,4.53435533339253e-11,0.01500000000000001,9.781525498955689e-13,0.01500000000000001,1.111263876807187e-11
0.01600000000000001,4.683622983956541e-11,0.01600000000000001,9.947602156637253e-13,0.01600000000000001,1.147196989036843e-11
0.01700000000000001,4.837851249207289e-11,0.01700000000000001,1.011945149792518e-12,0.01700000000000001,1.184345802193373e-11
0.01800000000000001,4.997204583467867e-11,0.01800000000000001,1.029727411829493e-12,0.01800000000000001,1.222751394994082e-11
0.01900000000000001,5.161852872903083e-11,0.01900000000000001,1.048127758072339e-12,0.01900000000000001,1.262456231589692e-11
0.02000000000000001,5.331971613926351e-11,0.02000000000000001,1.067167665746073e-12,0.02000000000000001,1.303504208160467e-11
0.02100000000000001,5.507742097416751e-11,0.02100000000000001,1.086869358028654e-12,0.02100000000000001,1.345940701064513e-11
0.02200000000000001,5.689351598910117e-11,0.02200000000000001,1.107255829940099e-12,0.02200000000000001,1.389812616601899e-11
0.02300000000000001,5.876993575019382e-11,0.02300000000000001,1.128350875142096e-12,0.02300000000000001,1.435168442445907e-11
0.02400000000000001,6.070867866197737e-11,0.02400000000000001,1.150179113639258e-12,0.02400000000000001,1.482058300793154e-11
0.02500000000000002,6.271180906122903e-11,0.02500000000000002,1.172766020468237e-12,0.02500000000000002,1.530534003288974e-11
0.02600000000000002,6.478145937869694e-11,0.02600000000000002,1.196137955360335e-12,0.02600000000000002,1.580649107795607e-11
0.02700000000000002,6.691983237115115e-11,0.02700000000000002,1.220322193460746e-12,0.02700000000000002,1.632458977056076e-11
0.02800000000000002,6.912920342578709e-11,0.02800000000000002,1.245346957071384e-12,0.02800000000000002,1.686020839317049e-11
0.02900000000000002,7.141192293938563e-11,0.02900000000000002,1.271241448535852e-12,0.02900000000000002,1.741393850981108e-11
0.03000000000000002,7.377041877476328e-11,0.03000000000000002,1.298035884232309e-12,0.03000000000000002,1.798639161349151e-11
0.03100000000000002,7.620719879672308e-11,0.03100000000000002,1.325761529761728e-12,0.03100000000000002,1.857819979530243e-11
0.03200000000000002,7.872485349018336e-11,0.03200000000000002,1.354450736353397e-12,0.03200000000000002,1.91900164358274e-11
0.03300000000000002,8.132605866318269e-11,0.03300000000000002,1.384136978526204e-12,0.03300000000000002,1.982251691959703e-11
0.03400000000000002,8.401357823726642e-11,0.03400000000000002,1.414854893063569e-12,0.03400000000000002,2.047639937351172e-11
0.03500000000000002,8.679026712815899e-11,0.03500000000000002,1.446640319326034e-12,0.03500000000000002,2.115238542979972e-11
0.03600000000000003,8.965907421962101e-11,0.03600000000000003,1.479530340968441e-12,0.03600000000000003,2.185122101441588e-11
0.03700000000000003,9.262304543337478e-11,0.03700000000000003,1.513563329110539e-12,0.03700000000000003,2.257367716186825e-11
0.03800000000000003,9.568532689822647e-11,0.03800000000000003,1.548778986991919e-12,0.03800000000000003,2.332055085706504e-11
0.03900000000000003,9.884916822136658e-11,0.03900000000000003,1.585218396164503e-12,0.03900000000000003,2.409266590528601e-11
0.04000000000000003,1.021179258653878e-10,0.04000000000000003,1.622924064315138e-12,0.04000000000000003,2.489087383114525e-11
0.04100000000000003,1.054950666340337e-10,0.04100000000000003,1.661939974704453e-12,0.04100000000000003,2.571605480755422e-11
0.04200000000000003,1.089841712702488e-10,0.04200000000000003,1.702311637368467e-12,0.04200000000000003,2.656911861547293e-11
0.04300000000000003,1.12588938170404e-10,0.04300000000000003,1.744086142037287e-12,0.04300000000000003,2.745100563573662e-11
0.04400000000000003,1.163131872176257e-10,0.04400000000000003,1.787312212922706e-12,0.04400000000000003,2.836268787392274e-11
0.04500000000000003,1.20160863738749e-10,0.04500000000000003,1.832040265397672e-12,0.04500000000000003,2.930517001917916e-11
0.04600000000000003,1.241360425883721e-10,0.04600000000000003,1.878322464632006e-12,0.04600000000000003,3.027949053841995e-11
0.04700000000000003,1.282429323641601e-10,0.04700000000000003,1.926212786254605e-12,0.04700000000000003,3.128672280674093e-11
0.04800000000000004,1.32485879757263e-10,0.04800000000000004,1.975767079126782e-12,0.04800000000000004,3.232797627560892e-11
0.04900000000000004,1.368693740426624e-10,0.04900000000000004,2.027043130276338e-12,0.04900000000000004,3.340439767967978e-11
0.05000000000000004,1.413980517132914e-10,0.05000000000000004,2.080100732093368e-12,0.05000000000000004,3.451717228385236e-11
0.05100000000000004,1.460767012625774e-10,0.05100000000000004,2.135001751833816e-12,0.05100000000000004,3.566752517159849e-11
0.05200000000000004,1.509102681202539e-10,0.05200000000000004,2.191810203537304e-12,0.05200000000000004,3.68567225761342e-11
0.05300000000000004,1.559038597459522e-10,0.05300000000000004,2.250592322446897e-12,0.05300000000000004,3.808607325583205e-11
0.05400000000000004,1.610627508859505e-10,0.05400000000000004,2.311416641970262e-12,0.05400000000000004,3.935692991500298e-11
0.05500000000000004,1.663923889974887e-10,0.05500000000000004,2.374354073345018e-12,0.05500000000000004,4.067069067216035e-11
0.05600000000000004,1.718983998464616e-10,0.05600000000000004,2.439477988010963e-12,0.05600000000000004,4.20288005765344e-11
0.05700000000000004,1.775865932838521e-10,0.05700000000000004,2.506864302895197e-12,0.05700000000000004,4.343275317522416e-11
0.05800000000000004,1.83462969206006e-10,0.05800000000000004,2.576591568572565e-12,0.05800000000000004,4.488409213191056e-11
0.05900000000000005,1.8953372370492e-10,0.05900000000000005,2.648741060529073e-12,0.05900000000000005,4.638441289943594e-11
0.06000000000000005,1.958052554143185e-10,0.06000000000000005,2.723396873577213e-12,0.06000000000000005,4.793536444746662e-11
0.06100000000000005,2.022841720576124e-10,0.06100000000000005,2.800646019501461e-12,0.06100000000000005,4.953865104762215e-11
0.06200000000000005,2.0897729720364e-10,0.06200000000000005,2.880578528110375e-12,0.06200000000000005,5.119603411723796e-11
0.06300000000000004,2.158916772373239e-10,0.06300000000000004,2.963287551774332e-12,0.06300000000000004,5.290933412444084e-11
0.06400000000000004,2.230345885512472e-10,0.06400000000000004,3.048869473577489e-12,0.06400000000000004,5.468043255587171e-11
0.06500000000000004,2.30413544965096e-10,0.06500000000000004,3.137424019191955e-12,0.06500000000000004,5.651127394960866e-11
0.06600000000000004,2.380363053803822e-10,0.06600000000000004,3.229054372642194e-12,0.06600000000000004,5.840386799496137e-11
0.06700000000000005,2.459108816771497e-10,0.06700000000000005,3.323867296057027e-12,0.06700000000000005,6.036029170170783e-11
0.06800000000000005,2.540455468603581e-10,0.06800000000000005,3.421973253560673e-12,0.06800000000000005,6.238269164083931e-11
0.06900000000000005,2.624488434635721e-10,0.06900000000000005,3.523486539438718e-12,0.06900000000000005,6.447328625908784e-11
0.07000000000000005,2.711295922180344e-10,0.07000000000000005,3.628525410735801e-12,0.07000000000000005,6.663436826970002e-11
0.07100000000000005,2.800969009946946e-10,0.07100000000000005,3.73721222444241e-12,0.07100000000000005,6.88683071220545e-11
0.07200000000000005,2.893601740282324e-10,0.07200000000000005,3.84967357939311e-12,0.07200000000000005,7.117755155241525e-11
0.07300000000000005,2.989291214311181e-10,0.07300000000000005,3.966040463100061e-12,0.07300000000000005,7.356463221871598e-11
0.07400000000000005,3.08813769006585e-10,0.07400000000000005,4.086448403614648e-12,0.07400000000000005,7.60321644217455e-11
0.07500000000000005,3.190244683703913e-10,0.07500000000000005,4.211037626671196e-12,0.07500000000000005,7.858285091608505e-11
0.07600000000000005,3.295719073891068e-10,0.07600000000000005,4.339953218233768e-12,0.07600000000000005,8.121948481308565e-11
0.07700000000000005,3.404671209465684e-10,0.07700000000000005,4.473345292653814e-12,0.07700000000000005,8.394495257921148e-11
0.07800000000000006,3.51721502046662e-10,0.07800000000000006,4.611369166617059e-12,0.07800000000000006,8.676223713282967e-11
0.07900000000000006,3.633468132633848e-10,0.07900000000000006,4.754185539135016e-12,0.07900000000000006,8.967442104234469e-11
0.08000000000000006,3.753551985489845e-10,0.08000000000000006,4.901960677703691e-12,0.08000000000000006,9.268468982946197e-11
0.08100000000000006,3.877591954100341e-10,0.08100000000000006,5.054866610890315e-12,0.08100000000000006,9.579633538020601e-11
0.08200000000000006,4.005717474632869e-10,0.08200000000000006,5.213081327581534e-12,0.08200000000000006,9.90127594679987e-11
0.08300000000000006,4.138062173823113e-10,0.08300000000000006,5.376788983086237e-12,0.08300000000000006,1.023374773916489e-10
0.08400000000000006,4.274764002465743e-10,0.08400000000000006,5.546180112339265e-12,0.08400000000000006,1.057741217323939e-10
0.08500000000000006,4.415965373055045e-10,0.08500000000000006,5.721451850483714e-12,0.08500000000000006,1.093264462338737e-10
0.08600000000000006,4.561813301689502e-10,0.08600000000000006,5.902808161003666e-12,0.08600000000000006,1.129983298084496e-10
0.08700000000000006,4.712459554375153e-10,0.08700000000000006,6.090460071787988e-12,0.08700000000000006,1.16793780674448e-10
0.08800000000000006,4.868060797859426e-10,0.08800000000000006,6.284625919270302e-12,0.08800000000000006,1.207169406282606e-10
0.08900000000000007,5.028778755120329e-10,0.08900000000000007,6.48553160098498e-12,0.08900000000000007,1.247720894557284e-10
0.09000000000000007,5.194780365658081e-10,0.09000000000000007,6.693410836881264e-12,0.09000000000000007,1.289636494869742e-10
0.09100000000000007,5.366237950724315e-10,0.09100000000000007,6.908505439536535e-12,0.09100000000000007,1.332961902998086e-10
0.09200000000000007,5.543329383642931e-10,0.09200000000000007,7.131065593792516e-12,0.09200000000000007,1.377744335755869e-10
0.09300000000000007,5.726238265359474e-10,0.09300000000000007,7.361350145902233e-12,0.09300000000000007,1.424032581134004e-10
0.09400000000000007,5.915154105382824e-10,0.09400000000000007,7.599626902712992e-12,0.09400000000000007,1.471877050066935e-10
0.09500000000000007,6.110272508274093e-10,0.09500000000000007,7.846172941121027e-12,0.09500000000000007,1.521329829879929e-10
0.09600000000000007,6.311795365841134e-10,0.09600000000000007,8.101274928152731e-12,0.09600000000000007,1.572444739469213e-10
0.09700000000000007,6.519931055209899e-10,0.09700000000000007,8.365229452075963e-12,0.09700000000000007,1.625277386271105e-10
0.09800000000000007,6.7348946429391e-10,0.09800000000000007,8.638343364926185e-12,0.09800000000000007,1.67988522507238e-10
0.09900000000000007,6.956908095354818e-10,0.09900000000000007,8.920934136744036e-12,0.09900000000000007,1.736327618726929e-10
0.1000000000000001,7.186200495287016e-10,0.1000000000000001,9.213330222084885e-12,0.1000000000000001,1.794665900831778e-10
0.1010000000000001,7.423008265387327e-10,0.1010000000000001,9.515871439013374e-12,0.1010000000000001,1.854963440428924e-10
0.1020000000000001,7.667575398222642e-10,0.1020000000000001,9.828909361259129e-12,0.1020000000000001,1.917285708794494e-10
0.1030000000000001,7.920153693335536e-10,0.1030000000000001,1.015280772370346e-11,0.1030000000000001,1.981700348382591e-10
0.1040000000000001,8.181003001471564e-10,0.1040000000000001,1.048794284192826e-11,0.1040000000000001,2.048277243987391e-10
0.1050000000000001,8.450391476177653e-10,0.1050000000000001,1.083470404608859e-11,0.1050000000000001,2.117088596199347e-10
0.1060000000000001,8.728595832981731e-10,0.1060000000000001,1.119349412970093e-11,0.1060000000000001,2.188208997219349e-10
0.1070000000000001,9.015901616369348e-10,0.1070000000000001,1.156472981387387e-11,0.1070000000000001,2.261715509113611e-10
0.1080000000000001,9.312603474773242e-10,0.1080000000000001,1.194884222746326e-11,0.1080000000000001,2.337687744576391e-10
0.1090000000000001,9.619005443810658e-10,0.1090000000000001,1.234627740363392e-11,0.1090000000000001,2.416207950284857e-10
0.1100000000000001,9.935421237988059e-10,0.1100000000000001,1.275749679357721e-11,0.1100000000000001,2.497361092923656e-10
0.1110000000000001,1.026217455112374e-09,0.1110000000000001,1.318297779776957e-11,0.1110000000000001,2.581234947964467e-10
0.1120000000000001,1.059959936571749e-09,0.1120000000000001,1.362321431546096e-11,0.1120000000000001,2.667920191281279e-10
0.1130000000000001,1.094804027153539e-09,0.1130000000000001,1.407871731302133e-11,0.1130000000000001,2.757510493697762e-10
0.1140000000000001,1.130785279364166e-09,0.1140000000000001,1.455001541173491e-11,0.1140000000000001,2.850102618544869e-10
0.1150000000000001,1.167940373015886e-09,0.1150000000000001,1.503765549581674e-11,0.1150000000000001,2.945796522335629e-10
0.1160000000000001,1.206307150001976e-09,0.1160000000000001,1.55422033411173e-11,0.1160000000000001,3.044695458639857e-10
0.1170000000000001,1.245924650097406e-09,0.1170000000000001,1.606424426552706e-11,0.1170000000000001,3.146906085268096e-10
0.1180000000000001,1.286833147814681e-09,0.1180000000000001,1.660438380153184e-11,0.1180000000000001,3.252538574859308e-10
0.1190000000000001,1.329074190342934e-09,0.1190000000000001,1.71632483918233e-11,0.1190000000000001,3.361706728979039e-10
0.1200000000000001,1.372690636599047e-09,0.1200000000000001,1.774148610871689e-11,0.1200000000000001,3.474528095835364e-10
0.1210000000000001,1.417726697422466e-09,0.1210000000000001,1.83397673982453e-11,0.1210000000000001,3.591124091722961e-10
0.1220000000000001,1.464227976942668e-09,0.1220000000000001,1.895878584955705e-11,0.1220000000000001,3.711620126310508e-10
0.1230000000000001,1.512241515153222e-09,0.1230000000000001,1.959925899076412e-11,0.1230000000000001,3.836145731883665e-10
0.1240000000000001,1.561815831721272e-09,0.1240000000000001,2.026192911195558e-11,0.1240000000000001,3.964834696669168e-10
0.1250000000000001,1.613000971069884e-09,0.1250000000000001,2.09475641162709e-11,0.1250000000000001,4.097825202360691e-10
0.1260000000000001,1.665848548762444e-09,0.1260000000000001,2.165695840013042e-11,0.1260000000000001,4.235259965973294e-10
0.1270000000000001,1.720411799227099e-09,0.1270000000000001,2.239093376350376e-11,0.1270000000000001,4.37728638615854e-10
0.1280000000000001,1.776745624854345e-09,0.1280000000000001,2.315034035122083e-11,0.1280000000000001,4.524056694114482e-10
0.1290000000000001,1.834906646505191e-09,0.1290000000000001,2.393605762645543e-11,0.1290000000000001,4.675728109225688e-10
0.1300000000000001,1.894953255465933e-09,0.1300000000000001,2.474899537743144e-11,0.1300000000000001,4.832462999583112e-10
0.1310000000000001,1.956945666886521e-09,0.1310000000000001,2.5590094758352e-11,0.1310000000000001,4.994429047514005e-10
0.1320000000000001,2.020945974742869e-09,0.1320000000000001,2.646032936606153e-11,0.1320000000000001,5.161799420293729e-10
0.1330000000000001,2.087018208360271e-09,0.1330000000000001,2.736070635307685e-11,0.1330000000000001,5.334752946173871e-10
0.1340000000000001,2.155228390539517e-09,0.1340000000000001,2.829226757886392e-11,0.1340000000000001,5.513474295891173e-10
0.1350000000000001,2.225644597324664e-09,0.1350000000000001,2.925609080010169e-11,0.1350000000000001,5.698154169830363e-10
0.1360000000000001,2.298337019457035e-09,0.1360000000000001,3.025329090159682e-11,0.1360000000000001,5.888989490987653e-10
0.1370000000000001,2.373378025554599e-09,0.1370000000000001,3.128502116904004e-11,0.1370000000000001,6.086183603923306e-10
0.1380000000000001,2.450842227062639e-09,0.1380000000000001,3.235247460506603e-11,0.1380000000000001,6.289946479874315e-10
0.1390000000000001,2.530806545019338e-09,0.1390000000000001,3.345688529011537e-11,0.1390000000000001,6.500494928203628e-10
0.1400000000000001,2.613350278679983e-09,0.1400000000000001,3.459952978946379e-11,0.1400000000000001,6.718052814376515e-10
0.1410000000000001,2.698555176048329e-09,0.1410000000000001,3.578172860826831e-11,0.1410000000000001,6.942851284653251e-10
0.1420000000000001,2.786505506359118e-09,0.1420000000000001,3.700484769578387e-11,0.1420000000000001,7.175128997692916e-10
0.1430000000000001,2.877288134561513e-09,0.1430000000000001,3.827030000083085e-11,0.1430000000000001,7.41513236327207e-10
0.1440000000000001,2.970992597851249e-09,0.1440000000000001,3.957954708003381e-11,0.1440000000000001,7.663115788317924e-10
0.1450000000000001,3.067711184301371e-09,0.1450000000000001,4.093410076060016e-11,0.1450000000000001,7.919341930475047e-10
0.1460000000000001,3.167539013640675e-09,0.1460000000000001,4.23355248594259e-11,0.1460000000000001,8.184081959418393e-10
0.1470000000000001,3.270574120232857e-09,0.1470000000000001,4.378543696070512e-11,0.1470000000000001,8.457615826132987e-10
0.1480000000000001,3.376917538306922e-09,0.1480000000000001,4.528551025338227e-11,0.1480000000000001,8.740232540393993e-10
0.1490000000000001,3.486673389493827e-09,0.1490000000000001,4.683747543132799e-11,0.1490000000000001,9.032230456678308e-10
0.1500000000000001,3.599948972720461e-09,0.1500000000000001,4.84431226573415e-11,0.1500000000000001,9.333917568742619e-10
0.1510000000000001,3.716854856517857e-09,0.1510000000000001,5.010430359401019e-11,0.1510000000000001,9.645611813127523e-10
0.1520000000000001,3.837504973799916e-09,0.1520000000000001,5.182293350305512e-11,0.1520000000000001,9.967641381818725e-10
0.1530000000000001,3.962016719165985e-09,0.1530000000000001,5.360099341561362e-11,0.1530000000000001,1.030034504435191e-09
0.1540000000000001,4.090511048788609e-09,0.1540000000000001,5.544053237600873e-11,0.1540000000000001,1.064407247959067e-09
0.1550000000000001,4.223112582941692e-09,0.1550000000000001,5.73436697611781e-11,0.1550000000000001,1.099918461748858e-09
0.1560000000000001,4.359949711230215e-09,0.1560000000000001,5.93125976784378e-11,0.1560000000000001,1.136605399107523e-09
0.1570000000000001,4.501154700580849e-09,0.1570000000000001,6.1349583444015e-11,0.1570000000000001,1.174506509897786e-09
0.1580000000000001,4.646863806053268e-09,0.1580000000000001,6.345697214542272e-11,0.1580000000000001,1.213661477876107e-09
0.1590000000000001,4.797217384536959e-09,0.1590000000000001,6.563718928994179e-11,0.1590000000000001,1.254111259137661e-09
0.1600000000000001,4.952360011391633e-09,0.1600000000000001,6.789274354235305e-11,0.1600000000000001,1.295898121703951e-09
0.1610000000000001,5.112440600098519e-09,0.1610000000000001,7.022622955498484e-11,0.1610000000000001,1.339065686283506e-09
0.1620000000000001,5.277612524985947e-09,0.1620000000000001,7.264033089273399e-11,0.1620000000000001,1.383658968238436e-09
