Freq.	V(mid)	V(out)
1.00000000000000e+06,5.74745949103317e+01,1.79991864792135e+02,8.00009564226422e+01,-8.29630428032605e-03
1.02329299228075e+06,5.74745949065248e+01,1.79991675298803e+02,8.00009564188339e+01,-8.48955002955780e-03
1.04712854805090e+06,5.74745949025385e+01,1.79991481391605e+02,8.00009564148461e+01,-8.68729705036816e-03
1.07151930523761e+06,5.74745948983643e+01,1.79991282967728e+02,8.00009564106704e+01,-8.88965019082934e-03
1.09647819614319e+06,5.74745948939934e+01,1.79991079921966e+02,8.00009564062979e+01,-9.09671674123806e-03
1.12201845430196e+06,5.74745948894165e+01,1.79990872146660e+02,8.00009564017194e+01,-9.30860649100215e-03
1.14815362149688e+06,5.74745948846239e+01,1.79990659531646e+02,8.00009563969250e+01,-9.52543178685231e-03
1.17489755493953e+06,5.74745948796054e+01,1.79990441964192e+02,8.00009563919047e+01,-9.74730759240974e-03
1.20226443461741e+06,5.74745948743505e+01,1.79990219328941e+02,8.00009563866478e+01,-9.97435154914122e-03
1.23026877081238e+06,5.74745948688478e+01,1.79989991507850e+02,8.00009563811432e+01,-1.02066840387341e-02
1.25892541179417e+06,5.74745948630859e+01,1.79989758380124e+02,8.00009563753791e+01,-1.04444282469243e-02
1.28824955169313e+06,5.74745948570523e+01,1.79989519822156e+02,8.00009563693434e+01,-1.06877102288105e-02
1.31825673855641e+06,5.74745948507345e+01,1.79989275707459e+02,8.00009563630232e+01,-1.09366589756905e-02
1.34896288259165e+06,5.74745948441188e+01,1.79989025906601e+02,8.00009563564051e+01,-1.11914064834539e-02
1.38038426460288e+06,5.74745948371914e+01,1.79988770287134e+02,8.00009563494752e+01,-1.14520878225676e-02
1.41253754462275e+06,5.74745948299376e+01,1.79988508713525e+02,8.00009563422187e+01,-1.17188412096921e-02
1.44543977074593e+06,5.74745948223418e+01,1.79988241047085e+02,8.00009563346201e+01,-1.19918080809658e-02
1.47910838816821e+06,5.74745948143881e+01,1.79987967145892e+02,8.00009563266635e+01,-1.22711331669956e-02
1.51356124843621e+06,5.74745948060595e+01,1.79987686864722e+02,8.00009563183319e+01,-1.25569645695951e-02
1.54881661891248e+06,5.74745947973384e+01,1.79987400054965e+02,8.00009563096076e+01,-1.28494538403101e-02
1.58489319246111e+06,5.74745947882063e+01,1.79987106564551e+02,8.00009563004721e+01,-1.31487560607725e-02
1.62181009735893e+06,5.74745947786438e+01,1.79986806237868e+02,8.00009562909062e+01,-1.34550299249270e-02
1.65958690743756e+06,5.74745947686307e+01,1.79986498915678e+02,8.00009562808894e+01,-1.37684378231721e-02
1.69824365246174e+06,5.74745947581456e+01,1.79986184435036e+02,8.00009562704005e+01,-1.40891459284612e-02
1.73780082874937e+06,5.74745947471664e+01,1.79985862629199e+02,8.00009562594172e+01,-1.44173242844100e-02
1.77827941003892e+06,5.74745947356698e+01,1.79985533327543e+02,8.00009562479164e+01,-1.47531468954549e-02
1.81970085860998e+06,5.74745947236313e+01,1.79985196355466e+02,8.00009562358735e+01,-1.50967918191125e-02
1.86208713666287e+06,5.74745947110255e+01,1.79984851534302e+02,8.00009562232631e+01,-1.54484412603877e-02
1.90546071796325e+06,5.74745946978256e+01,1.79984498681223e+02,8.00009562100584e+01,-1.58082816683805e-02
1.94984459975804e+06,5.74745946840036e+01,1.79984137609140e+02,8.00009561962313e+01,-1.61765038351436e-02
1.99526231496888e+06,5.74745946695302e+01,1.79983768126609e+02,8.00009561817526e+01,-1.65533029968426e-02
2.04173794466953e+06,5.74745946543747e+01,1.79983390037726e+02,8.00009561665915e+01,-1.69388789372718e-02
2.08929613085404e+06,5.74745946385049e+01,1.79983003142023e+02,8.00009561507160e+01,-1.73334360937822e-02
2.13796208950223e+06,5.74745946218872e+01,1.79982607234363e+02,8.00009561340922e+01,-1.77371836656760e-02
2.18776162394955e+06,5.74745946044864e+01,1.79982202104830e+02,8.00009561166850e+01,-1.81503357251263e-02
2.23872113856834e+06,5.74745945862654e+01,1.79981787538619e+02,8.00009560984574e+01,-1.85731113306807e-02
2.29086765276777e+06,5.74745945671858e+01,1.79981363315923e+02,8.00009560793707e+01,-1.90057346434078e-02
2.34422881531992e+06,5.74745945472069e+01,1.79980929211813e+02,8.00009560593845e+01,-1.94484350457501e-02
2.39883291901949e+06,5.74745945262865e+01,1.79980484996121e+02,8.00009560384565e+01,-1.99014472631445e-02
2.45470891568503e+06,5.74745945043801e+01,1.79980030433318e+02,8.00009560165421e+01,-2.03650114884763e-02
2.51188643150958e+06,5.74745944814413e+01,1.79979565282390e+02,8.00009559935949e+01,-2.08393735094314e-02
2.57039578276886e+06,5.74745944574214e+01,1.79979089296707e+02,8.00009559695662e+01,-2.13247848388155e-02
2.63026799189538e+06,5.74745944322695e+01,1.79978602223897e+02,8.00009559444051e+01,-2.18215028479084e-02
2.69153480392691e+06,5.74745944059323e+01,1.79978103805705e+02,8.00009559180582e+01,-2.23297909029245e-02
2.75422870333816e+06,5.74745943783537e+01,1.79977593777866e+02,8.00009558904696e+01,-2.28499185046519e-02
2.81838293126445e+06,5.74745943494755e+01,1.79977071869956e+02,8.00009558615808e+01,-2.33821614313439e-02
2.88403150312660e+06,5.74745943192363e+01,1.79976537805251e+02,8.00009558313305e+01,-2.39268018849393e-02
2.95120922666638e+06,5.74745942875719e+01,1.79975991300586e+02,8.00009557996546e+01,-2.44841286406876e-02
3.01995172040201e+06,5.74745942544153e+01,1.79975432066196e+02,8.00009557664858e+01,-2.50544372002603e-02
3.09029543251359e+06,5.74745942196960e+01,1.79974859805568e+02,8.00009557317538e+01,-2.56380299484279e-02
3.16227766016838e+06,5.74745941833404e+01,1.79974274215281e+02,8.00009556953849e+01,-2.62352163133867e-02
3.23593656929628e+06,5.74745941452715e+01,1.79973674984850e+02,8.00009556573021e+01,-2.68463129308196e-02
3.31131121482591e+06,5.74745941054084e+01,1.79973061796555e+02,8.00009556174244e+01,-2.74716438117785e-02
3.38844156139202e+06,5.74745940636667e+01,1.79972434325274e+02,8.00009555756674e+01,-2.81115405144773e-02
3.46736850452531e+06,5.74745940199577e+01,1.79971792238316e+02,8.00009555319424e+01,-2.87663423200856e-02
3.54813389233575e+06,5.74745939741888e+01,1.79971135195238e+02,8.00009554861568e+01,-2.94363964126181e-02
3.63078054770101e+06,5.74745939262628e+01,1.79970462847668e+02,8.00009554382133e+01,-3.01220580630130e-02
3.71535229097172e+06,5.74745938760782e+01,1.79969774839118e+02,8.00009553880103e+01,-3.08236908174984e-02
3.80189396320561e+06,5.74745938235285e+01,1.79969070804798e+02,8.00009553354413e+01,-3.15416666903466e-02
3.89045144994280e+06,5.74745937685021e+01,1.79968350371421e+02,8.00009552803948e+01,-3.22763663611175e-02
3.98107170553497e+06,5.74745937108825e+01,1.79967613157004e+02,8.00009552227541e+01,-3.30281793764960e-02
4.07380277804112e+06,5.74745936505473e+01,1.79966858770667e+02,8.00009551623968e+01,-3.37975043568315e-02
4.16869383470335e+06,5.74745935873686e+01,1.79966086812425e+02,8.00009550991950e+01,-3.45847492074870e-02
4.26579518801592e+06,5.74745935212124e+01,1.79965296872978e+02,8.00009550330146e+01,-3.53903313351122e-02
4.36515832240165e+06,5.74745934519383e+01,1.79964488533488e+02,8.00009549637152e+01,-3.62146778689526e-02
4.46683592150962e+06,5.74745933793995e+01,1.79963661365367e+02,8.00009548911498e+01,-3.70582258873145e-02
4.57088189614874e+06,5.74745933034420e+01,1.79962814930038e+02,8.00009548151645e+01,-3.79214226493039e-02
4.67735141287197e+06,5.74745932239047e+01,1.79961948778713e+02,8.00009547355982e+01,-3.88047258319639e-02
4.78630092322638e+06,5.74745931406190e+01,1.79961062452148e+02,8.00009546522820e+01,-3.97086037729344e-02
4.89778819368445e+06,5.74745930534081e+01,1.79960155480402e+02,8.00009545650392e+01,-4.06335357187642e-02
5.01187233627271e+06,5.74745929620872e+01,1.79959227382588e+02,8.00009544736848e+01,-4.15800120790072e-02
5.12861383991364e+06,5.74745928664624e+01,1.79958277666618e+02,8.00009543780250e+01,-4.25485346862361e-02
5.24807460249772e+06,5.74745927663309e+01,1.79957305828943e+02,8.00009542778569e+01,-4.35396170621122e-02
5.37031796370252e+06,5.74745926614804e+01,1.79956311354283e+02,8.00009541729681e+01,-4.45537846896530e-02
5.49540873857624e+06,5.74745925516884e+01,1.79955293715356e+02,8.00009540631359e+01,-4.55915752918406e-02
5.62341325190348e+06,5.74745924367221e+01,1.79954252372599e+02,8.00009539481276e+01,-4.66535391167193e-02
5.75439937337156e+06,5.74745923163377e+01,1.79953186773881e+02,8.00009538276990e+01,-4.77402392291339e-02
5.88843655355588e+06,5.74745921902796e+01,1.79952096354211e+02,8.00009537015949e+01,-4.88522518092623e-02
6.02559586074357e+06,5.74745920582807e+01,1.79950980535434e+02,8.00009535695476e+01,-4.99901664581013e-02
6.16595001861481e+06,5.74745919200608e+01,1.79949838725934e+02,8.00009534312772e+01,-5.11545865100680e-02
6.30957344480192e+06,5.74745917753268e+01,1.79948670320310e+02,8.00009532864903e+01,-5.23461293528808e-02
6.45654229034654e+06,5.74745916237718e+01,1.79947474699063e+02,8.00009531348798e+01,-5.35654267548918e-02
6.60693448007595e+06,5.74745914650742e+01,1.79946251228260e+02,8.00009529761241e+01,-5.48131252000416e-02
6.76082975391980e+06,5.74745912988973e+01,1.79944999259206e+02,8.00009528098864e+01,-5.60898862306172e-02
6.91830970918935e+06,5.74745911248889e+01,1.79943718128095e+02,8.00009526358143e+01,-5.73963867979905e-02
7.07945784384136e+06,5.74745909426796e+01,1.79942407155658e+02,8.00009524535384e+01,-5.87333196215274e-02
7.24435960074989e+06,5.74745907518832e+01,1.79941065646806e+02,8.00009522626721e+01,-6.01013935558550e-02
7.41310241300916e+06,5.74745905520947e+01,1.79939692890257e+02,8.00009520628106e+01,-6.15013339666823e-02
7.58577575029182e+06,5.74745903428906e+01,1.79938288158164e+02,8.00009518535298e+01,-6.29338831153742e-02
7.76247116628690e+06,5.74745901238269e+01,1.79936850705725e+02,8.00009516343861e+01,-6.43998005524817e-02
7.94328234724280e+06,5.74745898944391e+01,1.79935379770790e+02,8.00009514049143e+01,-6.58998635204368e-02
8.12830516164097e+06,5.74745896542407e+01,1.79933874573457e+02,8.00009511646280e+01,-6.74348673656267e-02
8.31763771102669e+06,5.74745894027220e+01,1.79932334315658e+02,8.00009509130173e+01,-6.90056259600639e-02
8.51138038202375e+06,5.74745891393496e+01,1.79930758180735e+02,8.00009506495485e+01,-7.06129721328769e-02
8.70963589956079e+06,5.74745888635649e+01,1.79929145333009e+02,8.00009503736629e+01,-7.22577581118496e-02
8.91250938133743e+06,5.74745885747829e+01,1.79927494917336e+02,8.00009500847752e+01,-7.39408559752440e-02
9.12010839355908e+06,5.74745882723910e+01,1.79925806058654e+02,8.00009497822727e+01,-7.56631581141437e-02
9.33254300796989e+06,5.74745879557479e+01,1.79924077861517e+02,8.00009494655137e+01,-7.74255777055660e-02
9.54992586021434e+06,5.74745876241818e+01,1.79922309409625e+02,8.00009491338264e+01,-7.92290491965903e-02
9.77237220955808e+06,5.74745872769896e+01,1.79920499765331e+02,8.00009487865071e+01,-8.10745287997617e-02
9.99999999999998e+06,5.74745869134347e+01,1.79918647969152e+02,8.00009484228191e+01,-8.29629950000306e-02
1.02329299228075e+07,5.74745865327461e+01,1.79916753039254e+02,8.00009480419912e+01,-8.48954490734971e-02
1.04712854805090e+07,5.74745861341161e+01,1.79914813970935e+02,8.00009476432154e+01,-8.68729156182360e-02
1.07151930523760e+07,5.74745857166994e+01,1.79912829736091e+02,8.00009472256459e+01,-8.88964430974824e-02
1.09647819614318e+07,5.74745852796104e+01,1.79910799282671e+02,8.00009467883970e+01,-9.09671043954649e-02
1.12201845430196e+07,5.74745848219222e+01,1.79908721534121e+02,8.00009463305413e+01,-9.30859973861842e-02
1.14815362149688e+07,5.74745843426637e+01,1.79906595388809e+02,8.00009458511075e+01,-9.52542455154327e-02
1.17489755493953e+07,5.74745838408187e+01,1.79904419719446e+02,8.00009453490788e+01,-9.74729983963697e-02
1.20226443461741e+07,5.74745833153224e+01,1.79902193372486e+02,8.00009448233902e+01,-9.97434324189614e-02
1.23026877081238e+07,5.74745827650603e+01,1.79899915167513e+02,8.00009442729268e+01,-1.02066751373614e-01
1.25892541179416e+07,5.74745821888652e+01,1.79897583896618e+02,8.00009436965209e+01,-1.04444187089323e-01
1.28824955169313e+07,5.74745815855150e+01,1.79895198323759e+02,8.00009430929500e+01,-1.06877000086688e-01
1.31825673855640e+07,5.74745809537299e+01,1.79892757184102e+02,8.00009424609337e+01,-1.09366480246123e-01
1.34896288259165e+07,5.74745802921697e+01,1.79890259183354e+02,8.00009417991314e+01,-1.11913947491633e-01
1.38038426460288e+07,5.74745795994313e+01,1.79887702997075e+02,8.00009411061395e+01,-1.14520752490498e-01
1.41253754462275e+07,5.74745788740453e+01,1.79885087269977e+02,8.00009403804881e+01,-1.17188277369265e-01
1.44543977074592e+07,5.74745781144729e+01,1.79882410615207e+02,8.00009396206378e+01,-1.19917936446389e-01
1.47910838816820e+07,5.74745773191032e+01,1.79879671613607e+02,8.00009388249771e+01,-1.22711176981943e-01
1.51356124843620e+07,5.74745764862491e+01,1.79876868812967e+02,8.00009379918181e+01,-1.25569479944778e-01
1.54881661891248e+07,5.74745756141438e+01,1.79874000727252e+02,8.00009371193938e+01,-1.28494360797541e-01
1.58489319246111e+07,5.74745747009377e+01,1.79871065835816e+02,8.00009362058536e+01,-1.31487370299963e-01
1.62181009735892e+07,5.74745737446938e+01,1.79868062582596e+02,8.00009352492597e+01,-1.34550095330857e-01
1.65958690743756e+07,5.74745727433837e+01,1.79864989375284e+02,8.00009342475832e+01,-1.37684159729234e-01
1.69824365246174e+07,5.74745716948835e+01,1.79861844584489e+02,8.00009331986994e+01,-1.40891225155014e-01
1.73780082874937e+07,5.74745705969693e+01,1.79858626542867e+02,8.00009321003835e+01,-1.44172991969754e-01
1.77827941003892e+07,5.74745694473123e+01,1.79855333544242e+02,8.00009309503058e+01,-1.47531200137887e-01
1.81970085860998e+07,5.74745682434740e+01,1.79851963842699e+02,8.00009297460270e+01,-1.50967630148930e-01
1.86208713666286e+07,5.74745669829008e+01,1.79848515651662e+02,8.00009284849926e+01,-1.54484103961159e-01
1.90546071796324e+07,5.74745656629191e+01,1.79844987142940e+02,8.00009271645279e+01,-1.58082485967234e-01
1.94984459975804e+07,5.74745642807290e+01,1.79841376445767e+02,8.00009257818321e+01,-1.61764683982315e-01
1.99526231496887e+07,5.74745628333987e+01,1.79837681645805e+02,8.00009243339722e+01,-1.65532650255148e-01
2.04173794466952e+07,5.74745613178584e+01,1.79833900784131e+02,8.00009228178773e+01,-1.69388382502696e-01
2.08929613085403e+07,5.74745597308934e+01,1.79830031856198e+02,8.00009212303317e+01,-1.73333924968835e-01
2.13796208950223e+07,5.74745580691377e+01,1.79826072810773e+02,8.00009195679679e+01,-1.77371369507681e-01
2.18776162394955e+07,5.74745563290666e+01,1.79822021548853e+02,8.00009178272601e+01,-1.81502856692129e-01
2.23872113856833e+07,5.74745545069891e+01,1.79817875922548e+02,8.00009160045159e+01,-1.85730576948167e-01
2.29086765276777e+07,5.74745525990406e+01,1.79813633733946e+02,8.00009140958693e+01,-1.90056771715593e-01
2.34422881531991e+07,5.74745506011742e+01,1.79809292733945e+02,8.00009120972718e+01,-1.94483734635721e-01
2.39883291901948e+07,5.74745485091522e+01,1.79804850621068e+02,8.00009100044843e+01,-1.99013812766711e-01
2.45470891568502e+07,5.74745463185373e+01,1.79800305040234e+02,8.00009078130679e+01,-2.03649407827177e-01
2.51188643150957e+07,5.74745440246831e+01,1.79795653581521e+02,8.00009055183743e+01,-2.08392977468703e-01
2.57039578276885e+07,5.74745416227242e+01,1.79790893778878e+02,8.00009031155365e+01,-2.13247036577958e-01
2.63026799189537e+07,5.74745391075658e+01,1.79786023108830e+02,8.00009005994578e+01,-2.18214158609091e-01
2.69153480392691e+07,5.74745364738732e+01,1.79781038989129e+02,8.00008979648016e+01,-2.23296976947096e-01
2.75422870333816e+07,5.74745337160603e+01,1.79775938777397e+02,8.00008952059795e+01,-2.28498186302885e-01
2.81838293126444e+07,5.74745308282775e+01,1.79770719769720e+02,8.00008923171400e+01,-2.33820544140785e-01
2.88403150312660e+07,5.74745278043997e+01,1.79765379199217e+02,8.00008892921558e+01,-2.39266872139217e-01
2.95120922666637e+07,5.74745246380132e+01,1.79759914234575e+02,8.00008861246107e+01,-2.44840057685327e-01
3.01995172040200e+07,5.74745213224019e+01,1.79754321978548e+02,8.00008828077862e+01,-2.50543055404350e-01
3.09029543251358e+07,5.74745178505334e+01,1.79748599466426e+02,8.00008793346474e+01,-2.56378888724516e-01
3.16227766016837e+07,5.74745142150438e+01,1.79742743664460e+02,8.00008756978274e+01,-2.62350651478310e-01
3.23593656929627e+07,5.74745104082220e+01,1.79736751468258e+02,8.00008718896128e+01,-2.68461509540942e-01
3.31131121482590e+07,5.74745064219939e+01,1.79730619701144e+02,8.00008679019260e+01,-2.74714702506866e-01
3.38844156139201e+07,5.74745022479045e+01,1.79724345112468e+02,8.00008637263092e+01,-2.81113545405247e-01
3.46736850452530e+07,5.74744978771006e+01,1.79717924375893e+02,8.00008593539060e+01,-2.87661430455264e-01
3.54813389233574e+07,5.74744933003117e+01,1.79711354087629e+02,8.00008547754425e+01,-2.94361828862169e-01
3.63078054770100e+07,5.74744885078306e+01,1.79704630764634e+02,8.00008499812077e+01,-3.01218292655045e-01
3.71535229097171e+07,5.74744834894925e+01,1.79697750842768e+02,8.00008449610333e+01,-3.08234456567224e-01
3.80189396320560e+07,5.74744782346535e+01,1.79690710674905e+02,8.00008397042716e+01,-3.15414039960344e-01
3.89045144994279e+07,5.74744727321684e+01,1.79683506529007e+02,8.00008341997730e+01,-3.22760848793062e-01
3.98107170553496e+07,5.74744669703666e+01,1.79676134586147e+02,8.00008284358629e+01,-3.30278777635430e-01
4.07380277804111e+07,5.74744609370276e+01,1.79668590938484e+02,8.00008224003162e+01,-3.37971811730011e-01
4.16869383470334e+07,5.74744546193551e+01,1.79660871587202e+02,8.00008160803320e+01,-3.45844029100782e-01
4.26579518801591e+07,5.74744480039496e+01,1.79652972440390e+02,8.00008094625058e+01,-3.53899602710950e-01
4.36515832240164e+07,5.74744410767804e+01,1.79644889310876e+02,8.00008025328019e+01,-3.62142802670781e-01
4.46683592150961e+07,5.74744338231556e+01,1.79636617914015e+02,8.00007952765228e+01,-3.70577998496603e-01
4.57088189614873e+07,5.74744262276908e+01,1.79628153865422e+02,8.00007876782788e+01,-3.79209661422154e-01
4.67735141287196e+07,5.74744182742771e+01,1.79619492678654e+02,8.00007797219548e+01,-3.88042366763471e-01
4.78630092322636e+07,5.74744099460460e+01,1.79610629762831e+02,8.00007713906763e+01,-3.97080796338553e-01
4.89778819368444e+07,5.74744012253346e+01,1.79601560420220e+02,8.00007626667737e+01,-4.06329740943041e-01
5.01187233627270e+07,5.74743920936473e+01,1.79592279843741e+02,8.00007535317450e+01,-4.15794102883210e-01
5.12861383991363e+07,5.74743825316174e+01,1.79582783114431e+02,8.00007439662162e+01,-4.25478898567564e-01
5.24807460249770e+07,5.74743725189654e+01,1.79573065198843e+02,8.00007339499003e+01,-4.35389261158391e-01
5.37031796370251e+07,5.74743620344562e+01,1.79563120946386e+02,8.00007234615546e+01,-4.45530443284631e-01
5.49540873857622e+07,5.74743510558543e+01,1.79552945086604e+02,8.00007124789354e+01,-4.55907819817451e-01
5.62341325190347e+07,5.74743395598765e+01,1.79542532226389e+02,8.00007009787510e+01,-4.66526890709972e-01
5.75439937337155e+07,5.74743275221424e+01,1.79531876847138e+02,8.00006889366120e+01,-4.77393283902586e-01
5.88843655355586e+07,5.74743149171230e+01,1.79520973301833e+02,8.00006763269801e+01,-4.88512758295360e-01
6.02559586074355e+07,5.74743017180864e+01,1.79509815812062e+02,8.00006631231136e+01,-4.99891206789045e-01
6.16595001861480e+07,5.74742878970411e+01,1.79498398464966e+02,8.00006492970108e+01,-5.11534659396255e-01
6.30957344480191e+07,5.74742734246769e+01,1.79486715210123e+02,8.00006348193508e+01,-5.23449286424377e-01
6.45654229034653e+07,5.74742582703027e+01,1.79474759856351e+02,8.00006196594311e+01,-5.35641401731861e-01
6.60693448007593e+07,5.74742424017813e+01,1.79462526068443e+02,8.00006037851029e+01,-5.48117466059515e-01
6.76082975391979e+07,5.74742257854613e+01,1.79450007363826e+02,8.00005871627025e+01,-5.60884090438523e-01
6.91830970918933e+07,5.74742083861061e+01,1.79437197109143e+02,8.00005697569803e+01,-5.73948039676882e-01
7.07945784384135e+07,5.74741901668190e+01,1.79424088516754e+02,8.00005515310261e+01,-5.87316235926030e-01
7.24435960074987e+07,5.74741710889649e+01,1.79410674641161e+02,8.00005324461907e+01,-6.00995762329464e-01
7.41310241300914e+07,5.74741511120886e+01,1.79396948375347e+02,8.00005124620041e+01,-6.14993866755170e-01
