;Version, 1, 0
;db20((VF("/out+") - VF("/out-"))) (VCTRL=0.02),;db20((VF("/out+") - VF("/out-"))) (VCTRL=0.04),;db20((VF("/out+") - VF("/out-"))) (VCTRL=0.06),;db20((VF("/out+") - VF("/out-"))) (VCTRL=0.08),;db20((VF("/out+") - VF("/out-"))) (VCTRL=0.1),;db20((VF("/out+") - VF("/out-"))) (VCTRL=0.12),;db20((VF("/out+") - VF("/out-"))) (VCTRL=0.14),;db20((VF("/out+") - VF("/out-"))) (VCTRL=0.16),;db20((VF("/out+") - VF("/out-"))) (VCTRL=0.18),;db20((VF("/out+") - VF("/out-"))) (VCTRL=0.2),;db20((VF("/out+") - VF("/out-"))) (VCTRL=0.22),;db20((VF("/out+") - VF("/out-"))) (VCTRL=0.24),;db20((VF("/out+") - VF("/out-"))) (VCTRL=0.26),;db20((VF("/out+") - VF("/out-"))) (VCTRL=0.28),;db20((VF("/out+") - VF("/out-"))) (VCTRL=0.3)
;X, Y,;X, Y,;X, Y,;X, Y,;X, Y,;X, Y,;X, Y,;X, Y,;X, Y,;X, Y,;X, Y,;X, Y,;X, Y,;X, Y,;X, Y
;Re, Re,;Re, Re,;Re, Re,;Re, Re,;Re, Re,;Re, Re,;Re, Re,;Re, Re,;Re, Re,;Re, Re,;Re, Re,;Re, Re,;Re, Re,;Re, Re,;Re, Re
;freq, V,;freq, V,;freq, V,;freq, V,;freq, V,;freq, V,;freq, V,;freq, V,;freq, V,;freq, V,;freq, V,;freq, V,;freq, V,;freq, V,;freq, V
;Hz, dB,;Hz, dB,;Hz, dB,;Hz, dB,;Hz, dB,;Hz, dB,;Hz, dB,;Hz, dB,;Hz, dB,;Hz, dB,;Hz, dB,;Hz, dB,;Hz, dB,;Hz, dB,;Hz, dB
1,-30.41926738824875,1,-24.09037802327969,1,-20.05968077958683,1,-16.85977396583416,1,-14.04813025792316,1,-11.42334908774501,1,-8.934593355583857,1,-6.575818228555661,1,-4.407358647722273,1,-2.533889620989482,1,-1.057625219199948,1,-0.01101575346197757,1,0.6658459664578671,1,1.078680714736975,1,1.325494512604741
1.023292992280754,-30.41926738824875,1.023292992280754,-24.09037802327969,1.023292992280754,-20.05968077958683,1.023292992280754,-16.85977396583416,1.023292992280754,-14.04813025792316,1.023292992280754,-11.42334908774501,1.023292992280754,-8.934593355583853,1.023292992280754,-6.575818228555661,1.023292992280754,-4.407358647722269,1.023292992280754,-2.533889620989481,1.023292992280754,-1.05762521919995,1.023292992280754,-0.01101575346197757,1.023292992280754,0.6658459664578636,1.023292992280754,1.078680714736974,1.023292992280754,1.325494512604741
1.047128548050899,-30.41926738824875,1.047128548050899,-24.09037802327969,1.047128548050899,-20.05968077958683,1.047128548050899,-16.85977396583415,1.047128548050899,-14.04813025792316,1.047128548050899,-11.42334908774501,1.047128548050899,-8.934593355583853,1.047128548050899,-6.575818228555661,1.047128548050899,-4.407358647722269,1.047128548050899,-2.533889620989482,1.047128548050899,-1.057625219199952,1.047128548050899,-0.0110157534619766,1.047128548050899,0.6658459664578653,1.047128548050899,1.078680714736977,1.047128548050899,1.325494512604745
1.071519305237606,-30.41926738824875,1.071519305237606,-24.09037802327969,1.071519305237606,-20.05968077958683,1.071519305237606,-16.85977396583416,1.071519305237606,-14.04813025792316,1.071519305237606,-11.42334908774501,1.071519305237606,-8.934593355583853,1.071519305237606,-6.575818228555663,1.071519305237606,-4.407358647722269,1.071519305237606,-2.533889620989485,1.071519305237606,-1.057625219199952,1.071519305237606,-0.01101575346197853,1.071519305237606,0.6658459664578671,1.071519305237606,1.078680714736975,1.071519305237606,1.325494512604741
1.096478196143185,-30.41926738824875,1.096478196143185,-24.09037802327969,1.096478196143185,-20.05968077958683,1.096478196143185,-16.85977396583416,1.096478196143185,-14.04813025792316,1.096478196143185,-11.42334908774501,1.096478196143185,-8.93459335558385,1.096478196143185,-6.575818228555664,1.096478196143185,-4.407358647722268,1.096478196143185,-2.533889620989483,1.096478196143185,-1.057625219199949,1.096478196143185,-0.01101575346197853,1.096478196143185,0.6658459664578671,1.096478196143185,1.078680714736979,1.096478196143185,1.325494512604741
1.122018454301963,-30.41926738824875,1.122018454301963,-24.0903780232797,1.122018454301963,-20.05968077958683,1.122018454301963,-16.85977396583416,1.122018454301963,-14.04813025792316,1.122018454301963,-11.42334908774501,1.122018454301963,-8.93459335558385,1.122018454301963,-6.575818228555662,1.122018454301963,-4.407358647722268,1.122018454301963,-2.533889620989482,1.122018454301963,-1.057625219199952,1.122018454301963,-0.01101575346197853,1.122018454301963,0.6658459664578689,1.122018454301963,1.078680714736979,1.122018454301963,1.325494512604743
1.148153621496882,-30.41926738824875,1.148153621496882,-24.0903780232797,1.148153621496882,-20.05968077958684,1.148153621496882,-16.85977396583415,1.148153621496882,-14.04813025792316,1.148153621496882,-11.42334908774501,1.148153621496882,-8.934593355583853,1.148153621496882,-6.575818228555661,1.148153621496882,-4.407358647722269,1.148153621496882,-2.533889620989482,1.148153621496882,-1.05762521919995,1.148153621496882,-0.01101575346197757,1.148153621496882,0.6658459664578689,1.148153621496882,1.078680714736979,1.148153621496882,1.325494512604741
1.174897554939529,-30.41926738824875,1.174897554939529,-24.09037802327969,1.174897554939529,-20.05968077958683,1.174897554939529,-16.85977396583415,1.174897554939529,-14.04813025792316,1.174897554939529,-11.42334908774501,1.174897554939529,-8.93459335558385,1.174897554939529,-6.575818228555661,1.174897554939529,-4.407358647722265,1.174897554939529,-2.533889620989485,1.174897554939529,-1.05762521919995,1.174897554939529,-0.01101575346197563,1.174897554939529,0.6658459664578689,1.174897554939529,1.078680714736979,1.174897554939529,1.325494512604745
1.202264434617413,-30.41926738824875,1.202264434617413,-24.09037802327969,1.202264434617413,-20.05968077958683,1.202264434617413,-16.85977396583415,1.202264434617413,-14.04813025792316,1.202264434617413,-11.42334908774501,1.202264434617413,-8.93459335558385,1.202264434617413,-6.575818228555661,1.202264434617413,-4.407358647722265,1.202264434617413,-2.533889620989485,1.202264434617413,-1.057625219199949,1.202264434617413,-0.01101575346197563,1.202264434617413,0.6658459664578708,1.202264434617413,1.078680714736979,1.202264434617413,1.325494512604747
1.230268770812381,-30.41926738824874,1.230268770812381,-24.09037802327969,1.230268770812381,-20.05968077958683,1.230268770812381,-16.85977396583415,1.230268770812381,-14.04813025792316,1.230268770812381,-11.423349087745,1.230268770812381,-8.934593355583853,1.230268770812381,-6.575818228555658,1.230268770812381,-4.407358647722265,1.230268770812381,-2.533889620989485,1.230268770812381,-1.057625219199948,1.230268770812381,-0.01101575346197467,1.230268770812381,0.6658459664578708,1.230268770812381,1.078680714736979,1.230268770812381,1.325494512604747
1.258925411794167,-30.41926738824874,1.258925411794167,-24.09037802327969,1.258925411794167,-20.05968077958683,1.258925411794167,-16.85977396583415,1.258925411794167,-14.04813025792316,1.258925411794167,-11.423349087745,1.258925411794167,-8.934593355583853,1.258925411794167,-6.575818228555658,1.258925411794167,-4.407358647722265,1.258925411794167,-2.533889620989485,1.258925411794167,-1.057625219199946,1.258925411794167,-0.01101575346197467,1.258925411794167,0.6658459664578708,1.258925411794167,1.078680714736981,1.258925411794167,1.325494512604747
1.288249551693134,-30.41926738824875,1.288249551693134,-24.09037802327969,1.288249551693134,-20.05968077958683,1.288249551693134,-16.85977396583415,1.288249551693134,-14.04813025792316,1.288249551693134,-11.42334908774501,1.288249551693134,-8.93459335558385,1.288249551693134,-6.575818228555659,1.288249551693134,-4.407358647722265,1.288249551693134,-2.533889620989485,1.288249551693134,-1.057625219199948,1.288249551693134,-0.01101575346197177,1.288249551693134,0.6658459664578725,1.288249551693134,1.078680714736981,1.288249551693134,1.325494512604747
1.318256738556407,-30.41926738824875,1.318256738556407,-24.0903780232797,1.318256738556407,-20.05968077958683,1.318256738556407,-16.85977396583415,1.318256738556407,-14.04813025792316,1.318256738556407,-11.42334908774501,1.318256738556407,-8.934593355583857,1.318256738556407,-6.575818228555658,1.318256738556407,-4.407358647722271,1.318256738556407,-2.533889620989487,1.318256738556407,-1.057625219199949,1.318256738556407,-0.01101575346197757,1.318256738556407,0.6658459664578708,1.318256738556407,1.078680714736979,1.318256738556407,1.325494512604743
1.348962882591653,-30.41926738824874,1.348962882591653,-24.0903780232797,1.348962882591653,-20.05968077958683,1.348962882591653,-16.85977396583415,1.348962882591653,-14.04813025792316,1.348962882591653,-11.42334908774501,1.348962882591653,-8.934593355583855,1.348962882591653,-6.575818228555659,1.348962882591653,-4.407358647722269,1.348962882591653,-2.533889620989485,1.348962882591653,-1.057625219199951,1.348962882591653,-0.01101575346197853,1.348962882591653,0.6658459664578689,1.348962882591653,1.078680714736977,1.348962882591653,1.325494512604741
1.380384264602885,-30.41926738824875,1.380384264602885,-24.0903780232797,1.380384264602885,-20.05968077958683,1.380384264602885,-16.85977396583416,1.380384264602885,-14.04813025792316,1.380384264602885,-11.42334908774501,1.380384264602885,-8.93459335558385,1.380384264602885,-6.575818228555659,1.380384264602885,-4.407358647722269,1.380384264602885,-2.533889620989483,1.380384264602885,-1.05762521919995,1.380384264602885,-0.01101575346197853,1.380384264602885,0.6658459664578689,1.380384264602885,1.078680714736977,1.380384264602885,1.325494512604741
1.412537544622754,-30.41926738824875,1.412537544622754,-24.09037802327969,1.412537544622754,-20.05968077958683,1.412537544622754,-16.85977396583415,1.412537544622754,-14.04813025792316,1.412537544622754,-11.42334908774501,1.412537544622754,-8.93459335558385,1.412537544622754,-6.575818228555661,1.412537544622754,-4.407358647722269,1.412537544622754,-2.533889620989483,1.412537544622754,-1.057625219199951,1.412537544622754,-0.0110157534619737,1.412537544622754,0.6658459664578671,1.412537544622754,1.078680714736977,1.412537544622754,1.325494512604743
1.445439770745927,-30.41926738824875,1.445439770745927,-24.09037802327969,1.445439770745927,-20.05968077958684,1.445439770745927,-16.85977396583415,1.445439770745927,-14.04813025792316,1.445439770745927,-11.42334908774501,1.445439770745927,-8.934593355583853,1.445439770745927,-6.575818228555661,1.445439770745927,-4.407358647722273,1.445439770745927,-2.533889620989487,1.445439770745927,-1.057625219199951,1.445439770745927,-0.01101575346197563,1.445439770745927,0.6658459664578671,1.445439770745927,1.078680714736979,1.445439770745927,1.325494512604738
1.479108388168207,-30.41926738824875,1.479108388168207,-24.0903780232797,1.479108388168207,-20.05968077958683,1.479108388168207,-16.85977396583416,1.479108388168207,-14.04813025792316,1.479108388168207,-11.42334908774501,1.479108388168207,-8.934593355583855,1.479108388168207,-6.575818228555658,1.479108388168207,-4.407358647722271,1.479108388168207,-2.533889620989485,1.479108388168207,-1.05762521919995,1.479108388168207,-0.01101575346197563,1.479108388168207,0.6658459664578689,1.479108388168207,1.078680714736972,1.479108388168207,1.325494512604741
1.513561248436208,-30.41926738824875,1.513561248436208,-24.0903780232797,1.513561248436208,-20.05968077958683,1.513561248436208,-16.85977396583415,1.513561248436208,-14.04813025792316,1.513561248436208,-11.42334908774501,1.513561248436208,-8.934593355583853,1.513561248436208,-6.575818228555659,1.513561248436208,-4.407358647722266,1.513561248436208,-2.533889620989487,1.513561248436208,-1.057625219199948,1.513561248436208,-0.01101575346197853,1.513561248436208,0.6658459664578653,1.513561248436208,1.078680714736979,1.513561248436208,1.325494512604745
1.548816618912481,-30.41926738824875,1.548816618912481,-24.09037802327969,1.548816618912481,-20.05968077958683,1.548816618912481,-16.85977396583415,1.548816618912481,-14.04813025792316,1.548816618912481,-11.42334908774501,1.548816618912481,-8.934593355583853,1.548816618912481,-6.575818228555661,1.548816618912481,-4.407358647722268,1.548816618912481,-2.533889620989487,1.548816618912481,-1.057625219199951,1.548816618912481,-0.0110157534619766,1.548816618912481,0.6658459664578725,1.548816618912481,1.078680714736977,1.548816618912481,1.325494512604747
1.584893192461113,-30.41926738824875,1.584893192461113,-24.09037802327969,1.584893192461113,-20.05968077958683,1.584893192461113,-16.85977396583415,1.584893192461113,-14.04813025792316,1.584893192461113,-11.42334908774501,1.584893192461113,-8.934593355583861,1.584893192461113,-6.575818228555661,1.584893192461113,-4.407358647722271,1.584893192461113,-2.533889620989485,1.584893192461113,-1.057625219199951,1.584893192461113,-0.01101575346197757,1.584893192461113,0.6658459664578725,1.584893192461113,1.078680714736977,1.584893192461113,1.325494512604745
1.621810097358929,-30.41926738824875,1.621810097358929,-24.09037802327969,1.621810097358929,-20.05968077958683,1.621810097358929,-16.85977396583415,1.621810097358929,-14.04813025792316,1.621810097358929,-11.42334908774501,1.621810097358929,-8.934593355583853,1.621810097358929,-6.575818228555659,1.621810097358929,-4.407358647722268,1.621810097358929,-2.533889620989485,1.621810097358929,-1.057625219199951,1.621810097358929,-0.0110157534619766,1.621810097358929,0.6658459664578743,1.621810097358929,1.078680714736977,1.621810097358929,1.325494512604745
1.65958690743756,-30.41926738824875,1.65958690743756,-24.09037802327969,1.65958690743756,-20.05968077958684,1.65958690743756,-16.85977396583416,1.65958690743756,-14.04813025792316,1.65958690743756,-11.42334908774501,1.65958690743756,-8.934593355583855,1.65958690743756,-6.575818228555661,1.65958690743756,-4.407358647722266,1.65958690743756,-2.533889620989485,1.65958690743756,-1.05762521919995,1.65958690743756,-0.0110157534619766,1.65958690743756,0.6658459664578689,1.65958690743756,1.078680714736977,1.65958690743756,1.325494512604747
1.698243652461743,-30.41926738824874,1.698243652461743,-24.09037802327969,1.698243652461743,-20.05968077958684,1.698243652461743,-16.85977396583416,1.698243652461743,-14.04813025792316,1.698243652461743,-11.42334908774501,1.698243652461743,-8.934593355583855,1.698243652461743,-6.575818228555658,1.698243652461743,-4.407358647722269,1.698243652461743,-2.533889620989486,1.698243652461743,-1.057625219199949,1.698243652461743,-0.01101575346197757,1.698243652461743,0.6658459664578653,1.698243652461743,1.078680714736977,1.698243652461743,1.325494512604743
1.737800828749374,-30.41926738824875,1.737800828749374,-24.0903780232797,1.737800828749374,-20.05968077958683,1.737800828749374,-16.85977396583416,1.737800828749374,-14.04813025792316,1.737800828749374,-11.42334908774501,1.737800828749374,-8.934593355583857,1.737800828749374,-6.575818228555658,1.737800828749374,-4.407358647722271,1.737800828749374,-2.533889620989485,1.737800828749374,-1.057625219199945,1.737800828749374,-0.01101575346197853,1.737800828749374,0.6658459664578671,1.737800828749374,1.078680714736975,1.737800828749374,1.325494512604741
1.778279410038922,-30.41926738824875,1.778279410038922,-24.0903780232797,1.778279410038922,-20.05968077958684,1.778279410038922,-16.85977396583416,1.778279410038922,-14.04813025792316,1.778279410038922,-11.42334908774501,1.778279410038922,-8.934593355583853,1.778279410038922,-6.575818228555661,1.778279410038922,-4.407358647722263,1.778279410038922,-2.533889620989486,1.778279410038922,-1.057625219199947,1.778279410038922,-0.01101575346197563,1.778279410038922,0.6658459664578708,1.778279410038922,1.078680714736974,1.778279410038922,1.325494512604747
1.819700858609982,-30.41926738824875,1.819700858609982,-24.09037802327969,1.819700858609982,-20.05968077958683,1.819700858609982,-16.85977396583415,1.819700858609982,-14.04813025792316,1.819700858609982,-11.42334908774501,1.819700858609982,-8.934593355583853,1.819700858609982,-6.575818228555659,1.819700858609982,-4.407358647722268,1.819700858609982,-2.533889620989483,1.819700858609982,-1.05762521919995,1.819700858609982,-0.01101575346197563,1.819700858609982,0.6658459664578671,1.819700858609982,1.078680714736982,1.819700858609982,1.32549451260475
1.862087136662866,-30.41926738824875,1.862087136662866,-24.09037802327969,1.862087136662866,-20.05968077958683,1.862087136662866,-16.85977396583415,1.862087136662866,-14.04813025792316,1.862087136662866,-11.42334908774501,1.862087136662866,-8.934593355583853,1.862087136662866,-6.575818228555659,1.862087136662866,-4.407358647722268,1.862087136662866,-2.533889620989485,1.862087136662866,-1.057625219199949,1.862087136662866,-0.0110157534619766,1.862087136662866,0.6658459664578725,1.862087136662866,1.078680714736977,1.862087136662866,1.325494512604741
1.905460717963246,-30.41926738824875,1.905460717963246,-24.09037802327969,1.905460717963246,-20.05968077958683,1.905460717963246,-16.85977396583415,1.905460717963246,-14.04813025792316,1.905460717963246,-11.42334908774501,1.905460717963246,-8.934593355583853,1.905460717963246,-6.575818228555659,1.905460717963246,-4.407358647722266,1.905460717963246,-2.533889620989482,1.905460717963246,-1.057625219199947,1.905460717963246,-0.01101575346197177,1.905460717963246,0.6658459664578725,1.905460717963246,1.078680714736981,1.905460717963246,1.325494512604747
1.949844599758044,-30.41926738824875,1.949844599758044,-24.09037802327969,1.949844599758044,-20.05968077958683,1.949844599758044,-16.85977396583415,1.949844599758044,-14.04813025792316,1.949844599758044,-11.42334908774501,1.949844599758044,-8.934593355583853,1.949844599758044,-6.575818228555663,1.949844599758044,-4.407358647722269,1.949844599758044,-2.533889620989482,1.949844599758044,-1.057625219199946,1.949844599758044,-0.01101575346196887,1.949844599758044,0.6658459664578708,1.949844599758044,1.078680714736979,1.949844599758044,1.325494512604745
1.995262314968878,-30.41926738824875,1.995262314968878,-24.09037802327969,1.995262314968878,-20.05968077958684,1.995262314968878,-16.85977396583415,1.995262314968878,-14.04813025792316,1.995262314968878,-11.42334908774501,1.995262314968878,-8.934593355583853,1.995262314968878,-6.575818228555661,1.995262314968878,-4.407358647722271,1.995262314968878,-2.533889620989489,1.995262314968878,-1.057625219199948,1.995262314968878,-0.01101575346197563,1.995262314968878,0.6658459664578671,1.995262314968878,1.078680714736975,1.995262314968878,1.325494512604741
2.041737944669527,-30.41926738824875,2.041737944669527,-24.09037802327969,2.041737944669527,-20.05968077958683,2.041737944669527,-16.85977396583415,2.041737944669527,-14.04813025792316,2.041737944669527,-11.42334908774501,2.041737944669527,-8.934593355583857,2.041737944669527,-6.575818228555659,2.041737944669527,-4.407358647722269,2.041737944669527,-2.533889620989485,2.041737944669527,-1.057625219199944,2.041737944669527,-0.01101575346197274,2.041737944669527,0.6658459664578725,2.041737944669527,1.078680714736977,2.041737944669527,1.325494512604745
2.089296130854037,-30.41926738824875,2.089296130854037,-24.09037802327969,2.089296130854037,-20.05968077958683,2.089296130854037,-16.85977396583416,2.089296130854037,-14.04813025792316,2.089296130854037,-11.42334908774501,2.089296130854037,-8.934593355583853,2.089296130854037,-6.575818228555654,2.089296130854037,-4.407358647722265,2.089296130854037,-2.533889620989482,2.089296130854037,-1.057625219199944,2.089296130854037,-0.01101575346197563,2.089296130854037,0.6658459664578671,2.089296130854037,1.078680714736981,2.089296130854037,1.325494512604741
2.13796208950223,-30.41926738824875,2.13796208950223,-24.09037802327969,2.13796208950223,-20.05968077958683,2.13796208950223,-16.85977396583415,2.13796208950223,-14.04813025792316,2.13796208950223,-11.42334908774501,2.13796208950223,-8.934593355583853,2.13796208950223,-6.575818228555656,2.13796208950223,-4.407358647722266,2.13796208950223,-2.533889620989481,2.13796208950223,-1.057625219199947,2.13796208950223,-0.0110157534619708,2.13796208950223,0.6658459664578743,2.13796208950223,1.078680714736982,2.13796208950223,1.32549451260475
