;Version, 1, 0
;(VS("/out+") - VS("/out-")) (VCTRL=0.02),;(VS("/out+") - VS("/out-")) (VCTRL=0.04),;(VS("/out+") - VS("/out-")) (VCTRL=0.06),;(VS("/out+") - VS("/out-")) (VCTRL=0.08),;(VS("/out+") - VS("/out-")) (VCTRL=0.1),;(VS("/out+") - VS("/out-")) (VCTRL=0.12),;(VS("/out+") - VS("/out-")) (VCTRL=0.14),;(VS("/out+") - VS("/out-")) (VCTRL=0.16),;(VS("/out+") - VS("/out-")) (VCTRL=0.18),;(VS("/out+") - VS("/out-")) (VCTRL=0.2),;(VS("/out+") - VS("/out-")) (VCTRL=0.22),;(VS("/out+") - VS("/out-")) (VCTRL=0.24),;(VS("/out+") - VS("/out-")) (VCTRL=0.26),;(VS("/out+") - VS("/out-")) (VCTRL=0.28),;(VS("/out+") - VS("/out-")) (VCTRL=0.3)
;X, Y,;X, Y,;X, Y,;X, Y,;X, Y,;X, Y,;X, Y,;X, Y,;X, Y,;X, Y,;X, Y,;X, Y,;X, Y,;X, Y,;X, Y
;Re, Re,;Re, Re,;Re, Re,;Re, Re,;Re, Re,;Re, Re,;Re, Re,;Re, Re,;Re, Re,;Re, Re,;Re, Re,;Re, Re,;Re, Re,;Re, Re,;Re, Re
;vin, V,;vin, V,;vin, V,;vin, V,;vin, V,;vin, V,;vin, V,;vin, V,;vin, V,;vin, V,;vin, V,;vin, V,;vin, V,;vin, V,;vin, V
;xunit, V,;xunit, V,;xunit, V,;xunit, V,;xunit, V,;xunit, V,;xunit, V,;xunit, V,;xunit, V,;xunit, V,;xunit, V,;xunit, V,;xunit, V,;xunit, V,;xunit, V
-0.2,-0.009492101521182822,-0.2,-0.01970682246670324,-0.2,-0.03132434767982531,-0.2,-0.04478785659772636,-0.2,-0.06013230956504317,-0.2,-0.07720345081701435,-0.2,-0.09508382932231782,-0.2,-0.1131553274662667,-0.2,-0.1308716897001392,-0.2,-0.1478288774462709,-0.2,-0.1637078283827794,-0.2,-0.1782050020285288,-0.2,-0.1910437687214621,-0.2,-0.2019944212797125,-0.2,-0.2109357470683847
-0.199,-0.009426559358879122,-0.199,-0.01955928319528447,-0.199,-0.03105861846961649,-0.199,-0.04441551571579516,-0.199,-0.05974379382179823,-0.199,-0.07666854900649717,-0.199,-0.09449936277336121,-0.199,-0.11253753368811,-0.199,-0.1302311507035175,-0.199,-0.1471687788181591,-0.199,-0.1630197435857534,-0.199,-0.1774859472896576,-0.199,-0.1902893030366534,-0.199,-0.2012002873443383,-0.199,-0.2100999781515902
-0.198,-0.009341829481163771,-0.198,-0.01938486474532219,-0.198,-0.03078747721264655,-0.198,-0.04404443448891771,-0.198,-0.05928099484977356,-0.198,-0.07613302092795676,-0.198,-0.09391287376509883,-0.198,-0.1119158972518302,-0.198,-0.1295826315373651,-0.198,-0.1464956822027361,-0.198,-0.1623205140132076,-0.198,-0.1767568200963729,-0.198,-0.1895255591145635,-0.198,-0.200397576457084,-0.198,-0.2092559264818508
-0.197,-0.009257705700649793,-0.197,-0.01921155856505263,-0.197,-0.03051760817742241,-0.197,-0.04367450600404832,-0.197,-0.0588186105477648,-0.197,-0.07559722537731781,-0.197,-0.09332531484006173,-0.197,-0.1112925989829481,-0.197,-0.1289320426299487,-0.197,-0.1458202111639648,-0.197,-0.1616186373692487,-0.197,-0.1760247586148657,-0.197,-0.1887585669931892,-0.197,-0.1995912956005545,-0.197,-0.2084080187319436
-0.196,-0.009174072254845345,-0.196,-0.01903919838116261,-0.196,-0.03024899565633896,-0.196,-0.04330578725474249,-0.196,-0.0583568958782632,-0.196,-0.07506124897043873,-0.196,-0.09273676826066404,-0.196,-0.1106677143314432,-0.196,-0.1282794546795603,-0.196,-0.145142433990275,-0.196,-0.1609141791663667,-0.196,-0.1752898267980305,-0.196,-0.1879883900153849,-0.196,-0.1987815087722656,-0.196,-0.2075563213349879
-0.195,-0.009090936262024507,-0.195,-0.01886780086787729,-0.195,-0.02998167085190898,-0.195,-0.04293833203380362,-0.195,-0.05789592511793681,-0.195,-0.07452517604022654,-0.195,-0.09214731512527344,-0.195,-0.1100413176525342,-0.195,-0.1276249361885754,-0.195,-0.1444624151724997,-0.195,-0.1602072013610711,-0.195,-0.1745520849964258,-0.195,-0.1872150877709262,-0.195,-0.197968276117808,-0.195,-0.206700896885249
-0.194,-0.009008303438783088,-0.194,-0.01869738024433787,-0.194,-0.0297156628472979,-0.194,-0.0425721919129026,-0.194,-0.05743577179787054,-0.194,-0.07398908926316,-0.194,-0.09155703513050917,-0.194,-0.109413481919777,-0.194,-0.1269685542069752,-0.194,-0.143780217659468,-0.194,-0.1594977642937448,-0.194,-0.1738115918955641,-0.194,-0.1864387181650206,-0.194,-0.1971516561133564,-0.194,-0.2058418063509183
-0.193,-0.00892617901387846,-0.193,-0.01852794967809598,-0.193,-0.02945099902014575,-0.193,-0.04220741626978039,-0.193,-0.05697650732338033,-0.193,-0.07345306965598911,-0.193,-0.09096600658099899,-0.193,-0.1087842787417709,-0.193,-0.1263103743522163,-0.193,-0.1430959028794916,-0.193,-0.1587859267109244,-0.193,-0.1730684045398844,-0.193,-0.185659337444963,-0.193,-0.1963317055953869,-0.193,-0.2049791091058674
-0.192,-0.008844567738089171,-0.192,-0.01835952130675178,-0.192,-0.02918770507965454,-0.192,-0.04184405231608079,-0.192,-0.05651820098708274,-0.192,-0.07291719656994078,-0.192,-0.09037430639088015,-0.192,-0.1081537783683194,-0.192,-0.1256504608171246,-0.192,-0.1424095307485323,-0.192,-0.158071745773104,-0.192,-0.1723225783403906,-0.192,-0.184877000208172,-0.192,-0.1955084797695357,-0.192,-0.2041128629389906
-0.191,-0.008763473900505248,-0.191,-0.01819210626990328,-0.191,-0.02892580510756723,-0.191,-0.04148214512774601,-0.191,-0.05606091997364818,-0.191,-0.07238154768729718,-0.191,-0.08978201008758804,-0.191,-0.1075220496990247,-0.191,-0.1249888763803007,-0.191,-0.1417211596809579,-0.191,-0.1573552770651807,-0.191,-0.1715741670849886,-0.191,-0.184091759412994,-0.191,-0.1946820322223005,-0.191,-0.2032431240664506
-0.19,-0.008682901344706534,-0.19,-0.01802571474110612,-0.19,-0.0286653215999785,-0.19,-0.04112173767767482,-0.19,-0.05560472936742267,-0.19,-0.07184619902009262,-0.19,-0.08918919181763746,-0.19,-0.1068891602940291,-0.19,-0.1243256824187506,-0.19,-0.1410308466025856,-0.19,-0.1566365746092485,-0.19,-0.1708232229512263,-0.19,-0.1833036663919781,-0.19,-0.1938524149352885,-0.19,-0.2023699471465145
-0.189,-0.008602853484831086,-0.189,-0.01786035595981986,-0.189,-0.02840627550982147,-0.189,-0.04076287087041655,-0.189,-0.05514969216264534,-0.189,-0.07131122491076461,-0.189,-0.08859592435420635,-0.189,-0.1062551763867061,-0.189,-0.1236609389225415,-0.189,-0.1403386469658194,-0.189,-0.1559156908795389,-0.189,-0.1700697965212309,-0.189,-0.1825127708674139,-0.189,-0.1930196783017915,-0.189,-0.2014933852967677
-0.188,-0.008523333321491799,-0.188,-0.01769603826324245,-0.188,-0.02814868628985484,-0.188,-0.04040558357867294,-0.188,-0.05469586927607706,-0.188,-0.0707766980345807,-0.188,-0.08800227910632205,-0.188,-0.1056201628980978,-0.188,-0.1229947045112794,-0.188,-0.1396446147666754,-0.188,-0.1551926768192988,-0.188,-0.1693139367986343,-0.188,-0.1817191209689183,-0.188,-0.1921838711454738,-0.188,-0.2006134901134717
-0.187,-0.008444343457508191,-0.187,-0.01753276911795071,-0.187,-0.02789257193599215,-0.187,-0.04004991268140015,-0.187,-0.05424331956186595,-0.187,-0.07024268940368641,-0.187,-0.08740832612946681,-0.187,-0.1049841834529194,-0.187,-0.1223270364522295,-0.187,-0.1389488025635067,-0.187,-0.1544675818594201,-0.187,-0.1685556912272956,-0.187,-0.1809227632528771,-0.187,-0.1913450407409725,-0.187,-0.199730311692868
-0.186,-0.008365886113420679,-0.186,-0.01737055515126795,-0.186,-0.02763794903082958,-0.186,-0.03969589310330729,-0.186,-0.05379209982848374,-0.186,-0.06970926837262661,-0.186,-0.08681413413743433,-0.186,-0.1043473003969525,-0.186,-0.1216579906798981,-0.186,-0.1382512614972519,-0.186,-0.1537404539386396,-0.186,-0.1677951057116385,-0.186,-0.1801237427235521,-0.186,-0.1905032328362155,-0.186,-0.1988438986542244
-0.185,-0.00828796314275787,-0.185,-0.0172094021822902,-0.185,-0.02738483278723361,-0.185,-0.03934355785556351,-0.185,-0.05334226485757046,-0.185,-0.06917650264520178,-0.185,-0.08621977051526977,-0.185,-0.1037095748156631,-0.185,-0.120987621816912,-0.185,-0.1375520413130372,-0.185,-0.1530113395251367,-0.185,-0.1670322246384245,-0.185,-0.179322102855681,-0.185,-0.1896584916762799,-0.185,-0.1979542981644408
-0.184,-0.008210576047037899,-0.184,-0.01704931525250936,-0.184,-0.0271332370918661,-0.184,-0.03899293807753287,-0.184,-0.05289386742454147,-0.184,-0.06864445828252411,-0.184,-0.08562530133314225,-0.184,-0.1030710665538861,-0.184,-0.1203159831960377,-0.184,-0.136851190382972,-0.184,-0.1522802836393701,-0.184,-0.1662670908998077,-0.184,-0.1785178856183993,-0.184,-0.1888108600286191,-0.184,-0.1970615559640335
-0.183,-0.008133725990474461,-0.183,-0.01689029865597844,-0.183,-0.02688317454853423,-0.183,-0.03864406307937063,-0.183,-0.05244695832080656,-0.183,-0.06811319971216834,-0.183,-0.08503079136100755,-0.183,-0.1024318342364281,-0.183,-0.1196431268831961,-0.183,-0.1361487557299919,-0.183,-0.1515473298780022,-0.183,-0.1654997459175129,-0.183,-0.1777111315003345,-0.183,-0.1879603792094974,-0.183,-0.1961657163943412
-0.182,-0.008057413814376468,-0.182,-0.01673235596897119,-0.182,-0.02663465652125971,-0.182,-0.03829696038531649,-0.182,-0.05200158637746624,-0.182,-0.06758278973828782,-0.182,-0.084436304083923,-0.182,-0.101791935289452,-0.182,-0.1189691037013275,-0.182,-0.1354447830526034,-0.182,-0.1508125204387685,-0.182,-0.1647302296679915,-0.182,-0.1769018795357184,-0.182,-0.1871070891114802,-0.182,-0.1952668224257821
-0.181,-0.007981640051222955,-0.181,-0.01657549007909365,-0.181,-0.02638769317697767,-0.181,-0.037951655777545,-0.181,-0.05155779849035996,-0.181,-0.06705328955261111,-0.181,-0.08384190171789702,-0.181,-0.1011514259625134,-0.181,-0.1182939632549868,-0.181,-0.1347393167504123,-0.181,-0.1500758961461633,-0.181,-0.1639585807084289,-0.181,-0.176090167331391,-0.181,-0.1862510282318473,-0.181,-0.1943649156870348
-0.18,-0.007906404938399558,-0.18,-0.01641970321381014,-0.18,-0.02614229352777675,-0.18,-0.03760817334042685,-0.18,-0.05111563964633126,-0.18,-0.06652475874621566,-0.18,-0.08324764522614941,-0.18,-0.1005103613511243,-0.18,-0.1176177539555389,-0.18,-0.13403239995029,-0.18,-0.1493374964778133,-0.18,-0.1631848362034712,-0.18,-0.1752760310945565,-0.18,-0.1853922337017851,-0.18,-0.1934600364949919
-0.179,-0.007831708431588369,-0.179,-0.01626499696835568,-0.179,-0.02589846547260988,-0.179,-0.03726653550507472,-0.179,-0.0506751529506064,-0.179,-0.06599725532199613,-0.179,-0.08265359433568148,-0.179,-0.09986879541973412,-0.179,-0.1169405230468505,-0.179,-0.1333240745330887,-0.179,-0.1485973595914269,-0.179,-0.1624090319525576,-0.179,-0.1744595056611866,-0.179,-0.1845307413162473,-0.179,-0.1925522238853624
-0.178,-0.007757550217800585,-0.178,-0.01611137233300555,-0.178,-0.02565621583840408,-0.178,-0.03692676309405604,-0.178,-0.05023637965516942,-0.178,-0.06547083570775139,-0.178,-0.0820598075540597,-0.178,-0.09922678102502244,-0.178,-0.1162623166313685,-0.178,-0.1326143811607906,-0.178,-0.1478555223522186,-0.178,-0.1616312024177558,-0.178,-0.1736406245249504,-0.178,-0.1836665855643647,-0.178,-0.1916415156438158
-0.177,-0.007683929728048322,-0.177,-0.01595882971968271,-0.177,-0.02541555042051175,-0.177,-0.03658887536615429,-0.177,-0.04979935918802444,-0.177,-0.06494555476981406,-0.177,-0.08146634218630969,-0.177,-0.09858436993939912,-0.177,-0.1155831796964866,-0.177,-0.1319033593039821,-0.177,-0.1471120203606934,-0.177,-0.1608513807519861,-0.177,-0.1728194198665687,-0.177,-0.1827997996602967,-0.177,-0.1907279483375358
-0.176,-0.007610846149649075,-0.176,-0.01580736898788632,-0.176,-0.02517647402245513,-0.176,-0.03625289006108695,-0.176,-0.04936412918326333,-0.176,-0.06442146582716998,-0.176,-0.08087325435186035,-0.176,-0.09794161287463651,-0.176,-0.1149031561411237,-0.176,-0.1311910472695892,-0.176,-0.146366887980726,-0.176,-0.1600695988275686,-0.176,-0.1719959225835176,-0.176,-0.1819304155744401,-0.176,-0.1898115573471122
-0.175,-0.007538298438160701,-0.175,-0.01565698946992514,-0.175,-0.02493899049491158,-0.175,-0.03591882344407393,-0.175,-0.04893072551182259,-0.175,-0.06389862066599505,-0.175,-0.08028059900144285,-0.175,-0.09729855950553037,-0.175,-0.1142222888024119,-0.175,-0.1304774822287607,-0.175,-0.1456201583678264,-0.175,-0.1592858872649797,-0.175,-0.1711701623199687,-0.175,-0.1810584640648869,-0.175,-0.1888923768986482
-0.174,-0.007466285328946609,-0.174,-0.01550768999544955,-0.174,-0.02470310277390594,-0.174,-0.03558669035017786,-0.174,-0.04849918231286393,-0.174,-0.0633770695545724,-0.174,-0.07968842993388753,-0.174,-0.09665525849352746,-0.174,-0.1135406194824373,-0.174,-0.1297627002448473,-0.174,-0.1448718634975302,-0.174,-0.1585002754617614,-0.174,-0.170342167496904,-0.174,-0.1801839747090639,-0.174,-0.1879704400960153
-0.173,-0.00739480534836956,-0.173,-0.01535946891527365,-0.173,-0.0244688129181774,-0.173,-0.03525650422833326,-0.173,-0.04806953202568198,-0.173,-0.06285686125853249,-0.173,-0.07909679981275572,-0.173,-0.0960117575102391,-0.173,-0.1128581889749501,-0.173,-0.1290467363013915,-0.173,-0.1441220341938366,-0.173,-0.157712791621504,-0.173,-0.1695119653423303,-0.173,-0.179306975935472,-0.173,-0.1870457789531699
-0.172,-0.007323856824618058,-0.172,-0.01521232412448364,-0.172,-0.02423612214569043,-0.172,-0.03492827718499322,-0.172,-0.04764180542206434,-0.172,-0.06233804305638527,-0.172,-0.07850576018275529,-0.172,-0.09536810326078404,-0.172,-0.1121750370919916,-0.172,-0.1283296243300735,-0.172,-0.1433707001576378,-0.172,-0.1569234627828402,-0.172,-0.1686795819215255,-0.172,-0.1784274950554597,-0.172,-0.1861184244264619
-0.171,-0.007253437898164627,-0.171,-0.01506625308483364,-0.171,-0.02400503086926781,-0.171,-0.03460202002732662,-0.171,-0.04721603163903715,-0.171,-0.06182066075529957,-0.171,-0.07791536148588549,-0.171,-0.09472434150689338,-0.171,-0.1114912026903726,-0.171,-0.127611397238551,-0.171,-0.1426178899950688,-0.171,-0.1561323148483921,-0.171,-0.1678450421672582,-0.171,-0.1775455582949634,-0.171,-0.185188406446864
-0.17,-0.007183546531862178,-0.17,-0.01492125284642837,-0.17,-0.02377553873133226,-0.17,-0.03427774230590813,-0.17,-0.04679223821191839,-0.17,-0.06130475870710367,-0.17,-0.07732565307727557,-0.17,-0.09408051708972734,-0.17,-0.1108067236979538,-0.17,-0.1268920869381399,-0.17,-0.1418636312457448,-0.17,-0.1553393726136167,-0.17,-0.1670083699099211,-0.17,-0.1766611908261611,-0.17,-0.184255753952066
-0.169,-0.007114180520681329,-0.169,-0.01477732006869698,-0.169,-0.0235476446377382,-0.169,-0.03395545235684869,-0.169,-0.04637045110762031,-0.169,-0.06079037982448032,-0.169,-0.07673668324068114,-0.169,-0.09343667395235511,-0.169,-0.1101216371396825,-0.169,-0.1261717243712929,-0.169,-0.1411079504108133,-0.169,-0.1545446597955062,-0.169,-0.1661695879075449,-0.169,-0.1757744167989901,-0.169,-0.1833204949183812
-0.168,-0.007045337501095233,-0.168,-0.01463445104066347,-0.168,-0.02332134679068446,-0.168,-0.03363515734331265,-0.168,-0.04595069475813723,-0.168,-0.06027756559732139,-0.168,-0.07614849920359681,-0.168,-0.09279285516184785,-0.168,-0.1094359791633366,-0.168,-0.1254503395388235,-0.168,-0.1403508729807973,-0.168,-0.1537481990610932,-0.168,-0.1653287178756254,-0.168,-0.1748852593724727,-0.168,-0.1823826563924037
-0.167,-0.006977014960113492,-0.167,-0.0144926417005222,-0.167,-0.02309664272070744,-0.167,-0.03331686329638686,-0.167,-0.04553299209416187,-0.167,-0.05976635610923745,-0.167,-0.07556114715197465,-0.167,-0.09214910293095213,-0.167,-0.1087497850649421,-0.167,-0.1247279615268493,-0.167,-0.1395924234631878,-0.167,-0.1529500120557302,-0.167,-0.1644857805167451,-0.167,-0.1739937407458184,-0.167,-0.1814422645223836
-0.166,-0.006909210243978947,-0.166,-0.01435188765452525,-0.166,-0.02287352931774667,-0.166,-0.033000575155261,-0.166,-0.04511736457878227,-0.166,-0.05925679005419299,-0.166,-0.07497467224451532,-0.166,-0.09150545863930323,-0.166,-0.1080630893138326,-0.166,-0.1240046185334139,-0.166,-0.138832625409748,-0.166,-0.1521501194311095,-0.166,-0.1636407955499479,-0.166,-0.1730998821892625,-0.166,-0.1804993445892809
-0.165,-0.006841920566525495,-0.165,-0.01421218419519343,-0.165,-0.02265200286128402,-0.165,-0.03268629680668469,-0.165,-0.04470383224119756,-0.165,-0.05874890475325287,-0.165,-0.07438911862651748,-0.165,-0.09086196285414508,-0.165,-0.1073759255773094,-0.165,-0.1232803378947541,-0.165,-0.1380715014434991,-0.165,-0.1513485408729842,-0.165,-0.1627937817398293,-0.165,-0.1722037040746006,-0.165,-0.1795539210374462
-0.164,-0.006775143017211493,-0.164,-0.01407352631886097,-0.164,-0.02243205904956194,-0.164,-0.03237403112367412,-0.164,-0.04429241371041787,-0.164,-0.0582427361714318,-0.164,-0.07380452944327587,-0.164,-0.09021865535053195,-0.164,-0.1066883267448857,-0.164,-0.1225551461111927,-0.164,-0.1373090732853638,-0.164,-0.1505452951285766,-0.164,-0.1619447569253259,-0.164,-0.1713052259054,-0.164,-0.1786060175049151
-0.163,-0.006708874568831041,-0.163,-0.01393590874256659,-0.163,-0.02221369302788237,-0.163,-0.03206378000344601,-0.163,-0.04388312624889409,-0.163,-0.05773831893462997,-0.163,-0.07322094685301028,-0.163,-0.08957557513098041,-0.163,-0.1060003249520799,-0.163,-0.1218290688726247,-0.163,-0.1365453617804412,-0.163,-0.1497404000336398,-0.163,-0.1610937380481713,-0.163,-0.1704044663468509,-0.163,-0.177655656853273
-0.162,-0.00664311208491386,-0.162,-0.01379932592030575,-0.162,-0.02199689941600083,-0.162,-0.03175554440455708,-0.162,-0.043475985786048,-0.162,-0.05723568634665338,-0.162,-0.07263841203933469,-0.162,-0.08893276044456269,-0.162,-0.1053119516037533,-0.162,-0.1211021310835914,-0.162,-0.1357803869239028,-0.162,-0.1489338725391684,-0.162,-0.1602407411810094,-0.162,-0.1695014432552499,-0.162,-0.176702861197078
-0.161,-0.006577852326821787,-0.161,-0.01366377205865313,-0.161,-0.02178167233461351,-0.161,-0.03144932438322839,-0.161,-0.04307100695164767,-0.161,-0.05673487040629932,-0.161,-0.07205696522324184,-0.161,-0.08829024880539904,-0.161,-0.104623237396948,-0.161,-0.1203743568879016,-0.161,-0.1350141678864696,-0.161,-0.1481257287377182,-0.161,-0.1593857815551302,-0.161,-0.1685961737070718,-0.161,-0.1757476519328032
-0.16,-0.006513091960546669,-0.16,-0.01352924113177487,-0.16,-0.02156800543096307,-0.16,-0.03114511912884788,-0.16,-0.04266820310901068,-0.16,-0.05623590182451402,-0.16,-0.07147664567462669,-0.16,-0.08764807701056238,-0.16,-0.1039342123432378,-0.16,-0.1196457696928103,-0.16,-0.1342467230394903,-0.16,-0.1473159838893456,-0.16,-0.158528873587834,-0.16,-0.1676886740276419,-0.16,-0.1747900497672988
-0.159,-0.00644882756322393,-0.159,-0.0133957268958452,-0.159,-0.0213558919035621,-0.159,-0.03084292699863558,-0.159,-0.04226758638798869,-0.159,-0.05573881004160719,-0.159,-0.07089749172333715,-0.159,-0.08700628115735562,-0.159,-0.1032449057905558,-0.159,-0.1189163921927258,-0.159,-0.1334780699795738,-0.159,-0.1465046524471471,-0.159,-0.1576700309093969,-0.159,-0.166778959819369,-0.159,-0.1738300747457409
-0.158,-0.006385055629363867,-0.158,-0.01326322290287524,-0.158,-0.02114532452605869,-0.158,-0.03054274555146441,-0.158,-0.04186916771770577,-0.158,-0.05524362324452356,-0.158,-0.07031954076976074,-0.158,-0.08636489665996533,-0.158,-0.1025553464444988,-0.158,-0.1181862463924372,-0.158,-0.1327082255527905,-0.158,-0.1456917480823728,-0.158,-0.1568092663896329,-0.158,-0.1658670459895413,-0.158,-0.1728677462790635
-0.157,-0.0063217725768136,-0.157,-0.01313172251398087,-0.157,-0.0209362956702531,-0.157,-0.03024457158083266,-0.157,-0.04147295685902502,-0.157,-0.05475036838416536,-0.157,-0.06974282929495851,-0.157,-0.08572395826547799,-0.157,-0.1018655623890941,-0.157,-0.1174553536298615,-0.157,-0.1319372058784229,-0.157,-0.1448772837091338,-0.157,-0.1559465921640463,-0.157,-0.1649529467776704,-0.157,-0.1719030831708541
-0.156,-0.006258974752456098,-0.156,-0.01300121891209638,-0.156,-0.02072879732828289,-0.156,-0.02994840114698369,-0.156,-0.04107896243671022,-0.156,-0.05425907119276507,-0.156,-0.06916739287035328,-0.156,-0.08508350006925083,-0.156,-0.1011755811070232,-0.156,-0.1167237345982943,-0.156,-0.1311650263722632,-0.156,-0.1440612715086834,-0.156,-0.1550820196595658,-0.156,-0.1640366757823734,-0.156,-0.1709361036437092
-0.155,-0.0061966584376551,-0.155,-0.01287170511415334,-0.155,-0.02052282113399764,-0.155,-0.02965422960817646,-0.155,-0.04068719197126555,-0.155,-0.05376975620130658,-0.155,-0.0685932661669878,-0.155,-0.08444355552963886,-0.155,-0.1004854294992961,-0.155,-0.1159914093681703,-0.155,-0.1303917017694573,-0.155,-0.1432437229532713,-0.155,-0.1542155596198602,-0.155,-0.1631182459877931,-0.155,-0.169966825365042
