;Version, 1, 0
;/M9/S (vgs=0.2),;/M9/S (vgs=0.3),;/M9/S (vgs=0.4),;/M9/S (vgs=0.5),;/M9/S (vgs=0.6),;/M9/S (vgs=0.7),;/M9/S (vgs=0.8),;/M9/S (vgs=0.9),;/M9/S (vgs=1),;/M9/S (vgs=0.1)
;X, Y,;X, Y,;X, Y,;X, Y,;X, Y,;X, Y,;X, Y,;X, Y,;X, Y,;X, Y
;Re, Re,;Re, Re,;Re, Re,;Re, Re,;Re, Re,;Re, Re,;Re, Re,;Re, Re,;Re, Re,;Re, Re
;vds, I,;vds, I,;vds, I,;vds, I,;vds, I,;vds, I,;vds, I,;vds, I,;vds, I,;vds, I
;xunit, A,;xunit, A,;xunit, A,;xunit, A,;xunit, A,;xunit, A,;xunit, A,;xunit, A,;xunit, A,;xunit, A
0,0,0,0,0,0,0,0,0,0,0,0,0,0,0,0,0,0,0,0
0.001,5.991887945228612e-12,0.001,1.090093940438879e-10,0.001,1.35688085061765e-09,0.001,7.26130678970472e-09,0.001,1.635125312885466e-08,0.001,2.512598601840853e-08,0.001,3.328766490789964e-08,0.001,4.106299275357365e-08,0.001,4.855478775676841e-08,0.001,2.817381249113657e-13
0.002,1.186344085854376e-11,0.002,2.158878138772048e-10,0.002,2.693189322121971e-09,0.002,1.446192007701112e-08,0.002,3.261949258908561e-08,0.002,5.016056751860239e-08,0.002,6.648077337418044e-08,0.002,8.203050824648974e-08,0.002,9.701428890729798e-08,0.002,5.578339579591273e-13
0.003,1.761703789715881e-11,0.003,3.206755789619465e-10,0.003,4.009186361682874e-09,0.003,2.16021136747349e-08,0.003,4.880485611442393e-08,0.003,7.510381461193954e-08,0.003,9.957936250434291e-08,0.003,1.229025656545265e-07,0.003,1.453785121795112e-07,0.003,8.283992814906223e-13
0.004,2.325502710523889e-11,0.004,4.234125316960894e-10,0.004,5.305132189597559e-09,0.004,2.868216350743515e-08,0.004,6.490748283266183e-08,0.004,9.995579815556078e-08,0.004,1.325834698254752e-07,0.004,1.636791844058414e-07,0.004,1.936474664596915e-07,0.004,1.093544410010878e-12
0.005,2.877972497417271e-11,0.005,5.241380288172036e-10,0.005,6.581286222781517e-09,0.005,3.570234759323841e-08,0.005,8.09275132729177e-08,0.005,1.247165897578189e-07,0.005,1.654931332893808e-07,0.005,2.04360384182737e-07,0.005,2.418211607935083e-07,0.005,1.353378169621899e-12
0.006,3.419341604752098e-11,0.006,6.228909335003892e-10,0.006,7.837906999405064e-09,0.006,4.266294602481183e-08,0.006,9.686508937285748e-08,0.006,1.493862617838257e-07,0.006,1.983083912758844e-07,0.006,2.449461849236212e-07,0.006,2.898996043872226e-07,0.006,1.608007879572844e-12
0.007,3.949835256985325e-11,0.007,7.19709608142826e-10,0.007,9.075252104746302e-09,0.007,4.956424094943195e-08,0.007,1.127203544857597e-07,0.007,1.739648873609379e-07,0.007,2.310292825959916e-07,0.007,2.85436606824814e-07,0.007,3.378828066087313e-07,0.007,1.857539335882979e-12
0.008,4.469675417869102e-11,0.008,8.146319078274727e-10,0.008,1.029357809835287e-08,0.008,5.640651654819995e-08,0.008,1.284934533875271e-07,0.008,1.984525403842976e-07,0.008,2.636558464952141e-07,0.008,3.258316703425239e-07,0.008,3.85770776988775e-07,0.008,2.102076796999986e-12
0.009000000000000001,4.979080763860246e-11,0.009000000000000001,9.076951744552278e-10,0.009000000000000001,1.14931404425763e-08,0.009000000000000001,6.319005901434806e-08,0.009000000000000001,1.441845322835321e-07,0.009000000000000001,2.22849295522343e-07,0.009000000000000001,2.961881226567877e-07,0.009000000000000001,3.66131396194682e-07,0.009000000000000001,4.335635252220163e-07,0.009000000000000001,2.341722971447861e-12
0.01,5.478266661650108e-11,0.01,9.989362315353544e-10,0.01,1.267419343256407e-08,0.01,6.991515653068975e-08,0.01,1.597937388154048e-07,0.01,2.471552282224027e-07,0.01,3.286261512050228e-07,0.01,4.063358053629311e-07,0.01,4.812610611682612e-07,0.01,2.576579007419004e-12
0.011,5.967445149706761e-11,0.011,1.088391379620777e-09,0.011,1.38369901277681e-08,0.011,7.658209924616567e-08,0.011,1.753212220676463e-07,0.011,2.713704147161961e-07,0.011,3.609699727085548e-07,0.011,4.464449190944951e-07,0.011,5.288633948535389e-07,0.011,2.806744484258384e-12
0.012,6.446824923719535e-11,0.012,1.176096392375648e-09,0.012,1.49817822850442e-08,0.012,8.319117925153392e-08,0.012,1.90767132574173e-07,0.012,2.954949320254585e-07,0.012,3.932196281837362e-07,0.012,4.864587589042007e-07,0.012,5.76370536471334e-07,0.012,3.032317405788223e-12
0.013,6.916611325827637e-11,0.013,1.262086513259653e-09,0.013,1.610882029339516e-08,0.013,8.9742690554155e-08,0.013,2.061316223246789e-07,0.013,3.195288579674604e-07,0.013,4.253751590979146e-07,0.013,5.263773465763532e-07,0.013,6.237824963837043e-07,0.013,3.253394195415728e-12
0.01400000000000001,7.377006337512474e-11,0.01400000000000001,1.346396452814372e-09,0.01400000000000001,1.721835311042555e-08,0.01400000000000001,9.623692905193255e-08,0.01400000000000001,2.214148447709268e-07,0.01400000000000001,3.434722711606537e-07,0.01400000000000001,4.574366073728619e-07,0.01400000000000001,5.662007041667872e-07,0.01400000000000001,6.710992851225195e-07,0.01400000000000001,3.470069692967413e-12
0.01500000000000001,7.828208576026749e-11,0.01500000000000001,1.429060386534331e-09,0.01500000000000001,1.831062820054942e-08,0.01500000000000001,1.026741925063527e-07,0.01500000000000001,2.366169548328439e-07,0.01500000000000001,3.673252510302016e-07,0.01500000000000001,4.894040153880939e-07,0.01500000000000001,6.059288540047757e-07,0.01500000000000001,7.183209133905816e-07,0.01500000000000001,3.682437153188739e-12
0.01600000000000001,8.270413294231414e-11,0.01600000000000001,1.510111953306562e-09,0.01600000000000001,1.938589147501469e-08,0.01600000000000001,1.090547805146853e-07,0.01600000000000001,2.517381089045304e-07,0.01600000000000001,3.91087877813631e-07,0.01600000000000001,5.212774259843261e-07,0.01600000000000001,6.455618186951009e-07,0.01600000000000001,7.654473920628866e-07,0.01600000000000001,3.890588245848711e-12
0.01700000000000001,8.703812383709193e-11,0.01700000000000001,1.589584254399535e-09,0.01700000000000001,2.044438723377348e-08,0.01700000000000001,1.153789944812972e-07,0.01700000000000001,2.667784648600803e-07,0.01700000000000001,4.147602325663965e-07,0.01700000000000001,5.530568824668314e-07,0.01700000000000001,6.850996211199804e-07,0.01700000000000001,8.12478732187766e-07,0.01700000000000001,4.094613057385783e-12
0.01800000000000001,9.128594381019487e-11,0.01800000000000001,1.66750985298449e-09,0.01800000000000001,2.14863581092562e-08,0.01800000000000001,1.216471375881347e-07,0.01800000000000001,2.817381820593015e-07,0.01800000000000001,4.383423971675216e-07,0.01800000000000001,5.847424286089283e-07,0.01800000000000001,7.245422844411747e-07,0.01800000000000001,8.594149449881595e-07,0.01800000000000001,4.29460009403256e-12
0.01900000000000001,9.544944476959109e-11,0.01900000000000001,1.74392077416872e-09,0.01900000000000001,2.251204501206985e-08,0.01900000000000001,1.278595147643383e-07,0.01900000000000001,2.966174213532253e-07,0.01900000000000001,4.61834454325176e-07,0.01900000000000001,6.163341086553716e-07,0.01900000000000001,7.638898321019364e-07,0.01900000000000001,9.062560418627761e-07,0.01900000000000001,4.490636286352594e-12
0.02000000000000001,9.953044528693781e-11,0.02000000000000001,1.818848505522792e-09,0.02000000000000001,2.352168707866832e-08,0.02000000000000001,1.340164326550307e-07,0.02000000000000001,3.114163450895246e-07,0.02000000000000001,4.852364875823372e-07,0.02000000000000001,6.478319673258698e-07,0.02000000000000001,8.031422878291259e-07,0.02000000000000001,9.530020343873796e-07,0.02000000000000001,4.68280699512813e-12
0.02100000000000001,1.035307307461796e-10,0.02100000000000001,1.89232399808093e-09,0.02100000000000001,2.451552162101001e-08,0.02100000000000001,1.401181995892634e-07,0.02100000000000001,3.26135117117707e-07,0.02100000000000001,5.085485813223595e-07,0.02100000000000001,6.792360498185265e-07,0.02100000000000001,8.422996756352138e-07,0.02100000000000001,9.996529343159525e-07,0.02100000000000001,4.87119601852839e-12
0.02200000000000001,1.074520535181439e-10,0.02200000000000001,1.964377667795515e-09,0.02200000000000001,2.54937840782379e-08,0.02200000000000001,1.46165125547152e-07,0.02200000000000001,3.407739027942041e-07,0.02200000000000001,5.31770820774638e-07,0.02200000000000001,7.105464018133798e-07,0.02200000000000001,8.813620198203971e-07,0.02200000000000001,1.046208753582024e-06,0.02200000000000001,5.055885600499706e-12
0.02300000000000001,1.112961331596722e-10,0.02300000000000001,2.035039397425244e-09,0.02300000000000001,2.645670797039157e-08,0.02300000000000001,1.521575221261828e-07,0.02300000000000001,3.553328689872301e-07,0.02300000000000001,5.549032920201898e-07,0.02300000000000001,7.417630694758607e-07,0.02300000000000001,9.203293449746361e-07,0.02300000000000001,1.09266950429983e-06,0.02300000000000001,5.236956440305918e-12
0.02400000000000001,1.15064656635984e-10,0.02400000000000001,2.104338538836797e-09,0.02400000000000001,2.740452485417869e-08,0.02400000000000001,1.580957025067416e-07,0.02400000000000001,3.698121840815302e-07,0.02400000000000001,5.779460819973153e-07,0.02400000000000001,7.728860994603949e-07,0.02400000000000001,9.592016759798048e-07,0.02400000000000001,1.139035198765656e-06,0.02400000000000001,5.414487703161041e-12
0.02500000000000002,1.187592785649088e-10,0.02500000000000002,2.172303915699992e-09,0.02500000000000002,2.833746428080589e-08,0.02500000000000002,1.639799814168268e-07,0.02500000000000002,3.842120179828805e-07,0.02500000000000002,6.008992785071681e-07,0.02500000000000002,8.0391553891387e-07,0.02500000000000002,9.979790380117276e-07,0.02500000000000002,1.185305849459029e-06,0.02500000000000002,5.588557031884972e-12
0.02600000000000002,1.223816214816663e-10,0.02600000000000002,2.238963826556536e-09,0.02600000000000002,2.925575375588844e-08,0.02600000000000002,1.698106750960154e-07,0.02600000000000002,3.985325421224787e-07,0.02600000000000002,6.237629702194205e-07,0.02600000000000002,8.348514354792891e-07,0.02600000000000002,1.036661456542384e-06,0.02600000000000002,1.231481469044066e-06,0.02600000000000002,5.75924055952401e-12
0.02700000000000002,1.259332761228545e-10,0.02700000000000002,2.304346048241779e-09,0.02700000000000002,3.015961870143178e-08,0.02700000000000002,1.755881012586402e-07,0.02700000000000002,4.127739294610779e-07,0.02700000000000002,6.465372466778225e-07,0.02700000000000002,8.656938372992569e-07,0.02700000000000002,1.075248957341952e-06,0.02700000000000002,1.277562070370678e-06,0.02700000000000002,5.926612922869477e-12
0.02800000000000002,1.294158017284068e-10,0.02800000000000002,2.36847783964041e-09,0.02800000000000002,3.104928241989706e-08,0.02800000000000002,1.813125790562391e-07,0.02800000000000002,4.269363544929888e-07,0.02800000000000002,6.692221983058688e-07,0.02800000000000002,8.964427930196549e-07,0.02800000000000002,1.11374156648104e-06,0.02800000000000002,1.323547666475942e-06,0.02800000000000002,6.090747276819375e-12
0.02900000000000002,1.32830726360201e-10,0.02900000000000002,2.431385945755993e-09,0.02900000000000002,3.192496606033237e-08,0.02900000000000002,1.869844290392569e-07,0.02900000000000002,4.410199932498314e-07,0.02900000000000002,6.918179164123358e-07,0.02900000000000002,9.270983517931861e-07,0.02900000000000002,1.152139310332763e-06,0.02900000000000002,1.369438270585321e-06,0.02900000000000002,6.251715309516387e-12
0.03000000000000002,1.361795472361407e-10,0.03000000000000002,2.493096602075285e-09,0.03000000000000002,3.278688858658147e-08,0.03000000000000002,1.926039731180475e-07,0.03000000000000002,4.550250233041385e-07,0.03000000000000002,7.143244931969345e-07,0.03000000000000002,9.576605632830652e-07,0.03000000000000002,1.190442215574992e-06,0.03000000000000002,1.415233896114051e-06,0.03000000000000002,6.409587258211685e-12
0.03100000000000002,1.394637310784571e-10,0.03100000000000002,2.553635539208045e-09,0.03100000000000002,3.363526674754001e-08,0.03100000000000002,1.98171534523155e-07,0.03100000000000002,4.689516237727e-07,0.03100000000000002,7.367420217558483e-07,0.03100000000000002,9.881294776665912e-07,0.03100000000000002,1.228650309192462e-06,0.03100000000000002,1.460934556668371e-06,0.03100000000000002,6.564431925791213e-12
0.03200000000000002,1.426847144750996e-10,0.03200000000000002,2.613027987784472e-09,0.03200000000000002,3.447031504946418e-08,0.03200000000000002,2.036874377649351e-07,0.03200000000000002,4.827999753197514e-07,0.03200000000000002,7.590705960873552e-07,0.03200000000000002,1.018505145638871e-06,0.03200000000000002,1.266763618479039e-06,0.03200000000000002,1.506540266046933e-06,0.03200000000000002,6.716316697913421e-12
0.03300000000000002,1.458439042530634e-10,0.03300000000000002,2.671298683590659e-09,0.03300000000000002,3.529224573029552e-08,0.03300000000000002,2.091520085924969e-07,0.03300000000000002,4.965702601598958e-07,0.03300000000000002,7.813103110973562e-07,0.03300000000000002,1.048787618416419e-06,0.03300000000000002,1.30478217103986e-06,0.03300000000000002,1.552051038242055e-06,0.03300000000000002,6.865307560702317e-12
0.03400000000000002,1.489426778625241e-10,0.03400000000000002,2.728471872925759e-09,0.03400000000000002,3.610126873600448e-08,0.03400000000000002,2.145655739520094e-07,0.03400000000000002,5.102626620608574e-07,0.03400000000000002,8.034612626049609e-07,0.03400000000000002,1.07897694774092e-06,0.03400000000000002,1.342705994793619e-06,0.03400000000000002,1.597466887441143e-06,0.03400000000000002,7.011469118946658e-12
0.03500000000000002,1.519823837707994e-10,0.03500000000000002,2.78457131816236e-09,0.03500000000000002,3.689759169890524e-08,0.03500000000000002,2.19928461944379e-07,0.03500000000000002,5.238773663459594e-07,0.03500000000000002,8.25523547348004e-07,0.03500000000000002,1.109073185882856e-06,0.03500000000000002,1.38053511797474e-06,0.03500000000000002,1.642787828027939e-06,0.03500000000000002,7.15486461475205e-12
0.03600000000000003,1.54964341864995e-10,0.03600000000000003,2.839620303493861e-09,0.03600000000000003,3.768141991794251e-08,0.03600000000000003,2.252410017823284e-07,0.03600000000000003,5.374145598964304e-07,0.03600000000000003,8.474972629886074e-07,0.03600000000000003,1.139076385645282e-06,0.03600000000000003,1.418269569135681e-06,0.03600000000000003,1.688013874583998e-06,0.03600000000000003,7.295555946600094e-12
0.03700000000000003,1.578898438624494e-10,0.03700000000000003,2.893641640851979e-09,0.03700000000000003,3.845295634089597e-08,0.03700000000000003,2.305035237468853e-07,0.03700000000000003,5.508744311534201e-07,0.03700000000000003,8.693825081186604e-07,0.03700000000000003,1.168986600367496e-06,0.03700000000000003,1.455909377149137e-06,0.03700000000000003,1.733145041889928e-06,0.03700000000000003,7.433603688766236e-12
0.03800000000000003,1.607601537279688e-10,0.03800000000000003,2.946657675978839e-09,0.03800000000000003,3.921240154849499e-08,0.03800000000000003,2.357163591433237e-07,0.03800000000000003,5.64257170119837e-07,0.03800000000000003,8.911793822653521e-07,0.03800000000000003,1.198803883928846e-06,0.03800000000000003,1.493454571210368e-06,0.03800000000000003,1.778181344926888e-06,0.03800000000000003,7.569067111053371e-12
0.03900000000000003,1.635765080969457e-10,0.03900000000000003,2.99869029463822e-09,0.03900000000000003,3.995995374039475e-08,0.03900000000000003,2.408798402565498e-07,0.03900000000000003,5.775629683618857e-07,0.03900000000000003,9.128879858966202e-07,0.03900000000000003,1.228528290752415e-06,0.03900000000000003,1.530905180839426e-06,0.03900000000000003,1.823122798877843e-06,0.03900000000000003,7.702004198797116e-12
0.04000000000000003,1.663401167035433e-10,0.04000000000000003,3.049760928950907e-09,0.04000000000000003,4.069580872298856e-08,0.04000000000000003,2.459943003059953e-07,0.04000000000000003,5.907920190104181e-07,0.04000000000000003,9.345084204266411e-07,0.04000000000000003,1.25815987580885e-06,0.04000000000000003,1.568261235883508e-06,0.04000000000000003,1.867969419129089e-06,0.04000000000000003,7.832471673101795e-12
0.04100000000000003,1.690521628130043e-10,0.04100000000000003,3.099890563840352e-09,0.04100000000000003,4.14201598990118e-08,0.04100000000000003,2.510600733999977e-07,0.04100000000000003,6.039445167619776e-07,0.04100000000000003,9.560407882212505e-07,0.04100000000000003,1.287698694620103e-06,0.04100000000000003,1.60552276651921e-06,0.04100000000000003,1.91272122127152e-06,0.04100000000000003,7.960525011268572e-12
0.04200000000000003,1.717138036574381e-10,0.04200000000000003,3.14909974357438e-09,0.04200000000000003,4.213319825891183e-08,0.04200000000000003,2.560774944897391e-07,0.04200000000000003,6.170206578796439e-07,0.04200000000000003,9.774851926033865e-07,0.04200000000000003,1.317144803263264e-06,0.04200000000000003,1.642689803254908e-06,0.04200000000000003,1.957378221102157e-06,0.04200000000000003,8.086218467379581e-12
0.04300000000000003,1.743261708741905e-10,0.04300000000000003,3.197408578390419e-09,0.04300000000000003,4.283511237392237e-08,0.04300000000000003,2.61046899322718e-07,0.04300000000000003,6.300206401935657e-07,0.04300000000000003,9.988417378584543e-07,0.04300000000000003,1.346498258374315e-06,0.04300000000000003,1.679762376933029e-06,0.04300000000000003,2.001940434625458e-06,0.04300000000000003,8.209605092998441e-12
0.04400000000000003,1.768903709461649e-10,0.04400000000000003,3.244836751191118e-09,0.04400000000000003,4.352608839082727e-08,0.04400000000000003,2.659686243958333e-07,0.04400000000000003,6.429446631012814e-07,0.04400000000000003,1.02011052923974e-06,0.04400000000000003,1.375759117152013e-06,0.04400000000000003,1.716740518732462e-06,0.04400000000000003,2.046407878054842e-06,0.04400000000000003,8.330736757960021e-12
0.04500000000000003,1.794074856434014e-10,0.04500000000000003,3.291403524298532e-09,0.04500000000000003,4.420631002834438e-08,0.04500000000000003,2.708430069080545e-07,0.04500000000000003,6.557929275677293e-07,0.04500000000000003,1.041291672973724e-06,0.04500000000000003,1.404927437361662e-06,0.04500000000000003,1.753624260170855e-06,0.04500000000000003,2.090780567814018e-06,0.04500000000000003,8.449664171210693e-12
0.04600000000000003,1.818785724652477e-10,0.04600000000000003,3.337127746255684e-09,0.04600000000000003,4.487595857510963e-08,0.04600000000000003,2.756703847127528e-07,0.04600000000000003,6.685656361250266e-07,0.04600000000000003,1.062385276265429e-06,0.04600000000000003,1.43400327733901e-06,0.04600000000000003,1.790413633107058e-06,0.04600000000000003,2.135058520538547e-06,0.04600000000000003,8.566436901675458e-12
0.04700000000000003,1.8430466508255e-10,0.04700000000000003,3.382027858663966e-09,0.04700000000000003,4.553521288919322e-08,0.04700000000000003,2.804510962696717e-07,0.04700000000000003,6.812629928719277e-07,0.04700000000000003,1.083391447303688e-06,0.04700000000000003,1.462986695994058e-06,0.04700000000000003,1.827108669743431e-06,0.04700000000000003,2.179241753077166e-06,0.04700000000000003,8.681103399117909e-12
0.04800000000000004,1.866867737792579e-10,0.04800000000000004,3.426121903046823e-09,0.04800000000000004,4.618424939912307e-08,0.04800000000000004,2.851854805966153e-07,0.04800000000000004,6.938852034730576e-07,0.04800000000000004,1.104310295266432e-06,0.04800000000000004,1.491877752814965e-06,0.04800000000000004,1.863709402628313e-06,0.04800000000000004,2.223330282493369e-06,0.04800000000000004,8.793711014971159e-12
0.04900000000000004,1.890258858929595e-10,0.04900000000000004,3.469427527728893e-09,0.04900000000000004,4.682324210635044e-08,0.04900000000000004,2.898738772208388e-07,0.04900000000000004,7.064324751578034e-07,0.04900000000000004,1.125141930325889e-06,0.04900000000000004,1.520676507871888e-06,0.04900000000000004,1.900215864658362e-06,0.04900000000000004,2.267324126066771e-06,0.04900000000000004,8.90430602311032e-12
0.05000000000000004,1.913229662537749e-10,0.05000000000000004,3.511961994722312e-09,0.05000000000000004,4.745236258912658e-08,0.05000000000000004,2.945166261301953e-07,0.05000000000000004,7.189050167189799e-07,0.05000000000000004,1.145886463653821e-06,0.05000000000000004,1.549383021820916e-06,0.05000000000000004,1.936628089081058e-06,0.05000000000000004,2.311223301294674e-06,0.05000000000000004,9.012933640547904e-12
