;Version, 1, 0
;/M2/D (L=2e-07),;/M2/D (L=4e-07),;/M2/D (L=6e-07),;/M2/D (L=8e-07),;/M2/D (L=1e-06),;/M2/D (L=1.2e-06),;/M2/D (L=1.4e-06),;/M2/D (L=1.6e-06),;/M2/D (L=1.8e-06),;/M2/D (L=2e-06)
;X, Y,;X, Y,;X, Y,;X, Y,;X, Y,;X, Y,;X, Y,;X, Y,;X, Y,;X, Y
;Re, Re,;Re, Re,;Re, Re,;Re, Re,;Re, Re,;Re, Re,;Re, Re,;Re, Re,;Re, Re,;Re, Re
;vds, I,;vds, I,;vds, I,;vds, I,;vds, I,;vds, I,;vds, I,;vds, I,;vds, I,;vds, I
;xunit, A,;xunit, A,;xunit, A,;xunit, A,;xunit, A,;xunit, A,;xunit, A,;xunit, A,;xunit, A,;xunit, A
0,0,0,0,0,0,0,0,0,0,0,0,0,0,0,0,0,0,0,0
0.0001,3.629891259113638e-09,0.0001,2.626653181191214e-09,0.0001,3.018323737845444e-09,0.0001,2.412309248104535e-09,0.0001,2.00098971120418e-09,0.0001,1.706813208966374e-09,0.0001,1.486975513997543e-09,0.0001,1.316813531056554e-09,0.0001,1.181346049921422e-09,0.0001,1.071012415267525e-09
0.0002,7.253240241432219e-09,0.0002,5.249145157734685e-09,0.0002,6.032344583993383e-09,0.0002,4.821317463215057e-09,0.0002,3.999306414254658e-09,0.0002,3.411382123533678e-09,0.0002,2.972017484433204e-09,0.0002,2.6319289215731e-09,0.0002,2.361178381849847e-09,0.0002,2.140659464094432e-09
0.0003,1.087004904256305e-08,0.0003,7.86747650661855e-09,0.0003,9.042062681386214e-09,0.0003,7.227024725943962e-09,0.0003,5.994950161754008e-09,0.0003,5.113706781379381e-09,0.0003,4.455125940102873e-09,0.0003,3.945346194633071e-09,0.0003,3.539497014977678e-09,0.0003,3.208941162901923e-09
0.0004,1.448031975267915e-08,0.0004,1.048164780021236e-08,0.0004,1.204747816847563e-08,0.0004,9.629431112408849e-09,0.0004,7.987921001802813e-09,0.0004,6.813787215678332e-09,0.0004,5.936300905297697e-09,0.0004,5.257065368814893e-09,0.0004,4.716301963990668e-09,0.0004,4.27585752360379e-09
0.0005,1.808405446103232e-08,0.0005,1.309165961077957e-08,0.0005,1.504859118373677e-08,0.0005,1.202853669874202e-08,0.0005,9.978218982514438e-09,0.0005,8.511623459613708e-09,0.0005,7.415542404316975e-09,0.0005,6.567086462702049e-09,0.0005,5.891593243579404e-09,0.0005,5.341408558118622e-09
0.0006000000000000001,2.168125525595511e-08,0.0006000000000000001,1.569751251047854e-08,0.0006000000000000001,1.804540186566934e-08,0.0006000000000000001,1.442434156109178e-08,0.0006000000000000001,1.196584415201392e-08,0.0006000000000000001,1.020721554637919e-08,0.0006000000000000001,8.892850461466963e-09,0.0006000000000000001,7.875409494885796e-09,0.0006000000000000001,7.065370868440975e-09,0.0006000000000000001,6.40559427837021e-09
0.0007000000000000001,2.527192422486034e-08,0.0007000000000000001,1.829920707136208e-08,0.0007000000000000001,2.103791035279605e-08,0.0007000000000000001,1.681684577562357e-08,0.0007000000000000001,1.395079655843882e-08,0.0007000000000000001,1.190056350917796e-08,0.0007000000000000001,1.036822510106271e-08,0.0007000000000000001,9.182034483964015e-09,0.0007000000000000001,8.237634853278219e-09,0.0007000000000000001,7.468414696287234e-09
0.0008000000000000001,2.885606345424201e-08,0.0008000000000000001,2.089674386537869e-08,0.0008000000000000001,2.402611678366435e-08,0.0008000000000000001,1.920604941851935e-08,0.0008000000000000001,1.593307624993874e-08,0.0008000000000000001,1.359166738122283e-08,0.0008000000000000001,1.184166634742691e-08,0.0008000000000000001,1.048696144854101e-08,0.0008000000000000001,9.408385212800075e-09,0.0008000000000000001,8.52986982380431e-09
0.0009000000000000002,3.243367502967504e-08,0.0009000000000000002,2.349012346437057e-08,0.0009000000000000002,2.701002129684832e-08,0.0009000000000000002,2.159195256597797e-08,0.0009000000000000002,1.791268327467659e-08,0.0009000000000000002,1.528052719573694e-08,0.0009000000000000002,1.331317422489126e-08,0.0009000000000000002,1.179019040722935e-08,0.0009000000000000002,1.057762196172138e-08,0.0009000000000000002,9.589959672861376e-09
0.001,3.600476103581683e-08,0.001,2.607934644007467e-08,0.001,2.99896240309444e-08,0.001,2.397455529421484e-08,0.001,1.988961768082699e-08,0.001,1.696714298595302e-08,0.001,1.478274875779509e-08,0.001,1.3091721378647e-08,0.001,1.17453451147631e-08,0.001,1.064868425540287e-08
0.0011,3.956932355640731e-08,0.0011,2.866441336412367e-08,0.0011,3.296492512457592e-08,0.0011,2.635385767946243e-08,0.0011,2.186387951657789e-08,0.0011,1.865151478511408e-08,0.0011,1.625038997048611e-08,0.0011,1.439155438142006e-08,0.0011,1.291155468665263e-08,0.0011,1.170604358337967e-08
0.0012,4.312736467426939e-08,0.0012,3.124532480804405e-08,0.0012,3.593592471639032e-08,0.0012,2.872985979796993e-08,0.0012,2.383546883012948e-08,0.0012,2.03336426264733e-08,0.0012,1.77160978873205e-08,0.0012,1.568968943418123e-08,0.0012,1.407625069212275e-08,0.0012,1.276203766874752e-08
0.0013,4.667888647130965e-08,0.0013,3.382208134325755e-08,0.0013,3.89026229450618e-08,0.0013,3.110256172600464e-08,0.0013,2.58043856696954e-08,0.0013,2.201352654329407e-08,0.0013,1.917987253266226e-08,0.0013,1.69861265555706e-08,0.0013,1.52394331459133e-08,0.0013,1.381666652346773e-08
0.0014,5.022389102851791e-08,0.0014,3.639468354108083e-08,0.0014,4.186501994929026e-08,0.0014,3.34719635398521e-08,0.0014,2.777063008350243e-08,0.0014,2.369116656885008e-08,0.0014,2.064171393088528e-08,0.0014,1.828086576423546e-08,0.0014,1.640110206277005e-08,0.0014,1.486993015950723e-08
0.0015,5.37623804259699e-08,0.0015,3.896313197272535e-08,0.0015,4.482311586780221e-08,0.0015,3.583806531581435e-08,0.0015,2.973420211979019e-08,0.0015,2.536656273642502e-08,0.0015,2.210162210637101e-08,0.0015,1.957390707883053e-08,0.0015,1.75612574574451e-08,0.0015,1.592182858883855e-08
0.001600000000000001,5.72943567428248e-08,0.001600000000000001,4.152742720929725e-08,0.001600000000000001,4.777691083934912e-08,0.001600000000000001,3.820086713021094e-08,0.001600000000000001,3.169510182681172e-08,0.001600000000000001,2.703971507931416e-08,0.001600000000000001,2.355959708350957e-08,0.001600000000000001,2.086525051801728e-08,0.001600000000000001,1.871989934469679e-08,0.001600000000000001,1.69723618234398e-08
0.001700000000000001,6.081982205732911e-08,0.001700000000000001,4.408756982179795e-08,0.001700000000000001,5.07264050027112e-08,0.001700000000000001,4.056036905938069e-08,0.001700000000000001,3.365332925283307e-08,0.001700000000000001,2.871062363082252e-08,0.001700000000000001,2.501563888669984e-08,0.001700000000000001,2.215489610046556e-08,0.001700000000000001,1.987702773929025e-08,0.001700000000000001,1.802152987529477e-08
0.001800000000000001,6.433877844681394e-08,0.001800000000000001,4.664356038112339e-08,0.001800000000000001,5.367159849669453e-08,0.001800000000000001,4.291657117967934e-08,0.001800000000000001,3.56088844461341e-08,0.001800000000000001,3.037928842426542e-08,0.001800000000000001,2.646974754034984e-08,0.001800000000000001,2.344284384485156e-08,0.001800000000000001,2.103264265599658e-08,0.001800000000000001,1.906933275639274e-08
0.001900000000000001,6.785122798769732e-08,0.001900000000000001,4.919539945806481e-08,0.001900000000000001,5.661249146013293e-08,0.001900000000000001,4.526947356748254e-08,0.001900000000000001,3.75617674550085e-08,0.001900000000000001,3.204570949297031e-08,0.001900000000000001,2.792192306887677e-08,0.001900000000000001,2.472909376986021e-08,0.001900000000000001,2.218674410959378e-08,0.001900000000000001,2.011577047872935e-08
0.002,7.135717275548445e-08,0.002,5.174308762330844e-08,0.002,5.954908403188852e-08,0.002,4.761907629918268e-08,0.002,3.951197832776341e-08,0.002,3.370988687027421e-08,0.002,2.937216549670557e-08,0.002,2.601364589418302e-08,0.002,2.333933211486651e-08,0.002,2.116084305430526e-08
0.0021,7.485661482476822e-08,0.0021,5.42866254474354e-08,0.0021,6.248137635084952e-08,0.0021,4.996537945119197e-08,0.0021,4.145951711272009e-08,0.0021,3.537182058952542e-08,0.0021,3.082047484827106e-08,0.0021,2.729650023651929e-08,0.0021,2.449040668660558e-08,0.0021,2.220455049512768e-08
0.0022,7.834955626922934e-08,0.0022,5.682601350092205e-08,0.0022,6.540936855593387e-08,0.0022,5.230838309994113e-08,0.0022,4.34043838582131e-08,0.0022,3.703151068408352e-08,0.0022,3.2266851148017e-08,0.0022,2.857765681557643e-08,0.0022,2.563996783960883e-08,0.0022,2.324689281320898e-08
0.0023,8.183599916163725e-08,0.0023,5.936125235413924e-08,0.0023,6.833306078608803e-08,0.0023,5.464808732188036e-08,0.0023,4.53465786125921e-08,0.0023,3.868895718731952e-08,0.0023,3.371129442039641e-08,0.0023,2.985711565006984e-08,0.0023,2.678801558868088e-08,0.0023,2.428787002056813e-08
0.0024,8.531594557385034e-08,0.0024,6.189234257735385e-08,0.0024,7.125245318028678e-08,0.0024,5.698449219347843e-08,0.0024,4.728610142422015e-08,0.0024,4.034416013261452e-08,0.0024,3.515380468987132e-08,0.0024,3.113487675872177e-08,0.0024,2.793454994863307e-08,0.0024,2.532748212922985e-08
0.0025,8.878939757681701e-08,0.0025,6.441928474072722e-08,0.0025,7.416754587753326e-08,0.0025,5.931759779122328e-08,0.0025,4.922295234147487e-08,0.0025,4.199711955336188e-08,0.0025,3.65943819809133e-08,0.0025,3.241094016026297e-08,0.0025,2.907957093428306e-08,0.0025,2.636572915122475e-08
0.002599999999999999,9.225635724057417e-08,0.002599999999999999,6.694207941431545e-08,0.002599999999999999,7.707833901686081e-08,0.002599999999999999,6.16474041916234e-08,0.002599999999999999,5.11571314127488e-08,0.002599999999999999,4.364783548296623e-08,0.002599999999999999,3.803302631800292e-08,0.002599999999999999,3.368530587343227e-08,0.002599999999999999,3.022307856045646e-08,0.002599999999999999,2.740261109858961e-08
0.002699999999999999,9.571682663425153e-08,0.002699999999999999,6.946072716807113e-08,0.002699999999999999,7.998483273733204e-08,0.002699999999999999,6.397391147120572e-08,0.002699999999999999,5.308863868644807e-08,0.002699999999999999,4.529630795484302e-08,0.002699999999999999,3.946973772563007e-08,0.002699999999999999,3.495797391697611e-08,0.002699999999999999,3.136507284198473e-08,0.002699999999999999,2.843812798336714e-08
0.002799999999999999,9.917080782606795e-08,0.002799999999999999,7.197522857184043e-08,0.002799999999999999,8.288702717804116e-08,0.002799999999999999,6.629711970651849e-08,0.002799999999999999,5.501747421099456e-08,0.002799999999999999,4.694253700242074e-08,0.002799999999999999,4.090451622829522e-08,0.002799999999999999,3.622894430964974e-08,0.002799999999999999,3.250555379370718e-08,0.002799999999999999,2.947227981760684e-08
0.002899999999999999,1.026183028833351e-07,0.002899999999999999,7.44855841953664e-08,0.002899999999999999,8.578492247811002e-08,0.002899999999999999,6.861702897412918e-08,0.002899999999999999,5.694363803482449e-08,0.002899999999999999,4.858652265913815e-08,0.002899999999999999,4.233736185050751e-08,0.002899999999999999,3.74982170702152e-08,0.002899999999999999,3.364452143046966e-08,0.002899999999999999,3.050506661336384e-08
0.002999999999999999,1.060593138724559e-07,0.002999999999999999,7.699179460828558e-08,0.002999999999999999,8.867851877669228e-08,0.002999999999999999,7.093363935062565e-08,0.002999999999999999,5.886713020638908e-08,0.002999999999999999,5.02282649584465e-08,0.002999999999999999,4.376827461678624e-08,0.002999999999999999,3.876579221744435e-08,0.002999999999999999,3.47819757671253e-08,0.002999999999999999,3.153648838269953e-08
0.003099999999999999,1.094938428589262e-07,0.003099999999999999,7.949386038013132e-08,0.003099999999999999,9.156781621297287e-08,0.003099999999999999,7.324695091261623e-08,0.003099999999999999,6.078795077415477e-08,0.003099999999999999,5.186776393380806e-08,0.003099999999999999,4.519725455165962e-08,0.003099999999999999,4.003166977011597e-08,0.003099999999999999,3.591791681853432e-08,0.003099999999999999,3.256654513768188e-08
0.003199999999999998,1.129218919073351e-07,0.003199999999999998,8.199178208033145e-08,0.003199999999999998,9.445281492616797e-08,0.003199999999999998,7.555696373672971e-08,0.003199999999999998,6.270609978660266e-08,0.003199999999999998,5.350501961869896e-08,0.003199999999999998,4.662430167966696e-08,0.003199999999999998,4.12958497470181e-08,0.003199999999999998,3.705234459956424e-08,0.003199999999999998,3.359523689038517e-08
0.003299999999999998,1.163434630813641e-07,0.003299999999999998,8.448556027820862e-08,0.003299999999999998,9.733351505552468e-08,0.003299999999999998,7.786367789961669e-08,0.003299999999999998,6.462157729223019e-08,0.003299999999999998,5.51400320466053e-08,0.003299999999999998,4.804941602535679e-08,0.003299999999999998,4.25583321669467e-08,0.003299999999999998,3.81852591250901e-08,0.003299999999999998,3.462256365289016e-08
0.003399999999999998,1.197585584437905e-07,0.003399999999999998,8.697519554298235e-08,0.003399999999999998,1.002099167403223e-07,0.003399999999999998,8.016709347794774e-08,0.003399999999999998,6.65343833395503e-08,0.003399999999999998,5.677280125102663e-08,0.003399999999999998,4.947259761328765e-08,0.003399999999999998,4.381911704870656e-08,0.003399999999999998,3.931666040999391e-08,0.003399999999999998,3.564852543728397e-08
0.003499999999999998,1.231671800564848e-07,0.003499999999999998,8.946068844376588e-08,0.003499999999999998,1.030820201198719e-07,0.003499999999999998,8.246721054841498e-08,0.003499999999999998,6.844451797709002e-08,0.003499999999999998,5.840332726547456e-08,0.003499999999999998,5.089384646802824e-08,0.003499999999999998,4.507820441111055e-08,0.003499999999999998,4.044654846916514e-08,0.003499999999999998,3.667312225566001e-08
0.003599999999999998,1.265693299804137e-07,0.003599999999999998,9.194203954956895e-08,0.003599999999999998,1.059498253335172e-07,0.003599999999999998,8.476402918773162e-08,0.003599999999999998,7.035198125339351e-08,0.003599999999999998,6.003161012347249e-08,0.003599999999999998,5.231316261415727e-08,0.003599999999999998,4.633559427298029e-08,0.003599999999999998,4.157492331750042e-08,0.003599999999999998,3.769635412011876e-08
0.003699999999999998,1.299650102756374e-07,0.003699999999999998,9.441924942929595e-08,0.003699999999999998,1.088133325206365e-07,0.003699999999999998,8.705754947263375e-08,0.003699999999999998,7.225677321702081e-08,0.003699999999999998,6.165764985855747e-08,0.003699999999999998,5.373054607626436e-08,0.003699999999999998,4.759128665314665e-08,0.003699999999999998,4.270178496990501e-08,0.003699999999999998,3.87182210427669e-08
0.003799999999999997,1.333542230013147e-07,0.003799999999999997,9.689231865174743e-08,0.003799999999999997,1.116725418206382e-07,0.003799999999999997,8.934777147987789e-08,0.003799999999999997,7.415889391654748e-08,0.003799999999999997,6.32814465042783e-08,0.003799999999999997,5.514599687894898e-08,0.003799999999999997,4.884528157044868e-08,0.003799999999999997,4.382713344129057e-08,0.003799999999999997,3.973872303571805e-08
0.003899999999999997,1.367369702156988e-07,0.003899999999999997,9.936124778561907e-08,0.003899999999999997,1.145274533729661e-07,0.003899999999999997,9.163469528624312e-08,0.003899999999999997,7.605834340056591e-08,0.003899999999999997,6.490300009419645e-08,0.003899999999999997,5.655951504682075e-08,0.003899999999999997,5.009757904373428e-08,0.003899999999999997,4.495096874657707e-08,0.003899999999999997,4.075786011109253e-08
0.003999999999999997,1.401132539761411e-07,0.003999999999999997,1.018260373995013e-07,0.003999999999999997,1.173780673170979e-07,0.003999999999999997,9.391832096853054e-08,0.003999999999999997,7.79551217176838e-08,0.003999999999999997,6.652231066188672e-08,0.003999999999999997,5.797110060450061e-08,0.003999999999999997,5.134817909186005e-08,0.003999999999999997,4.607329090069157e-08,0.003999999999999997,4.177563228101721e-08
0.004099999999999998,1.434830763390905e-07,0.004099999999999998,1.042866880618813e-07,0.004099999999999998,1.202243837925449e-07,0.004099999999999998,9.619864860356407e-08,0.004099999999999998,7.984922891652584e-08,0.004099999999999998,6.813937824093642e-08,0.004099999999999998,5.938075357661876e-08,0.004099999999999998,5.259708173369248e-08,0.004099999999999998,4.719409991856931e-08,0.004099999999999998,4.279203955762587e-08
0.004199999999999998,1.46846439360093e-07,0.004199999999999998,1.067432003411409e-07,0.004199999999999998,1.230664029388532e-07,0.004199999999999998,9.847567826819048e-08,0.004199999999999998,8.174066504573404e-08,0.004199999999999998,6.975420286494602e-08,0.004199999999999998,6.07884739878178e-08,0.004199999999999998,5.384428698810602e-08,0.004199999999999998,4.83133958151536e-08,0.004199999999999998,4.380708195305962e-08
0.004299999999999998,1.502033450937943e-07,0.004299999999999998,1.091955748055581e-07,0.004299999999999998,1.259041248956045e-07,0.004299999999999998,1.007494100392783e-07,0.004299999999999998,8.362943015396618e-08,0.004299999999999998,7.136678456752964e-08,0.004299999999999998,6.219426186275016e-08,0.004299999999999998,5.50897948739851e-08,0.004299999999999998,4.943117860539516e-08,0.004299999999999998,4.482075947946588e-08
0.004399999999999999,1.535537955939378e-07,0.004399999999999999,1.116438120233056e-07,0.004399999999999999,1.287375498024143e-07,0.004399999999999999,1.030198439937201e-07,0.004399999999999999,8.551552428989757e-08,0.004399999999999999,7.297712338231354e-08,0.004399999999999999,6.359811722607906e-08,0.004399999999999999,5.633360541022264e-08,0.004399999999999999,5.0547448304253e-08,0.004399999999999999,4.583307214899943e-08
0.004499999999999999,1.568977929133676e-07,0.004499999999999999,1.140879125624528e-07,0.004499999999999999,1.315666777989351e-07,0.004499999999999999,1.052869802084319e-07,0.004499999999999999,8.739894750222002e-08,0.004499999999999999,7.458521934293858e-08,0.004499999999999999,6.500004010247903e-08,0.004499999999999999,5.757571861572117e-08,0.004499999999999999,5.166220492669374e-08,0.004499999999999999,4.684401997382215e-08
0.004599999999999999,1.60235339104027e-07,0.004599999999999999,1.165278769909636e-07,0.004599999999999999,1.343915090248544e-07,0.004599999999999999,1.075508187603516e-07,0.004599999999999999,8.927969983964257e-08,0.004599999999999999,7.619107248305784e-08,0.004599999999999999,6.640003051663476e-08,0.004599999999999999,5.881613450939258e-08,0.004599999999999999,5.277544848769243e-08,0.004599999999999999,4.78536029661025e-08
0.004699999999999999,1.635664362169607e-07,0.004699999999999999,1.189637058766988e-07,0.004699999999999999,1.37212043619897e-07,0.004699999999999999,1.098113597264432e-07,0.004699999999999999,9.115778135089258e-08,0.004699999999999999,7.779468283633947e-08,0.004699999999999999,6.779808849324391e-08,0.004699999999999999,6.00548531101581e-08,0.004699999999999999,5.388717900223231e-08,0.004699999999999999,4.886182113801709e-08
0.0048,1.668910863023131e-07,0.0048,1.213953997874136e-07,0.0048,1.40028281723824e-07,0.0048,1.120686031836929e-07,0.0048,9.30331920847135e-08,0.0048,7.939605043646388e-08,0.0048,6.919421405701354e-08,0.0048,6.129187443694836e-08,0.0048,5.499739648530461e-08,0.0048,4.986867450174886e-08
0.0049,1.702092914093303e-07,0.0049,1.238229592907593e-07,0.0049,1.428402234764338e-07,0.0049,1.143225492091114e-07,0.0049,9.490593208986811e-08,0.0049,8.099517531712619e-08,0.0049,7.058840723266309e-08,0.0049,6.252719850870376e-08,0.0049,5.610610095190888e-08,0.0049,5.087416306948831e-08
0.005,1.735210535863612e-07,0.005,1.262463849542836e-07,0.005,1.456478690175613e-07,0.005,1.165731978797338e-07,0.005,9.677600141513499e-08,0.005,8.259205751203549e-08,0.005,7.198066804492298e-08,0.005,6.376082534437442e-08,0.005,5.721329241705296e-08,0.005,5.187828685343363e-08
0.0051,1.76826374880857e-07,0.0051,1.286656773454291e-07,0.0051,1.4845121848708e-07,0.0051,1.188205492726205e-07,0.0051,9.864340010931216e-08,0.0051,8.418669705491428e-08,0.0051,7.337099651853488e-08,0.0051,6.499275496291987e-08,0.0051,5.831897089575327e-08,0.0051,5.288104586578998e-08
0.005200000000000001,1.801252573393716e-07,0.005200000000000001,1.310808370315348e-07,0.005200000000000001,1.512502720249033e-07,0.005200000000000001,1.210646034648552e-07,0.005200000000000001,1.005081282212152e-07,0.005200000000000001,8.577909397950019e-08,0.005200000000000001,7.475939267825325e-08,0.005200000000000001,6.622298738330944e-08,0.005200000000000001,5.942313640303463e-08,0.005200000000000001,5.388244011876972e-08
