;Version, 1, 0
;TI_ac,;TI_mid_ac
;X, Y, Y,;X, Y, Y
;Re, ComplexRe, ComplexIm,;Re, ComplexRe, ComplexIm
;freq, Y,;freq, Y
;Hz, yunit,;Hz, yunit
1,6679.376846639454,-2.489464710742155e-05,1,-736.9258722488707,-1.90921754786799e-07
1.023292992280754,6679.376846639454,-2.547451793032682e-05,1.023292992280754,-736.9258722488707,-1.953688937472762e-07
1.047128548050899,6679.376846639454,-2.606789567983386e-05,1.047128548050899,-736.9258722488707,-1.999196198812306e-07
1.071519305237606,6679.376846639454,-2.667509497267973e-05,1.071519305237606,-736.9258722488707,-2.045763460438953e-07
1.096478196143185,6679.376846639454,-2.729643775396669e-05,1.096478196143185,-736.9258722488707,-2.093415412931205e-07
1.122018454301963,6679.376846639454,-2.793225346786192e-05,1.122018454301963,-736.9258722488707,-2.142177321985023e-07
1.148153621496882,6679.376846639454,-2.858287923227292e-05,1.148153621496882,-736.9258722488707,-2.192075041810028e-07
1.174897554939529,6679.376846639454,-2.924866001759195e-05,1.174897554939529,-736.9258722488707,-2.243135028837741e-07
1.202264434617413,6679.376846639454,-2.992994882960413e-05,1.202264434617413,-736.9258722488707,-2.295384355749147e-07
1.230268770812381,6679.376846639454,-3.062710689665548e-05,1.230268770812381,-736.9258722488707,-2.348850725828972e-07
1.258925411794167,6679.376846639454,-3.134050386118108e-05,1.258925411794167,-736.9258722488707,-2.403562487654352e-07
1.288249551693134,6679.376846639454,-3.207051797569453e-05,1.288249551693134,-736.9258722488707,-2.459548650125595e-07
1.318256738556407,6679.376846639454,-3.281753630334218e-05,1.318256738556407,-736.9258722488707,-2.516838897847107e-07
1.348962882591653,6679.376846639454,-3.358195492312928e-05,1.348962882591653,-736.9258722488707,-2.57546360686656e-07
1.380384264602885,6679.376846639454,-3.436417913992634e-05,1.380384264602885,-736.9258722488707,-2.63545386078067e-07
1.412537544622754,6679.376846639452,-3.516462369936711e-05,1.412537544622754,-736.9258722488707,-2.696841467216115e-07
1.445439770745927,6679.376846639452,-3.598371300775204e-05,1.445439770745927,-736.9258722488707,-2.759658974694396e-07
1.479108388168207,6679.376846639452,-3.682188135707448e-05,1.479108388168207,-736.9258722488707,-2.823939689889461e-07
1.513561248436208,6679.376846639452,-3.767957315528769e-05,1.513561248436208,-736.9258722488707,-2.889717695287372e-07
1.548816618912481,6679.37684663945,-3.855724316193587e-05,1.548816618912481,-736.9258722488707,-2.957027867257256e-07
1.584893192461113,6679.37684663945,-3.945535672927397e-05,1.584893192461113,-736.9258722488707,-3.025905894543258e-07
1.621810097358929,6679.376846639444,-4.037439004900334e-05,1.621810097358929,-736.9258722488707,-3.096388297187142e-07
1.65958690743756,6679.376846639444,-4.131483040475489e-05,1.65958690743756,-736.9258722488707,-3.168512445891741e-07
1.698243652461743,6679.376846639444,-4.227717643045358e-05,1.698243652461743,-736.9258722488707,-3.242316581835367e-07
1.737800828749374,6679.376846639444,-4.326193837470015e-05,1.737800828749374,-736.9258722488707,-3.317839836947813e-07
1.778279410038922,6679.376846639444,-4.426963837131246e-05,1.778279410038922,-736.9258722488707,-3.395122254658617e-07
1.819700858609982,6679.376846639444,-4.530081071616723e-05,1.819700858609982,-736.9258722488707,-3.474204811128591e-07
1.862087136662866,6679.376846639444,-4.635600215049075e-05,1.862087136662866,-736.9258722488707,-3.555129436975969e-07
1.905460717963246,6679.376846639449,-4.743577215074878e-05,1.905460717963246,-736.9258722488707,-3.637939039508521e-07
1.949844599758044,6679.376846639448,-4.854069322528773e-05,1.949844599758044,-736.9258722488707,-3.722677525473646e-07
1.995262314968878,6679.376846639448,-4.967135121788683e-05,1.995262314968878,-736.9258722488707,-3.809389824338234e-07
2.041737944669527,6679.376846639446,-5.082834561837965e-05,2.041737944669527,-736.9258722488707,-3.898121912110927e-07
2.089296130854037,6679.376846639446,-5.2012289880512e-05,2.089296130854037,-736.9258722488707,-3.988920835719161e-07
2.13796208950223,6679.376846639446,-5.322381174720309e-05,2.13796208950223,-736.9258722488707,-4.081834737954101e-07
2.18776162394955,6679.376846639445,-5.446355358338298e-05,2.18776162394955,-736.9258722488707,-4.176912882996577e-07
2.238721138568337,6679.376846639446,-5.573217271658316e-05,2.238721138568337,-736.9258722488707,-4.274205682537599e-07
2.29086765276777,6679.376846639445,-5.703034178546013e-05,2.29086765276777,-736.9258722488707,-4.373764722507297e-07
2.344228815319919,6679.37684663945,-5.83587490964376e-05,2.344228815319919,-736.9258722488707,-4.475642790426485e-07
2.398832919019488,6679.37684663945,-5.971809898865533e-05,2.398832919019488,-736.9258722488707,-4.579893903395291e-07
2.454708915685027,6679.376846639449,-6.110911220741937e-05,2.454708915685027,-736.9258722488707,-4.686573336733743e-07
2.511886431509577,6679.376846639442,-6.253252628635045e-05,2.511886431509577,-736.9258722488707,-4.795737653289472e-07
2.57039578276886,6679.376846639442,-6.398909593843442e-05,2.57039578276886,-736.9258722488707,-4.907444733428061e-07
2.630267991895378,6679.37684663944,-6.547959345618078e-05,2.630267991895378,-736.9258722488707,-5.021753805722018e-07
2.691534803926912,6679.376846639439,-6.700480912110234e-05,2.691534803926912,-736.9258722488707,-5.138725478354544e-07
2.754228703338163,6679.376846639446,-6.856555162273362e-05,2.754228703338163,-736.9258722488707,-5.258421771254753e-07
2.81838293126445,6679.376846639445,-7.016264848740747e-05,2.81838293126445,-736.9258722488707,-5.380906148981528e-07
2.884031503126602,6679.376846639444,-7.179694651702187e-05,2.884031503126602,-736.9258722488707,-5.506243554373211e-07
2.951209226666381,6679.376846639444,-7.34693122380245e-05,2.951209226666381,-736.9258722488707,-5.634500442981161e-07
3.019951720402012,6679.376846639444,-7.518063236085702e-05,3.019951720402012,-736.9258722488707,-5.765744818305418e-07
3.090295432513586,6679.376846639448,-7.693181425010063e-05,3.090295432513586,-736.9258722488707,-5.900046267850985e-07
3.162277660168374,6679.376846639448,-7.872378640557256e-05,3.162277660168374,-736.9258722488707,-6.037476000024111e-07
3.235936569296277,6679.376846639438,-8.055749895462915e-05,3.235936569296277,-736.9258722488707,-6.178106881887918e-07
3.311311214825905,6679.376846639436,-8.243392415593604e-05,3.311311214825905,-736.9258722488707,-6.322013477797382e-07
3.38844156139202,6679.376846639442,-8.435405691497234e-05,3.38844156139202,-736.9258722488707,-6.469272088934517e-07
3.46736850452531,6679.37684663944,-8.631891531154307e-05,3.46736850452531,-736.9258722488707,-6.619960793764144e-07
3.548133892335748,6679.376846639438,-8.832954113957774e-05,3.548133892335748,-736.9258722488707,-6.774159489432178e-07
3.630780547701007,6679.376846639445,-9.038700045950449e-05,3.630780547701007,-736.9258722488707,-6.931949934128082e-07
3.715352290971718,6679.376846639436,-9.249238416348803e-05,3.715352290971718,-736.9258722488707,-7.093415790434285e-07
3.801893963205605,6679.376846639434,-9.464680855383649e-05,3.801893963205605,-736.9258722488707,-7.258642669685043e-07
3.890451449942799,6679.376846639424,-9.685141593487881e-05,3.890451449942799,-736.9258722488707,-7.427718177358765e-07
3.981071705534965,6679.376846639422,-9.910737521862983e-05,3.981071705534965,-736.9258722488707,-7.600731959527567e-07
4.073802778041119,6679.376846639422,-0.0001014158825445629,4.073802778041119,-736.9258722488707,-7.777775750388902e-07
4.168693834703346,6679.376846639426,-0.0001037781619138192,4.168693834703346,-736.9258722488707,-7.958943420904103e-07
4.265795188015918,6679.376846639414,-0.0001061954658381884,4.265795188015918,-736.9258722488707,-8.144331028570159e-07
4.365158322401651,6679.376846639423,-0.0001086690760042082,4.365158322401651,-736.9258722488707,-8.334036868350512e-07
4.466835921509622,6679.376846639419,-0.0001112003039527305,4.466835921509622,-736.9258722488707,-8.528161524792477e-07
4.570881896148741,6679.376846639425,-0.0001137904917743188,4.570881896148741,-736.9258722488707,-8.726807925358445e-07
4.677351412871972,6679.376846639418,-0.000116441012820841,4.677351412871972,-736.925872248871,-8.930081394999397e-07
4.786300923226373,6679.376846639422,-0.0001191532724336396,4.786300923226373,-736.925872248871,-9.138089711999578e-07
4.897788193684452,6679.376846639419,-0.0001219287086886626,4.897788193684452,-736.925872248871,-9.350943165121978e-07
5.011872336272712,6679.376846639407,-0.0001247687931589496,5.011872336272712,-736.925872248871,-9.568754612084901e-07
5.128613839913638,6679.376846639404,-0.0001276750316948795,5.128613839913638,-736.925872248871,-9.791639539400576e-07
5.248074602497715,6679.376846639408,-0.0001306489652225931,5.248074602497715,-736.925872248871,-1.001971612360769e-06
5.370317963702516,6679.376846639405,-0.000133692170561011,5.370317963702516,-736.925872248871,-1.025310529393016e-06
5.495408738576233,6679.376846639408,-0.0001368062612578853,5.495408738576233,-736.925872248871,-1.049193079639534e-06
5.623413251903478,6679.376846639405,-0.0001399928884453236,5.623413251903478,-736.925872248871,-1.073631925944594e-06
5.754399373371556,6679.37684663941,-0.0001432537417152404,5.754399373371556,-736.925872248871,-1.098640026107981e-06
5.888436553555876,6679.376846639406,-0.000146590550015202,5.888436553555876,-736.925872248871,-1.124230639755435e-06
6.025595860743564,6679.376846639399,-0.0001500050825651369,6.025595860743564,-736.9258722488707,-1.150417335369036e-06
6.165950018614807,6679.376846639394,-0.0001534991497953998,6.165950018614807,-736.9258722488707,-1.177213997481424e-06
6.309573444801917,6679.376846639397,-0.0001570746043066857,6.309573444801917,-736.9258722488707,-1.204634834037544e-06
6.456542290346539,6679.376846639392,-0.000160733341852303,6.456542290346539,-736.9258722488707,-1.232694383927894e-06
6.606934480075944,6679.376846639389,-0.0001644773023433277,6.606934480075944,-736.9258722488707,-1.261407524697243e-06
6.760829753919801,6679.376846639394,-0.0001683084708771693,6.760829753919801,-736.9258722488711,-1.29078948043289e-06
6.918309709189348,6679.376846639386,-0.0001722288787900956,6.918309709189348,-736.9258722488711,-1.32085582983668e-06
7.079457843841362,6679.376846639388,-0.0001762406047342752,7.079457843841362,-736.925872248871,-1.351622514485036e-06
7.244359600749883,6679.376846639373,-0.0001803457757799047,7.244359600749883,-736.925872248871,-1.383105847281416e-06
7.413102413009157,6679.376846639366,-0.0001845465685430116,7.413102413009157,-736.9258722488709,-1.415322521105594e-06
7.585775750291819,6679.37684663938,-0.0001888452103395227,7.585775750291819,-736.9258722488723,-1.448289617664468e-06
7.762471166286898,6679.376846639371,-0.0001932439803662172,7.762471166286898,-736.9258722488723,-1.482024616549005e-06
7.943282347242794,6679.376846639371,-0.0001977452109091882,7.943282347242794,-736.9258722488723,-1.516545404502148e-06
8.128305161640972,6679.376846639365,-0.0002023512885804505,8.128305161640972,-736.9258722488723,-1.551870284902609e-06
8.317637711026689,6679.376846639366,-0.0002070646555833538,8.317637711026689,-736.9258722488725,-1.58801798746955e-06
8.511380382023743,6679.376846639375,-0.0002118878110074722,8.511380382023743,-736.9258722488726,-1.625007678193348e-06
8.709635899560784,6679.376846639356,-0.0002168233121536531,8.709635899560784,-736.9258722488727,-1.662858969497648e-06
8.912509381337431,6679.376846639353,-0.0002218737758899335,8.912509381337431,-736.9258722488725,-1.701591930638111e-06
9.120108393559072,6679.376846639346,-0.0002270418800390372,9.120108393559072,-736.9258722488727,-1.741227098343426e-06
9.332543007969884,6679.37684663934,-0.0002323303647981921,9.332543007969884,-736.9258722488726,-1.781785487704145e-06
9.549925860214332,6679.376846639339,-0.0002377420341920189,9.549925860214332,-736.9258722488727,-1.823288603315159e-06
9.772372209558078,6679.376846639338,-0.0002432797575592611,9.772372209558078,-736.9258722488727,-1.865758450677727e-06
9.99999999999997,6679.376846639327,-0.0002489464710741499,9.99999999999997,-736.9258722488728,-1.909217547867074e-06
10.23292992280751,6679.376846639325,-0.0002547451793031978,10.23292992280751,-736.9258722488726,-1.953688937471773e-06
10.47128548050896,6679.376846639329,-0.0002606789567982634,10.47128548050896,-736.9258722488726,-1.999196198811244e-06
10.71519305237603,6679.376846639308,-0.0002667509497267166,10.71519305237603,-736.9258722488726,-2.045763460437823e-06
10.96478196143182,6679.376846639305,-0.0002729643775395808,10.96478196143182,-736.9258722488728,-2.093415412929992e-06
11.2201845430196,6679.376846639296,-0.0002793225346785266,11.2201845430196,-736.9258722488728,-2.142177321983722e-06
11.48153621496879,6679.376846639285,-0.0002858287923226302,11.48153621496879,-736.9258722488726,-2.192075041808632e-06
11.74897554939526,6679.376846639268,-0.0002924866001758133,11.74897554939526,-736.9258722488726,-2.24313502883625e-06
12.02264434617409,6679.37684663926,-0.0002992994882959274,12.02264434617409,-736.9258722488728,-2.295384355747553e-06
12.30268770812378,6679.37684663926,-0.0003062710689664327,12.30268770812378,-736.9258722488726,-2.348850725827264e-06
12.58925411794163,6679.376846639256,-0.0003134050386116804,12.58925411794163,-736.9258722488728,-2.403562487652509e-06
12.8824955169313,6679.376846639243,-0.0003207051797568053,12.8824955169313,-736.9258722488728,-2.459548650123619e-06
13.18256738556403,6679.376846639256,-0.0003281753630332727,13.18256738556403,-736.9258722488755,-2.516838897845019e-06
13.48962882591649,6679.376846639232,-0.0003358195492311327,13.48962882591649,-736.9258722488753,-2.575463606864329e-06
13.8038426460288,6679.376846639235,-0.0003436417913990923,13.8038426460288,-736.9258722488757,-2.635453860778263e-06
14.12537544622749,6679.376846639217,-0.0003516462369934871,14.12537544622749,-736.9258722488754,-2.696841467213538e-06
14.45439770745922,6679.376846639192,-0.0003598371300773241,14.45439770745922,-736.9258722488754,-2.759658974691641e-06
14.79108388168202,6679.376846639176,-0.0003682188135705342,14.79108388168202,-736.9258722488755,-2.823939689886515e-06
15.13561248436203,6679.37684663917,-0.0003767957315526508,15.13561248436203,-736.9258722488756,-2.889717695284207e-06
15.48816618912476,6679.376846639132,-0.0003855724316191159,15.48816618912476,-736.9258722488732,-2.957027867253833e-06
15.84893192461108,6679.376846639118,-0.0003945535672924794,15.84893192461108,-736.9258722488732,-3.025905894539583e-06
16.21810097358924,6679.376846639122,-0.0004037439004897547,16.21810097358924,-736.9258722488735,-3.096388297183189e-06
16.59586907437554,6679.376846639085,-0.0004131483040472497,16.59586907437554,-736.9258722488732,-3.168512445887513e-06
16.98243652461738,6679.376846639067,-0.0004227717643042149,16.98243652461738,-736.9258722488735,-3.24231658183084e-06
17.37800828749369,6679.37684663908,-0.0004326193837466599,17.37800828749369,-736.925872248876,-3.317839836942998e-06
17.78279410038916,6679.376846639048,-0.0004426963837127581,17.78279410038916,-736.9258722488763,-3.395122254653454e-06
18.19700858609976,6679.376846639025,-0.0004530081071612795,18.19700858609976,-736.9258722488764,-3.474204811123067e-06
18.6208713666286,6679.376846639007,-0.0004635600215044874,18.6208713666286,-736.9258722488762,-3.555129436970039e-06
19.0546071796324,6679.376846638986,-0.0004743577215070371,19.0546071796324,-736.9258722488764,-3.637939039502178e-06
19.49844599758038,6679.376846638967,-0.0004854069322523947,19.49844599758038,-736.9258722488764,-3.72267752546684e-06
19.95262314968872,6679.376846638962,-0.0004967135121783522,19.95262314968872,-736.9258722488788,-3.809389824330975e-06
20.41737944669521,6679.376846638948,-0.0005082834561832436,20.41737944669521,-736.9258722488789,-3.898121912103138e-06
20.89296130854031,6679.376846638917,-0.0005201228988045276,20.89296130854031,-736.925872248879,-3.988920835710813e-06
21.37962089502224,6679.376846638898,-0.0005322381174713962,21.37962089502224,-736.9258722488793,-4.08183473794514e-06
21.87761623949544,6679.376846638856,-0.0005446355358331498,21.87761623949544,-736.9258722488792,-4.176912882986986e-06
22.38721138568331,6679.376846638825,-0.0005573217271651018,22.38721138568331,-736.9258722488794,-4.274205682527314e-06
22.90867652767764,6679.376846638805,-0.0005703034178538203,22.90867652767764,-736.9258722488805,-4.373764722496289e-06
23.44228815319913,6679.376846638781,-0.0005835874909635389,23.44228815319913,-736.925872248881,-4.475642790414681e-06
23.98832919019481,6679.376846638737,-0.0005971809898856559,23.98832919019481,-736.9258722488812,-4.579893903382648e-06
24.5470891568502,6679.376846638688,-0.0006110911220732312,24.5470891568502,-736.9258722488801,-4.68657333672017e-06
25.1188643150957,6679.376846638664,-0.0006253252628624751,25.1188643150957,-736.9258722488817,-4.79573765327494e-06
25.70395782768853,6679.376846638619,-0.0006398909593832394,25.70395782768853,-736.9258722488814,-4.907444733412484e-06
26.30267991895371,6679.376846638585,-0.0006547959345606241,26.30267991895371,-736.9258722488819,-5.021753805705318e-06
26.91534803926904,6679.37684663854,-0.0006700480912097568,26.91534803926904,-736.9258722488819,-5.138725478336643e-06
27.54228703338154,6679.376846638519,-0.0006856555162259794,27.54228703338154,-736.9258722488846,-5.258421771235625e-06
28.18382931264442,6679.376846638464,-0.0007016264848726218,28.18382931264442,-736.9258722488851,-5.380906148961034e-06
28.84031503126593,6679.376846638413,-0.0007179694651686611,28.84031503126593,-736.9258722488853,-5.506243554351241e-06
29.51209226666373,6679.376846638378,-0.0007346931223785771,29.51209226666373,-736.9258722488864,-5.634500442957631e-06
30.19951720402003,6679.376846638309,-0.0007518063236067803,30.19951720402003,-736.9258722488854,-5.765744818280171e-06
30.90295432513577,6679.376846638256,-0.0007693181424990887,30.90295432513577,-736.9258722488869,-5.900046267823955e-06
31.62277660168365,6679.376846638197,-0.0007872378640536703,31.62277660168365,-736.9258722488871,-6.037475999995145e-06
32.35936569296268,6679.376846638158,-0.0008055749895440923,32.35936569296268,-736.9258722488898,-6.178106881856896e-06
33.11311214825896,6679.376846638118,-0.0008243392415570064,33.11311214825896,-736.9258722488929,-6.322013477764198e-06
33.8844156139201,6679.376846638049,-0.0008435405691472016,33.8844156139201,-736.9258722488933,-6.469272088898938e-06
34.67368504525301,6679.376846637984,-0.0008631891531127273,34.67368504525301,-736.9258722488934,-6.619960793725997e-06
35.48133892335738,6679.376846637897,-0.0008832954113928786,35.48133892335738,-736.9258722488934,-6.774159489391294e-06
36.30780547700997,6679.376846637842,-0.0009038700045919395,36.30780547700997,-736.9258722488963,-6.931949934084313e-06
37.15352290971708,6679.376846637756,-0.0009249238416315526,37.15352290971708,-736.9258722488964,-7.093415790387377e-06
38.01893963205595,6679.37684663767,-0.0009464680855348006,38.01893963205595,-736.925872248898,-7.258642669634788e-06
38.90451449942788,6679.37684663759,-0.0009685141593449684,38.90451449942788,-736.9258722488986,-7.427718177304851e-06
39.81071705534954,6679.376846637483,-0.0009910737521822042,39.81071705534954,-736.9258722488988,-7.600731959469791e-06
40.73802778041109,6679.376846637405,-0.001014158825441244,40.73802778041109,-736.925872248901,-7.777775750326998e-06
41.68693834703335,6679.376846637298,-0.00103778161913349,41.68693834703335,-736.9258722489012,-7.958943420837754e-06
42.65795188015907,6679.376846637187,-0.001061954658376845,42.65795188015907,-736.9258722489017,-8.144331028499015e-06
43.65158322401639,6679.376846637101,-0.001086690760036686,43.65158322401639,-736.9258722489055,-8.334036868274377e-06
44.6683592150961,6679.376846637001,-0.001112003039521525,44.6683592150961,-736.9258722489074,-8.528161524710892e-06
45.70881896148729,6679.376846636881,-0.001137904917736994,45.70881896148729,-736.9258722489091,-8.726807925271029e-06
