;Version, 1, 0
;TI_ac,;TI_phase
;X, Y, Y,;X, Y
;Re, ComplexRe, ComplexIm,;Re, Re
;freq, Y,;freq, Phase
;Hz, yunit,;Hz, deg
1000000,-809.8620369551344,0.09320011046504216,1000000,179.9934063177275
1023292.992280754,-809.8618865070456,0.09536345405453173,1023292.992280754,179.9932532651519
1047128.5480509,-809.8617290052033,0.09757664916895345,1047128.5480509,179.9930966855833
1071519.305237606,-809.8615641206428,0.09984081866403184,1071519.305237606,179.9929364995735
1096478.196143185,-809.8613915093001,0.1021571088362695,1096478.196143185,179.9927726260149
1122018.454301963,-809.8612108112548,0.1045266897782368,1122018.454301963,179.992604982116
1148153.621496883,-809.861021650038,0.1069507557288949,1148153.621496883,179.9924334833761
1174897.554939529,-809.8608236318424,0.109430525417958,1174897.554939529,179.992258043561
1202264.434617413,-809.8606163448098,0.1119672424031809,1202264.434617413,179.9920785746793
1230268.770812381,-809.8603993582207,0.1145621753994147,1230268.770812381,179.9918949869587
1258925.411794167,-809.8601722216144,0.1172166185981161,1258925.411794167,179.9917071888235
1288249.551693134,-809.8599344639609,0.1199318919759975,1288249.551693134,179.9915150868729
1318256.738556407,-809.8596855926947,0.1227093415912666,1318256.738556407,179.9913185858597
1348962.882591653,-809.8594250928496,0.1255503398659226,1348962.882591653,179.9911175886701
1380384.264602884,-809.8591524260038,0.1284562858523748,1380384.264602884,179.9909119963052
1412537.544622754,-809.8588670292405,0.1314286054825371,1412537.544622754,179.9907017078631
1445439.770745927,-809.8585683142085,0.134468751797466,1445439.770745927,179.9904866205224
1479108.388168207,-809.8582556658624,0.1375782051553788,1479108.388168207,179.9902666295276
1513561.248436208,-809.8579284413553,0.1407584734158449,1513561.248436208,179.9900416281758
1548816.618912481,-809.8575859689541,0.1440110920976917,1548816.618912481,179.9898115078055
1584893.192461113,-809.8572275466273,0.1473376245080572,1584893.192461113,179.9895761577874
1621810.097358929,-809.8568524408846,0.1507396618398151,1621810.097358929,179.9893354655173
1659586.90743756,-809.8564598853568,0.1542188232344406,1659586.90743756,179.9890893164114
1698243.652461744,-809.8560490794987,0.1577767558071486,1698243.652461744,179.9888375939046
1737800.828749375,-809.855619187063,0.1614151346309669,1737800.828749375,179.9885801794514
1778279.410038922,-809.8551693347015,0.1651356626761693,1778279.410038922,179.9883169525298
1819700.858609983,-809.8546986103444,0.1689400707012795,1819700.858609983,179.9880477906493
1862087.136662866,-809.854206061695,0.1728301170915976,1862087.136662866,179.9877725693617
1905460.717963246,-809.853690694494,0.1768075876409936,1905460.717963246,179.9874911622764
1949844.599758044,-809.8531514709038,0.1808742952723856,1949844.599758044,179.9872034410802
1995262.314968878,-809.8525873077147,0.1850320796921233,1995262.314968878,179.9869092755613
2041737.944669528,-809.8519970745515,0.189282806973178,2041737.944669528,179.9866085336387
2089296.130854038,-809.8513795920063,0.1936283690617328,2089296.130854038,179.9863010813967
2137962.089502231,-809.8507336297049,0.1980706832014993,2137962.089502231,179.9859867831254
2187761.623949551,-809.8500579044016,0.2026116912697691,2187761.623949551,179.9856655013675
2238721.138568338,-809.8493510778796,0.2072533590188602,2238721.138568338,179.9853370969716
2290867.652767771,-809.8486117548979,0.211997675216325,2290867.652767771,179.9850014291527
2344228.81531992,-809.8478384811233,0.2168466506769232,2344228.81531992,179.9846583555601
2398832.919019489,-809.8470297408443,0.2218023171790356,2398832.919019489,179.9843077323542
2454708.915685028,-809.8461839548385,0.226866726257849,2454708.915685028,179.9839494142912
2511886.431509578,-809.8452994780654,0.2320419478672689,2511886.431509578,179.9835832548173
2570395.782768862,-809.8443745973237,0.2373300689022181,2570395.782768862,179.9832091061728
2630267.99189538,-809.8434075290165,0.2427331915725623,2630267.99189538,179.9828268195072
2691534.803926914,-809.8423964165919,0.2482534316196059,2691534.803926914,179.9824362450042
2754228.703338164,-809.841339328263,0.2538929163657633,2754228.703338164,179.9820372320195
2818382.931264451,-809.8402342545287,0.259653782587678,2818382.931264451,179.9816296292308
2884031.503126603,-809.8390791056969,0.2655381742027137,2884031.503126603,179.981213284801
2951209.226666383,-809.8378717094382,0.2715482397585604,2951209.226666383,179.980788046555
3019951.720402013,-809.8366098082817,0.2776861297152619,3019951.720402013,179.9803537621716
3090295.432513587,-809.8352910572055,0.2839539935089685,3090295.432513587,179.9799102793903
3162277.660168376,-809.8339130211299,0.2903539763862866,3162277.660168376,179.9794574462351
3235936.569296279,-809.8324731725369,0.2968882159981364,3235936.569296279,179.9789951112541
3311311.214825907,-809.8309688890155,0.3035588387418459,3311311.214825907,179.9785231237784
3388441.561392021,-809.8293974510642,0.3103679558401961,3388441.561392021,179.9780413341982
3467368.504525312,-809.8277560396851,0.3173176591462171,3467368.504525312,179.9775495942588
3548133.89233575,-809.826041734288,0.3244100166625889,3548133.89233575,179.9770477573771
3630780.547701009,-809.8242515106238,0.3316470677648433,3630780.547701009,179.9765356789784
3715352.29097172,-809.8223822387889,0.3390308181177848,3715352.29097172,179.9760132168557
3801893.963205607,-809.8204306814328,0.346563234275118,3801893.963205607,179.9754802315503
3890451.449942801,-809.8183934921421,0.3542462379528096,3890451.449942801,179.9749365867563
3981071.705534967,-809.8162672140204,0.3620816999674837,3981071.705534967,179.9743821497486
4073802.778041122,-809.8140482783933,0.370071433832162,4073802.778041122,179.9738167918351
4168693.834703348,-809.8117330039087,0.3782171890026432,4168693.834703348,179.9732403888332
4265795.18801592,-809.8093175957868,0.3865206437693522,4265795.18801592,179.972652821572
4365158.322401653,-809.8067981455068,0.3949833977908676,4365158.322401653,179.9720539764196
4466835.921509624,-809.8041706307679,0.4036069642673472,4466835.921509624,179.9714437458357
4570881.896148743,-809.8014309158291,0.4123927617540289,4570881.896148743,179.9708220289498
4677351.412871975,-809.7985747523783,0.421342105617524,4677351.412871975,179.9701887321647
4786300.923226376,-809.795597780746,0.4304561991401667,4786300.923226376,179.9695437697851
4897788.193684454,-809.7924955317146,0.4397361242809536,4897788.193684454,179.9688870646699
5011872.336272715,-809.789263428935,0.4491828321048771,5011872.336272715,179.9682185489089
5128613.83991364,-809.7858967918444,0.4587971328963003,5128613.83991364,179.9675381645209
5248074.602497717,-809.7823908393211,0.4685796859762533,5248074.602497717,179.9668458641739
5370317.963702518,-809.7787406941001,0.47853098924809,5370317.963702518,179.9661416119234
5495408.738576236,-809.7749413878629,0.4886513685010992,5495408.738576236,179.965425383969
5623413.251903481,-809.7709878671833,0.4989409665069158,5623413.251903481,179.9646971694248
5754399.373371559,-809.7668750004773,0.50939973194983,5754399.373371559,179.9639569711026
5888436.553555879,-809.7625975856888,0.5200274082380423,5888436.553555879,179.9632048063026
6025595.860743566,-809.7581503591456,0.5308235222500868,6025595.860743566,179.9624407076099
6165950.01861481,-809.7535280053913,0.5417873730775111,6165950.01861481,179.9616647236905
6309573.44480192,-809.7487251680749,0.5529180208326129,6309573.44480192,179.9608769200838
6456542.290346542,-809.7437364621381,0.5642142755980931,6456542.290346542,179.9600773799839
6606934.480075947,-809.7385564870524,0.5756746866033643,6606934.480075947,179.959266205007
6760829.753919804,-809.7331798414042,0.5872975317210131,6760829.753919804,179.9584435159344
6918309.709189351,-809.7276011387426,0.5990808073854673,6918309.709189351,179.957609453427
7079457.843841365,-809.7218150247543,0.61102221904454,7079457.843841365,179.9567641787028
7244359.600749886,-809.7158161956968,0.6231191722632319,7244359.600749886,179.9559078741671
7413102.413009159,-809.7095994183994,0.6353687646077797,7413102.413009159,179.9550407439891
7585775.750291822,-809.7031595514081,0.6477677784460457,7585775.750291822,179.9541630146136
7762471.166286901,-809.6964915676797,0.6603126748080909,7762471.166286901,179.9532749351979
7943282.347242798,-809.6895905785149,0.6729995884581574,7943282.347242798,179.9523767779635
8128305.161640975,-809.6824518588495,0.6858243243351668,8128305.161640975,179.9514688384513
8317637.711026692,-809.6750708739136,0.6987823555246867,8317637.711026692,179.950551435669
8511380.382023746,-809.6674433068889,0.7118688229287419,8511380.382023746,179.9496249121188
8709635.899560787,-809.659565088004,0.7250785368030082,8709635.899560787,179.9486896336932
8912509.381337434,-809.6514324243874,0.7384059803311556,8912509.381337434,179.9477459894269
9120108.393559076,-809.6430418310069,0.7518453154054101,9120108.393559076,179.9467943910939
9332543.007969888,-809.6343901623598,0.7653903907786999,9332543.007969888,179.9458352726361
9549925.860214336,-809.625474644718,0.779034752748087,9549925.860214336,179.9448690894136
9772372.209558083,-809.6162929088825,0.7927716585204753,9772372.209558083,179.9438963172663
9999999.999999976,-809.6068430230994,0.8065940924002184,9999999.999999976,179.9429174513745
10232929.92280752,-809.5971235260075,0.8204947849237874,10232929.92280752,179.9419330049137
10471285.48050897,-809.5871334592281,0.8344662350485745,10471285.48050897,179.9409435074907
10715193.05237604,-809.5768723996187,0.8485007354824562,10715193.05237604,179.9399495033598
10964781.96143182,-809.5663404904445,0.8625904012154449,10964781.96143182,179.9389515494119
11220184.54301961,-809.5555384716205,0.8767272012879472,11220184.54301961,179.9379502129344
11481536.2149688,-809.5444677082926,0.8909029937983086,11481536.2149688,179.936946069142
11748975.54939527,-809.5331302178241,0.9051095641189174,11748975.54939527,179.9359396984803
12022644.3461741,-809.521528694424,0.9193386662528585,12022644.3461741,179.9349316837077
12302687.70812378,-809.5096665313771,0.9335820672240778,12302687.70812378,179.9339226067606
12589254.11794164,-809.4975478403874,0.947831594352651,12589254.11794164,179.9329130454161
12882495.5169313,-809.4851774677484,0.9620791852240738,12882495.5169313,179.9319035697621
13182567.38556403,-809.4725610068771,0.976316940117718,13182567.38556403,179.9308947384933
13489628.8259165,-809.4597048071137,0.9905371766164712,13489628.8259165,179.9298870950519
13803842.64602881,-809.4466159782536,1.004732486075986,13803842.64602881,179.9288811636362
14125375.4462275,-809.4333023906827,1.018895791590832,14125375.4462275,179.9278774451021
14454397.70745923,-809.4197726708657,1.033020407055988,14454397.70745923,179.9268764127855
14791083.88168203,-809.4060361919758,1.047100096885907,14791083.88168203,179.9258785082783
15135612.48436204,-809.3921030594599,1.061129135922381,15135612.48436204,179.9248841371887
15488166.18912477,-809.3779840915573,1.075102369035909,15488166.18912477,179.923893664922
15848931.92461109,-809.3636907946471,1.089015269904931,15848931.92461109,179.9229074125191
16218100.97358925,-809.349235333413,1.102863998443621,16218100.97358925,179.921925652588
16595869.07437555,-809.3346304959582,1.11664545634272,16595869.07437555,179.9209486053686
16982436.52461739,-809.3198896541046,1.130357340189722,16982436.52461739,179.9199764349669
17378008.2874937,-809.3050267187563,1.143998191644161,17378008.2874937,179.9190092457961
17782794.10038917,-809.2900560910047,1.157567444162878,17782794.10038917,179.9180470792609
18197008.58609978,-809.2749926090157,1.171065465796188,18197008.58609978,179.9170899107183
18620871.36662862,-809.2598514911448,1.184493597611707,18620871.36662862,179.9161376467473
19054607.17963241,-809.2446482758143,1.197854187345121,19054607.17963241,179.9151901227542
19498445.99758039,-809.2293987585608,1.211150617927872,19498445.99758039,179.9142471009409
19952623.14968874,-809.2141189267268,1.22438733059789,19952623.14968874,179.9133082686551
20417379.44669523,-809.1988248925668,1.237569842362635,20417379.44669523,179.9123732371393
20892961.30854033,-809.1835328250418,1.250704757649484,20892961.30854033,179.9114415406912
21379620.89502225,-809.1682588812562,1.263799774049209,21379620.89502225,179.910512636242
21877616.23949546,-809.1530191379296,1.27686368212944,21877616.23949546,179.909585903354
22387211.38568332,-809.1378295235409,1.289906359367359,22387211.38568332,179.9086606446342
22908676.52767766,-809.1227057518008,1.302938758322295,22908676.52767766,179.9077360865566
23442288.15319914,-809.1076632570787,1.315972889238013,23442288.15319914,179.9068113806787
23988329.19019482,-809.0927171321986,1.329021797329343,23988329.19019482,179.9058856052345
24547089.15685022,-809.0778820692573,1.342099535069284,24547089.15685022,179.9049577670827
25118864.31509572,-809.0631723038172,1.355221129847069,25118864.31509572,179.9040268039832
25703957.82768855,-809.0486015631082,1.368402547415855,25703957.82768855,179.9030915871725
26302679.91895373,-809.0341830182592,1.38166065158943,26302679.91895373,179.9021509242058
26915348.03926906,-809.0199292412484,1.395013160679801,26915348.03926906,179.9012035620305
27542287.03338157,-809.0058521665178,1.408478601191977,27542287.03338157,179.9002481902561
28183829.31264444,-808.9919630576916,1.422076259307841,28183829.31264444,179.8992834445806
28840315.03126596,-808.9782724792008,1.435826130698383,28840315.03126596,179.8983079103377
29512092.26666375,-808.9647902732047,1.44974886920279,29512092.26666375,179.8973201261244
30199517.20402005,-808.9515255416334,1.463865734904492,30199517.20402005,179.8963185874735
30902954.32513579,-808.9384866332201,1.478198542117883,30902954.32513579,179.895301750533
31622776.60168367,-808.9256811355649,1.492769607777968,31622776.60168367,179.8942680357188
32359365.6929627,-808.9131158720458,1.50760170069663,32359365.6929627,179.8932158313065
33113112.14825898,-808.9007969032145,1.522717992116545,33113112.14825898,179.892143496933
33884415.61392012,-808.8887295325527,1.538142007956816,33884415.61392012,179.8910493669788
34673685.04525303,-808.8769183163984,1.553897583105179,34673685.04525303,179.8899317538069
35481338.92335741,-808.8653670775118,1.57000881806857,35481338.92335741,179.8887889508349
36307805.47701,-808.8540789220873,1.586500038251656,36307805.47701,179.8876192354225
37153522.90971711,-808.8430562599542,1.603395756088758,37153522.90971711,179.8864208715566
38018939.63205598,-808.8323008273825,1.620720636211148,38018939.63205598,179.8851921123232
38904514.49942791,-808.8218137124063,1.638499463790081,38904514.49942791,179.8839312021538
39810717.05534957,-808.8115953820784,1.656757116154382,39810717.05534957,179.8826363788411
40738027.78041112,-808.8016457114906,1.675518537743623,40738027.78041112,179.881305875318
41686938.34703338,-808.7919640141257,1.694808718421676,41686938.34703338,179.8799379211996
42657951.8801591,-808.7825490732279,1.714652675142272,42657951.8801591,179.8785307440875
43651583.22401643,-808.7733991739517,1.735075436928601,43651583.22401643,179.8770825706394
44668359.21509614,-808.7645121358854,1.756102033101842,44668359.21509614,179.8755916274088
45708818.96148732,-808.7558853457977,1.777757484670738,45708818.96148732,179.8740561414605
46773514.12871964,-808.7475157902373,1.800066798773766,46773514.12871964,179.8724743407705
47863009.23226365,-808.7394000879614,1.823054966049686,47863009.23226365,179.8708444544169
48977881.93684442,-808.7315345217283,1.846746960797513,48977881.93684442,179.8691647125749
50118723.36272702,-808.7239150694494,1.871167743777612,50118723.36272702,179.8674333463228
51286138.39913628,-808.7165374345883,1.896342267497764,51286138.39913628,179.8656485872726
52480746.02497704,-808.7093970754037,1.922295483822118,52480746.02497704,179.863808667036
53703179.63702505,-808.702489233311,1.949052353740291,53703179.63702505,179.8619118165362
54954087.38576223,-808.6958089599021,1.976637859131133,54954087.38576223,179.8599562651792
56234132.51903468,-808.6893511428244,2.005077016359249,56234132.51903468,179.8579402398941
57543993.73371545,-808.6831105302434,2.034394891543756,57543993.73371545,179.8558619640547
58884365.53555865,-808.6770817540279,2.064616617344835,58884365.53555865,179.8537196562942
60255958.60743552,-808.6712593515523,2.095767411118181,60255958.60743552,179.8515115292214
61659500.18614795,-808.6656377860246,2.12787259429458,61659500.18614795,179.8492357880507
63095734.44801905,-808.6602114655665,2.160957612849921,63095734.44801905,179.8468906291544
64565422.90346527,-808.6549747607348,2.195048058737487,64565422.90346527,179.844474238546
66069344.80075931,-808.6499220207937,2.230169692164631,66069344.80075931,179.8419847903043
67608297.53919788,-808.645047588716,2.266348464603668,67608297.53919788,179.8394204449443
69183097.09189335,-808.6403458146794,2.303610542434737,69183097.09189335,179.836779347744
70794578.43841347,-808.6358110684072,2.341982331129365,70794578.43841347,179.8340596270318
72443596.00749868,-808.6314377504571,2.381490499891125,72443596.00749868,179.8312593924419
74131024.13009141,-808.6272203019745,2.422162006676327,74131024.13009141,179.828376733142
75857757.50291803,-808.6231532136844,2.464024123530488,75857757.50291803,179.8254097160391
77624711.66286883,-808.6192310336104,2.507104462179432,77624711.66286883,179.8223563839665
79432823.4724278,-808.6154483738394,2.551430999824802,79432823.4724278,179.8192147538564
81283051.61640957,-808.6117999163266,2.597032105099437,81283051.61640957,179.8159828149007
83176377.11026673,-808.6082804178393,2.643936564145581,83176377.11026673,179.8126585267037
85113803.82023726,-808.6048847139418,2.692173606784237,85113803.82023726,179.8092398174268
87096358.99560767,-808.6016077223098,2.741772932751646,87096358.99560767,179.8057245819301
89125093.81337415,-808.5984444452205,2.792764737982515,89125093.81337415,179.8021106799088
91201083.93559055,-808.5953899713563,2.845179740925829,91201083.93559055,179.7983959340285
93325430.07969867,-808.5924394770464,2.899049208883933,93325430.07969867,179.7945781280575
95499258.60214314,-808.5895882267027,2.954404984367793,95499258.60214314,179.7906550049993
97723722.09558059,-808.5868315730115,3.011279511469492,97723722.09558059,179.7866242652223
99999999.99999951,-808.5841649562982,3.069705862250503,99999999.99999951,179.7824835645891
102329299.2280749,-808.581583903622,3.129717763153421,102329299.2280749,179.7782305125839
104712854.8050894,-808.5790840273584,3.191349621443402,104712854.8050894,179.7738626704375
107151930.5237601,-808.5766610234033,3.254636551690312,107151930.5237601,179.7693775492495
109647819.6143179,-808.5743106689748,3.319614402303527,109647819.6143179,179.7647726081063
112201845.4301958,-808.572028820125,3.386319782134596,112201845.4301958,179.7600452521948
114815362.1496877,-808.5698114088941,3.454790087163214,114815362.1496877,179.7551928309092
117489755.4939523,-808.5676544401952,3.525063527284644,117489755.4939523,179.7502126359515
120226443.4617407,-808.5655539885283,3.597179153218117,120226443.4617407,179.7451018994225
123026877.0812375,-808.5635061942309,3.67117688355423,123026877.0812375,179.7398577919028
125892541.179416,-808.561507259771,3.747097531965534,125892541.179416,179.7344774205229
128824955.1693127,-808.5595534456153,3.824982834599103,128824955.1693127,179.7289578270196
131825673.85564,-808.5576410660975,3.904875477676238,131825673.85564,179.7232959857775
134896288.2591646,-808.5557664849431,3.986819125320078,134896288.2591646,179.7174888018545
138038426.4602877,-808.5539261107847,4.070858447636793,138038426.4602877,179.711533108989
141253754.4622746,-808.5521163923347,4.157039149071974,141253754.4622746,179.7054256675875
144543977.0745919,-808.5503338136514,4.245407997069431,144543977.0745919,179.6991631626905
147910838.8168199,-808.5485748890585,4.336012851053625,147910838.8168199,179.6927422019155
