;Version, 1, 0
;ac_gain,;phase
;X, Y,;X, Y
;Re, Re,;Re, Re
;freq, V,;freq, V
;Hz, dB,;Hz, deg
1000000,18.85840500020222,1000000,179.747135391595
1023292.992280754,18.85831290794133,1023292.992280754,179.741277433004
1047128.5480509,18.858216500126,1047128.5480509,179.7352853059348
1071519.305237606,18.858115575735,1071519.305237606,179.7291560472648
1096478.196143185,18.8580099245001,1096478.196143185,179.7228866363127
1122018.454301963,18.85789932649145,1122018.454301963,179.7164739943015
1148153.621496883,18.85778355168592,1148153.621496883,179.7099149838653
1174897.554939529,18.85766235951795,1174897.554939529,179.7032064086034
1202264.434617413,18.85753549841058,1202264.434617413,179.6963450126877
1230268.770812381,18.85740270528753,1230268.770812381,179.6893274805281
1258925.411794167,18.85726370506528,1258925.411794167,179.6821504365026
1288249.551693134,18.8571182101248,1288249.551693134,179.6748104447585
1318256.738556407,18.85696591976125,1318256.738556407,179.6673040090896
1348962.882591653,18.85680651961159,1348962.882591653,179.6596275728994
1380384.264602884,18.85663968106005,1380384.264602884,179.6517775192558
1412537.544622754,18.8564650606198,1412537.544622754,179.6437501710469
1445439.770745927,18.85628229929013,1445439.770745927,179.6355417912454
1479108.388168207,18.85609102188957,1479108.388168207,179.6271485832929
1513561.248436208,18.85589083636292,1513561.248436208,179.6185666916124
1548816.618912481,18.85568133306245,1548816.618912481,179.60979220226
1584893.192461113,18.85546208400255,1584893.192461113,179.6008211437285
1621810.097358929,18.8552326420864,1621810.097358929,179.5916494879137
1659586.90743756,18.85499254030576,1659586.90743756,179.5822731512562
1698243.652461744,18.854741290911,1698243.652461744,179.5726879960737
1737800.828749375,18.85447838455365,1737800.828749375,179.5628898320976
1778279.410038922,18.854203289398,1778279.410038922,179.5528744182283
1819700.858609983,18.85391545020428,1819700.858609983,179.5426374645285
1862087.136662866,18.85361428738115,1862087.136662866,179.532174634468
1905460.717963246,18.85329919600776,1905460.717963246,179.5214815474424
1949844.599758044,18.85296954482564,1949844.599758044,179.5105537815811
1995262.314968878,18.85262467519984,1995262.314968878,179.4993868768692
2041737.944669528,18.85226390004988,2041737.944669528,179.4879763386012
2089296.130854038,18.85188650275069,2089296.130854038,179.4763176411918
2137962.089502231,18.8514917360025,2137962.089502231,179.4644062323673
2187761.623949551,18.85107882067344,2187761.623949551,179.4522375377612
2238721.138568338,18.8506469446117,2238721.138568338,179.4398069659435
2290867.652767771,18.85019526143056,2290867.652767771,179.4271099139083
2344228.81531992,18.84972288926743,2344228.81531992,179.4141417730511
2398832.919019489,18.84922890951699,2398832.919019489,179.4008979356648
2454708.915685028,18.84871236554111,2454708.915685028,179.3873738019866
2511886.431509578,18.84817226135705,2511886.431509578,179.3735647878286
2570395.782768862,18.84760756030708,2570395.782768862,179.3594663328266
2630267.99189538,18.84701718371044,2630267.99189538,179.3450739093424
2691534.803926914,18.84640000950285,2691534.803926914,179.3303830320556
2754228.703338164,18.84575487086531,2754228.703338164,179.3153892682846
2818382.931264451,18.84508055484762,2818382.931264451,179.3000882490735
2884031.503126603,18.84437580098944,2884031.503126603,179.2844756810869
2951209.226666383,18.84363929994559,2951209.226666383,179.2685473593513
3019951.720402013,18.84286969212,3019951.720402013,179.252299180887
3090295.432513587,18.84206556631566,3090295.432513587,179.2357271592701
3162277.660168376,18.84122545840575,3162277.660168376,179.2188274401686
3235936.569296279,18.84034785003631,3235936.569296279,179.2015963178952
3311311.214825907,18.8394311673659,3311311.214825907,179.1840302530178
3388441.561392021,18.83847377985411,3388441.561392021,179.1661258910707
3467368.504525312,18.8374739991073,3467368.504525312,179.1478800824079
3548133.89233575,18.8364300777941,3548133.89233575,179.1292899032367
3630780.547701009,18.8353402086409,3630780.547701009,179.1103526778712
3715352.29097172,18.83420252352323,3715352.29097172,179.0910660022411
3801893.963205607,18.83301509266385,3801893.963205607,179.0714277686884
3890451.449942801,18.83177592395612,3890451.449942801,179.0514361920823
3981071.705534967,18.83048296242651,3981071.705534967,179.0310898372775
4073802.778041122,18.82913408985602,4073802.778041122,179.0103876479364
4168693.834703348,18.82772712457735,4168693.834703348,178.9893289767296
4265795.18801592,18.8262598214704,4265795.18801592,178.9679136169237
4365158.322401653,18.82472987217465,4365158.322401653,178.9461418353555
4466835.921509624,18.82313490554402,4466835.921509624,178.9240144067851
4570881.896148743,18.821472488366,4570881.896148743,178.9015326496083
4677351.412871975,18.81974012637047,4677351.412871975,178.8786984628996
4786300.923226376,18.81793526555596,4786300.923226376,178.8555143647427
4897788.193684454,18.81605529385877,4897788.193684454,178.831983531792
5011872.336272715,18.81409754319467,5011872.336272715,178.8081098399946
5128613.83991364,18.81205929190221,5128613.83991364,178.7838979063827
5248074.602497717,18.80993776761707,5248074.602497717,178.759353131829
5370317.963702518,18.80773015060939,5370317.963702518,178.7344817446402
5495408.738576236,18.80543357761413,5495408.738576236,178.7092908448364
5623413.251903481,18.80304514618522,5623413.251903481,178.6837884489464
5754399.373371559,18.80056191960652,5754399.373371559,178.6579835351204
5888436.553555879,18.79798093238803,5888436.553555879,178.6318860883381
6025595.860743566,18.79529919637776,6025595.860743566,178.6055071454592
6165950.01861481,18.79251370751879,6165950.01861481,178.5788588398374
6309573.44480192,18.78962145327684,6309573.44480192,178.5519544451866
6456542.290346542,18.78661942076375,6456542.290346542,178.5248084183594
6606934.480075947,18.78350460557821,6606934.480075947,178.4974364406629
6760829.753919804,18.78027402138319,6760829.753919804,178.4698554573096
6918309.709189351,18.77692471023234,6918309.709189351,178.4420837145645
7079457.843841365,18.77345375365761,7079457.843841365,178.4141407941235
7244359.600749886,18.76985828452054,7244359.600749886,178.3860476442239
7413102.413009159,18.76613549962546,7413102.413009159,178.3578266069618
7585775.750291822,18.76228267308664,7585775.750291822,178.3295014412652
7762471.166286901,18.75829717043144,7762471.166286901,178.3010973409471
7943282.347242798,18.75417646341496,7943282.347242798,178.2726409472469
8128305.161640975,18.74991814551143,8128305.161640975,178.2441603552487
8317637.711026692,18.74551994803801,8317637.711026692,178.2156851135628
8511380.382023746,18.74097975685483,8511380.382023746,178.1872462166473
8709635.899560787,18.7362956295755,8709635.899560787,178.1588760891569
8912509.381337434,18.7314658132091,8912509.381337434,178.1306085617143
9120108.393559076,18.72648876214281,9120108.393559076,178.1024788375247
9332543.007969888,18.72136315636154,9332543.007969888,178.0745234492837
9549925.860214336,18.71608791978992,9549925.860214336,178.0467802058721
9772372.209558083,18.71066223862516,9772372.209558083,178.019288128383
9999999.999999976,18.70508557952401,9999999.999999976,177.9920873750947
10232929.92280752,18.69935770748786,10232929.92280752,177.9652191550778
10471285.48050897,18.69347870328483,10471285.48050897,177.9387256302147
10715193.05237604,18.68744898023525,10715193.05237604,177.9126498055141
10964781.96143182,18.68126930017892,10964781.96143182,177.8870354077126
11220184.54301961,18.67494078843684,11220184.54301961,177.8619267522831
11481536.2149688,18.66846494757372,11481536.2149688,177.8373685991043
11748975.54939527,18.66184366976654,11748975.54939527,177.8134059971871
12022644.3461741,18.65507924758484,12022644.3461741,177.7900841190077
12302687.70812378,18.64817438298904,12302687.70812378,177.7674480851505
12589254.11794164,18.64113219436105,12589254.11794164,177.7455427801251
12882495.5169313,18.63395622139055,12882495.5169313,177.7244126603794
13182567.38556403,18.62665042765041,13182567.38556403,177.7041015556899
13489628.8259165,18.61921920071309,13489628.8259165,177.6846524652584
13803842.64602881,18.61166734967685,13803842.64602881,177.6661073499913
14125375.4462275,18.60400009999349,14125375.4462275,177.648506922563
14454397.70745923,18.59622308551471,14454397.70745923,177.6318904369846
14791083.88168203,18.58834233770099,14791083.88168203,177.6162954794911
15135612.48436204,18.58036427196988,15135612.48436204,177.6017577626381
15488166.18912477,18.57229567118963,15488166.18912477,177.5883109245483
15848931.92461109,18.56414366636048,15848931.92461109,177.5759863352685
16218100.97358925,18.55591571456035,16218100.97358925,177.5648129121965
16595869.07437555,18.54761957426667,16595869.07437555,177.5548169464989
16982436.52461739,18.53926327820056,16982436.52461739,177.5460219423745
17378008.2874937,18.53085510387451,17378008.2874937,177.5384484709215
17782794.10038917,18.52240354205674,17782794.10038917,177.5321140402391
18197008.58609978,18.51391726339477,18197008.58609978,177.5270329832379
18620871.36662862,18.50540508346804,18620871.36662862,177.5232163644506
19054607.17963241,18.49687592656333,19054607.17963241,177.5206719069285
19498445.99758039,18.48833878848443,19498445.99758039,177.5194039400837
19952623.14968874,18.47980269872342,19952623.14968874,177.5194133690923
20417379.44669523,18.47127668233087,20417379.44669523,177.5206976662215
20892961.30854033,18.46276972182546,20892961.30854033,177.5232508841818
21379620.89502225,18.45429071948372,21379620.89502225,177.527063691341
21877616.23949546,18.44584846034593,21877616.23949546,177.5321234283786
22387211.38568332,18.43745157626101,22387211.38568332,177.5384141857062
22908676.52767766,18.42910851127884,22908676.52767766,177.5459169007394
23442288.15319914,18.42082748867867,23442288.15319914,177.5546094738868
23988329.19019482,18.41261647989722,23988329.19019482,177.5644669019188
24547089.15685022,18.4044831755924,24547089.15685022,177.5754614272022
25118864.31509572,18.39643495904837,25118864.31509572,177.587562701139
25703957.82768855,18.38847888209582,25703957.82768855,177.6007379600246
26302679.91895373,18.38062164368422,26302679.91895373,177.6149522114526
26915348.03926906,18.37286957121169,26915348.03926906,177.6301684293336
27542287.03338157,18.36522860468028,27542287.03338157,177.646347755565
28183829.31264444,18.35770428370821,28183829.31264444,177.6634497063935
28840315.03126596,18.3503017374031,28840315.03126596,177.681432381538
29512092.26666375,18.34302567705993,29512092.26666375,177.7002526741993
30199517.20402005,18.33588039162459,30199517.20402005,177.719866480161
30902954.32513579,18.32886974583241,30902954.32513579,177.7402289042876
31622776.60168367,18.32199718090846,31622776.60168367,177.7612944628452
32359365.6929627,18.31526571769372,32359365.6929627,177.7830172802021
33113112.14825898,18.30867796204491,33113112.14825898,177.8053512786133
33884415.61392012,18.3022361123383,33884415.61392012,177.8282503599439
34673685.04525303,18.29594196889916,34673685.04525303,177.8516685783467
35481338.92335741,18.28979694516729,35481338.92335741,177.875560303066
36307805.47701,18.28380208040747,36307805.47701,177.8998803707004
37153522.90971711,18.27795805376748,37153522.90971711,177.9245842264114
38018939.63205598,18.27226519948967,38018939.63205598,177.9496280537149
38904514.49942791,18.26672352308485,38904514.49942791,177.9749688926334
39810717.05534957,18.26133271828079,39810717.05534957,178.0005647461194
40738027.78041112,18.25609218456649,40738027.78041112,178.0263746747838
41686938.34703338,18.25100104516087,41686938.34703338,178.0523588800726
42657951.8801591,18.24605816524597,42657951.8801591,178.0784787761347
43651583.22401643,18.24126217031345,43651583.22401643,178.1046970507102
44668359.21509614,18.23661146448818,44668359.21509614,178.1309777154439
45708818.96148732,18.2321042487016,45708818.96148732,178.1572861460897
46773514.12871964,18.2277385386033,46773514.12871964,178.1835891131236
47863009.23226365,18.22351218210904,47863009.23226365,178.2098548033235
48977881.93684442,18.21942287649814,48977881.93684442,178.2360528329002
50118723.36272702,18.21546818498418,50118723.36272702,178.2621542527874
51286138.39913628,18.21164555269477,51286138.39913628,178.2881315467067
52480746.02497704,18.20795232200838,52480746.02497704,178.3139586226276
53703179.63702505,18.20438574720468,53703179.63702505,178.3396107982369
54954087.38576223,18.20094300839724,54954087.38576223,178.3650647810246
56234132.51903468,18.19762122472543,56234132.51903468,178.3902986435727
57543993.73371545,18.19441746678926,57543993.73371545,178.4152917946187
58884365.53555865,18.19132876832152,58884365.53555865,178.4400249464382
60255958.60743552,18.18835213709599,60255958.60743552,178.4644800790649
61659500.18614795,18.18548456507766,61659500.18614795,178.4886404018404
63095734.44801905,18.18272303782497,63095734.44801905,178.5124903127502
64565422.90346527,18.18006454316037,64565422.90346527,178.5360153559784
66069344.80075931,18.17750607912817,66069344.80075931,178.5592021780748
67608297.53919788,18.17504466126157,67608297.53919788,178.5820384831013
69183097.09189335,18.17267732918514,69183097.09189335,178.604512987091
70794578.43841347,18.17040115257902,70794578.43841347,178.6266153721214
72443596.00749868,18.16821323653374,72443596.00749868,178.6483362402771
74131024.13009141,18.16611072632649,74131024.13009141,178.6696670677443
75857757.50291803,18.16409081164834,75857757.50291803,178.690600159254
77624711.66286883,18.16215073031438,77624711.66286883,178.7111286030663
79432823.4724278,18.16028777148774,79432823.4724278,178.7312462266599
81283051.61640957,18.15849927844803,81283051.61640957,178.7509475532715
83176377.11026673,18.15678265093568,83176377.11026673,178.7702277594073
85113803.82023726,18.1551353471011,85113803.82023726,178.7890826334271
87096358.99560767,18.15355488508819,87096358.99560767,178.8075085352875
89125093.81337415,18.15203884428066,89125093.81337415,178.8255023575103
91201083.93559055,18.15058486623773,91201083.93559055,178.8430614874281
93325430.07969867,18.14919065534569,93325430.07969867,178.8601837707477
95499258.60214314,18.14785397920992,95499258.60214314,178.8768674764554
97723722.09558059,18.14657266881093,97723722.09558059,178.8931112630825
99999999.99999951,18.14534461844704,99999999.99999951,178.9089141463338
102329299.2280749,18.14416778548469,102329299.2280749,178.9242754680794
104712854.8050894,18.14304018993599,104712854.8050894,178.9391948666965
107151930.5237601,18.1419599138823,107151930.5237601,178.9536722487475
109647819.6143179,18.1409251007616,109647819.6143179,178.9677077619693
112201845.4301958,18.1399339545351,112201845.4301958,178.9813017695482
114815362.1496877,18.13898473874868,114815362.1496877,178.9944548256494
117489755.4939523,18.13807577550279,117489755.4939523,179.0071676521652
120226443.4617407,18.13720544434423,120226443.4617407,179.0194411166464
123026877.0812375,18.13637218109067,123026877.0812375,179.0312762113775
125892541.179416,18.13557447659982,125892541.179416,179.0426740335529
128824955.1693127,18.13481087549257,128824955.1693127,179.0536357665151
131825673.85564,18.13407997483919,131825673.85564,179.0641626620098
134896288.2591646,18.13338042281733,134896288.2591646,179.074256023416
138038426.4602877,18.13271091734869,138038426.4602877,179.0839171899067
141253754.4622746,18.13207020472169,141253754.4622746,179.093147521499
144543977.0745919,18.13145707820579,144543977.0745919,179.1019483849482
147910838.8168199,18.13087037666304,147910838.8168199,179.1103211404455
151356124.8436199,18.13030898316222,151356124.8436199,179.1182671290784
154881661.8912472,18.12977182359852,154881661.8912472,179.1257876610112
158489319.2461104,18.12925786532485,158489319.2461104,179.1328840043475
162181009.7358921,18.128766115796,162181009.7358921,179.1395573746357
165958690.7437551,18.1282956212295,165958690.7437551,179.145808924981
169824365.2461734,18.12784546528584,169824365.2461734,179.1516397367259
173780082.8749365,18.12741476777042,173780082.8749365,179.1570508106662
177827941.0038912,18.12700268335821,177827941.0038912,179.1620430587682
181970085.8609973,18.12660840034352,181970085.8609973,179.1666172963539
186208713.6662856,18.12623113941602,186208713.6662856,179.1707742347247
190546071.7963236,18.12587015246396,190546071.7963236,179.1745144741927
194984459.9758033,18.12552472140509,194984459.9758033,179.1778384974907
199526231.4968867,18.12519415704644,199526231.4968867,179.1807466635357
204173794.4669517,18.12487779797377,204173794.4669517,179.1832392015166
208929613.0854026,18.12457500946924,208929613.0854026,179.1853162052849
213796208.9502219,18.12428518245981,213796208.9502219,179.1869776280216
218776162.3949539,18.12400773249411,218776162.3949539,179.1882232771589
223872113.8568325,18.12374209874969,223872113.8568325,179.1890528095369
229086765.2767758,18.1234877430687,229086765.2767758,179.1894657267709
234422881.5319907,18.12324414902315,234422881.5319907,179.1894613708145
239883291.9019475,18.12301082100812,239883291.9019475,179.1890389196962
245470891.5685014,18.12278728336322,245470891.5685014,179.1881973834149
251188643.1509564,18.12257307952195,251188643.1509564,179.1869355999752
257039578.2768847,18.12236777118768,257039578.2768847,179.1852522315491
263026799.1895365,18.12217093753581,263026799.1895365,179.1831457607471
269153480.3926898,18.12198217444261,269153480.3926898,179.1806144869862
275422870.3338148,18.12180109373774,275422870.3338148,179.1776565229396
281838293.1264435,18.12162732248266,281838293.1264435,179.1742697910575
288403150.3126587,18.12146050227108,288403150.3126587,179.1704520201446
295120922.6666366,18.12130028855392,295120922.6666366,179.1662007419846
301995172.0401996,18.12114634998469,301995172.0401996,179.1615132880001
309029543.251357,18.12099836778794,309029543.251357,179.1563867859371
316227766.0168358,18.12085603514698,316227766.0168358,179.1508181565656
323593656.9296261,18.12071905661215,323593656.9296261,179.1448041103854
331131121.4825889,18.12058714752771,331131121.4825889,179.1383411443292
338844156.1392003,18.12046003347724,338844156.1392003,179.1314255384546
346736850.4525293,18.12033744974645,346736850.4525293,179.1240533526168
354813389.2335731,18.12021914080262,354813389.2335731,179.1162204231131
363078054.7700989,18.12010485979015,363078054.7700989,179.1079223592948
371535229.0971701,18.11999436804101,371535229.0971701,179.0991545401365
380189396.3205587,18.11988743459992,380189396.3205587,179.0899121107575
389045144.994278,18.11978383576279,389045144.994278,179.0801899788897
398107170.5534946,18.11968335462866,398107170.5534946,179.0699828112838
407380277.80411,18.11958578066309,407380277.80411,179.0592850300497
416869383.4703326,18.11949090927356,416869383.4703326,179.048090808925
426579518.8015897,18.11939854139561,426579518.8015897,179.0363940694658
436515832.240163,18.11930848308851,436515832.240163,179.0241884771544
446683592.15096,18.11922054514075,446683592.15096,179.0114674374201
457088189.6148719,18.11913454268367,457088189.6148719,178.9982240915661
467735141.2871949,18.11905029481393,467735141.2871949,178.9844513126001
478630092.322635,18.1189676242216,478630092.322635,178.9701417009618
489778819.3684428,18.11888635682687,489778819.3684428,178.9552875801444
501187233.6272688,18.11880632142038,501187233.6272688,178.9398809922047
512861383.9913613,18.1187273493109,512861383.9913613,178.9239136931585
524807460.2497689,18.11864927397586,524807460.2497689,178.9073771482555
537031796.3702489,18.11857193071732,537031796.3702489,178.8902625271317
549540873.8576206,18.11849515631905,549540873.8576206,178.8725606988332
562341325.190345,18.11841878870857,562341325.190345,178.8542622267092
575439937.3371528,18.11834266661935,575439937.3371528,178.8353573631683
588843655.3555847,18.11826662925477,588843655.3555847,178.8158360442969
