;Version, 1, 0
;dc (VCTRL=0.02),;dc (VCTRL=0.04),;dc (VCTRL=0.06),;dc (VCTRL=0.08),;dc (VCTRL=0.1),;dc (VCTRL=0.12),;dc (VCTRL=0.14),;dc (VCTRL=0.16),;dc (VCTRL=0.18),;dc (VCTRL=0.2),;dc (VCTRL=0.22),;dc (VCTRL=0.24),;dc (VCTRL=0.26),;dc (VCTRL=0.28),;dc (VCTRL=0.3)
;X, Y,;X, Y,;X, Y,;X, Y,;X, Y,;X, Y,;X, Y,;X, Y,;X, Y,;X, Y,;X, Y,;X, Y,;X, Y,;X, Y,;X, Y
;Re, Re,;Re, Re,;Re, Re,;Re, Re,;Re, Re,;Re, Re,;Re, Re,;Re, Re,;Re, Re,;Re, Re,;Re, Re,;Re, Re,;Re, Re,;Re, Re,;Re, Re
;vin, V,;vin, V,;vin, V,;vin, V,;vin, V,;vin, V,;vin, V,;vin, V,;vin, V,;vin, V,;vin, V,;vin, V,;vin, V,;vin, V,;vin, V
;xunit, V,;xunit, V,;xunit, V,;xunit, V,;xunit, V,;xunit, V,;xunit, V,;xunit, V,;xunit, V,;xunit, V,;xunit, V,;xunit, V,;xunit, V,;xunit, V,;xunit, V
-0.4,-0.2012876034784813,-0.4,-0.3990150858257336,-0.4,-0.5891648268603519,-0.4,-0.7670038937670475,-0.4,-0.9268738073149542,-0.4,-1.062502051179479,-0.4,-1.169278890800762,-0.4,-1.248026477890327,-0.4,-1.306686945907814,-0.4,-1.352329417676474,-0.4,-1.388618314476984,-0.4,-1.417397812012043,-0.4,-1.439934866920839,-0.4,-1.457274867755888,-0.4,-1.470349079395218
-0.399,-0.2012731427522279,-0.399,-0.3989865890419763,-0.399,-0.5891240861999522,-0.399,-0.7669546621496096,-0.399,-0.9268261568514355,-0.399,-1.062474639469539,-0.399,-1.169288555712399,-0.399,-1.248064467653771,-0.399,-1.306723053938924,-0.399,-1.352342279335281,-0.399,-1.388595956447622,-0.399,-1.417344280142094,-0.399,-1.439848733705837,-0.399,-1.457159656813447,-0.399,-1.470210045691976
-0.398,-0.2012584865810884,-0.398,-0.3989579025302962,-0.398,-0.5890827644530252,-0.398,-0.7669046723897751,-0.398,-0.926777650534145,-0.398,-1.062446399321998,-0.398,-1.169297668643399,-0.398,-1.248102168826432,-0.398,-1.306759450283519,-0.398,-1.352354730472505,-0.398,-1.388575884906617,-0.398,-1.417289602815797,-0.398,-1.439761081164395,-0.398,-1.45704280342996,-0.398,-1.47006889528719
-0.397,-0.2012436332020454,-0.397,-0.3989288236085622,-0.397,-0.5890408556288207,-0.397,-0.7668539126020798,-0.397,-0.9267282442262733,-0.397,-1.062417275646086,-0.397,-1.169306142263216,-0.397,-1.248139548603188,-0.397,-1.306795634991163,-0.397,-1.352366742139967,-0.397,-1.388555021771812,-0.397,-1.417233747847596,-0.397,-1.439671880278128,-0.397,-1.456924074343638,-0.397,-1.469925600595558
-0.396,-0.2012285808377512,-0.396,-0.398899348630596,-0.396,-0.5889983538261904,-0.396,-0.7668023737994115,-0.396,-0.9266779243871598,-0.396,-1.062387248747737,-0.396,-1.169313951735862,-0.396,-1.248176581167554,-0.396,-1.306831586815858,-0.396,-1.352378293470214,-0.396,-1.38853334520169,-0.396,-1.417176692022577,-0.396,-1.439581106494794,-0.396,-1.456803443918949,-0.396,-1.469780135273731
-0.395,-0.2012133277108542,-0.395,-0.3988694739493132,-0.395,-0.5889552531357359,-0.395,-0.7667500469618863,-0.395,-0.9266266773816789,-0.395,-1.062356298702855,-0.395,-1.169321071796879,-0.395,-1.248213240077523,-0.395,-1.306867283990535,-0.395,-1.352389363133393,-0.395,-1.388510832944062,-0.395,-1.417118411766424,-0.395,-1.439488734953773,-0.395,-1.456680886261524,-0.395,-1.469632472766541
-0.394,-0.2011978720442422,-0.394,-0.3988391959173043,-0.394,-0.5889115476408521,-0.394,-0.7666969230385235,-0.394,-0.9265744894828252,-0.394,-1.062324405360416,-0.394,-1.169327476754807,-0.394,-1.24824949826,-0.394,-1.306902704222841,-0.394,-1.352399929333667,-0.394,-1.388487462333112,-0.394,-1.417058883143266,-0.394,-1.43939474048478,-0.394,-1.456556375217764,-0.394,-1.469482586307451
-0.393,-0.2011822120612944,-0.393,-0.3988085108874257,-0.393,-0.5888672314187727,-0.393,-0.7666429929489461,-0.393,-0.9265213468743928,-0.393,-1.062291548345753,-0.393,-1.169333140492943,-0.393,-1.248285328005361,-0.393,-1.30693782469109,-0.393,-1.352409969805746,-0.393,-1.388463210286573,-0.393,-1.41699808185362,-0.393,-1.439299097606673,-0.393,-1.456429884374529,-0.393,-1.469330448919095
-0.392,-0.2011663459861209,-0.392,-0.3987774152133744,-0.392,-0.5888222985416403,-0.392,-0.7665882475851191,-0.392,-0.9264672356537301,-0.392,-1.062257707064009,-0.392,-1.169338036471361,-0.392,-1.248320700962142,-0.392,-1.306972622040342,-0.392,-1.35241946181155,-0.392,-1.388438053303002,-0.392,-1.416935983232436,-0.392,-1.43920178052635,-0.392,-1.456301387058916,-0.392,-1.469176033413906
-0.391,-0.2011502720438129,-0.391,-0.3987459052502824,-0.391,-0.5887767430775704,-0.391,-0.7665326778131194,-0.391,-0.9264121418345838,-0.391,-1.062222860703773,-0.391,-1.1693421377292,-0.391,-1.248355588131847,-0.391,-1.307007072378641,-0.391,-1.352428382136991,-0.391,-1.388411967459179,-0.391,-1.41687256224724,-0.391,-1.439102763137742,-0.391,-1.456170856338147,-0.391,-1.469019312394833
-0.39,-0.201133988460684,-0.39,-0.3987139773552971,-0.39,-0.5887305590917442,-0.39,-0.7664762744749356,-0.39,-0.9263560513500191,-0.39,-1.062186988240895,-0.39,-1.169345416887238,-0.39,-1.248389959863883,-0.39,-1.307041151273377,-0.39,-1.352436707088894,-0.39,-1.38838492840762,-0.39,-1.416807793496389,-0.39,-1.439002019020914,-0.39,-1.456038265019531,-0.39,-1.468860258256164
-0.389,-0.201117493464512,-0.389,-0.3986816278881767,-0.389,-0.5886837406474908,-0.389,-0.7664190283903035,-0.389,-0.9262989500554236,-0.389,-1.062150068442483,-0.389,-1.169347846150736,-0.389,-1.24842378585063,-0.389,-1.307074833747805,-0.389,-1.352444412492045,-0.389,-1.38835691137421,-0.389,-1.416741651207439,-0.389,-1.438899521441263,-0.389,-1.455903585650556,-0.389,-1.468698843184438
-0.388,-0.2011007852847801,-0.388,-0.3986488532118662,-0.388,-0.5886362818073961,-0.388,-0.7663609296215325,-0.388,-0.9262408237315914,-0.388,-1.06211207987107,-0.388,-1.16934939731257,-0.388,-1.24845703512264,-0.388,-1.307108094277715,-0.388,-1.352451473686385,-0.388,-1.388327891155959,-0.388,-1.41667410923562,-0.388,-1.438795243348831,-0.388,-1.455766790519064,-0.388,-1.468535039159469
-0.387,-0.2010838621529166,-0.387,-0.3986156496930988,-0.387,-0.5885881766344137,-0.387,-0.7663019708905144,-0.387,-0.9261816580878814,-0.387,-1.062073000888962,-0.387,-1.16935004175664,-0.387,-1.24848967604397,-0.387,-1.307140906788245,-0.387,-1.352457865524335,-0.387,-1.388297842118898,-0.387,-1.416605141062439,-0.387,-1.438689157377729,-0.387,-1.455627851653553,-0.387,-1.468368817955476
-0.386,-0.2010667223025282,-0.386,-0.3985820137029724,-0.386,-0.5885394191929794,-0.386,-0.7662421436499187,-0.386,-0.9261214387654583,-0.386,-1.062032809662769,-0.386,-1.169349750461569,-0.386,-1.248521676307651,-0.386,-1.307173244650861,-0.386,-1.352463562368278,-0.386,-1.38826673819609,-0.386,-1.416534719794401,-0.386,-1.438581235845677,-0.386,-1.455486740823581,-0.386,-1.46820015114232
-0.385,-0.2010493639696389,-0.385,-0.3985479416175439,-0.385,-0.5884900035501444,-0.385,-0.7661814386154115,-0.385,-0.9260601513406007,-0.385,-1.061991484168104,-0.385,-1.16934849400468,-0.385,-1.248553002931295,-0.385,-1.307205080680488,-0.385,-1.352468538088177,-0.385,-1.388234552885793,-0.385,-1.416462818161858,-0.385,-1.438471450753668,-0.385,-1.455343429540303,-0.385,-1.468029010086863
-0.384,-0.2010317853929183,-0.384,-0.398513429818411,-0.384,-0.5884399237767037,-0.384,-0.7661198464882962,-0.384,-0.9259977813280925,-0.384,-1.061949002194455,-0.384,-1.169346242566274,-0.384,-1.248583622252841,-0.384,-1.307236387132805,-0.384,-1.352472766059357,-0.384,-1.388201259249754,-0.384,-1.41638940851799,-0.384,-1.438359773785759,-0.384,-1.455197889057114,-0.384,-1.467855365954441
-0.383,-0.2010139848139154,-0.383,-0.3984784746933019,-0.383,-0.5883891739483446,-0.383,-0.766057357957555,-0.383,-0.9259343141846823,-0.383,-1.061905341350245,-0.383,-1.169342965934183,-0.383,-1.248613499926437,-0.383,-1.307267135701704,-0.383,-1.352476219160427,-0.383,-1.388166829911648,-0.383,-1.416314462837921,-0.383,-1.438246176308983,-0.383,-1.455050090370437,-0.383,-1.467679189710462
-0.382,-0.2009959604772842,-0.382,-0.3984430726366543,-0.382,-0.5883377481467901,-0.382,-0.7659939637019323,-0.382,-0.925869735312613,-0.382,-1.061860479068045,-0.382,-1.169338633508625,-0.382,-1.248642600918471,-0.382,-1.30729729751692,-0.382,-1.352478869771377,-0.382,-1.388131237055668,-0.382,-1.416237952717971,-0.382,-1.438130629373413,-0.382,-1.454900004220628,-0.382,-1.467500452122137
-0.381,-0.2009777106310108,-0.381,-0.398407220050202,-0.381,-0.5882856404609603,-0.381,-0.7659296543920385,-0.381,-0.9258040300632222,-0.381,-1.061814392609975,-0.381,-1.169333214307345,-0.381,-1.248670889503734,-0.381,-1.307326843141818,-0.381,-1.352480689771822,-0.381,-1.388094452425265,-0.381,-1.416159849375061,-0.381,-1.438013103712343,-0.381,-1.454747601093025,-0.381,-1.467319123760328
-0.38,-0.2009592335266328,-0.38,-0.3983709133435547,-0.38,-0.5882328449881223,-0.38,-0.7658644206924832,-0.38,-0.925737183740609,-0.38,-1.061767059073264,-0.38,-1.169326676971045,-0.38,-1.248698329261732,-0.38,-1.307355742571376,-0.38,-1.352481650539425,-0.38,-1.388056447322043,-0.38,-1.416080123646255,-0.38,-1.437893569742633,-0.38,-1.45459285121914,-0.38,-1.467135175001547
-0.379,-0.2009405274194609,-0.379,-0.3983341489347759,-0.379,-0.5881793558350705,-0.379,-0.7657982532640407,-0.379,-0.9256691816053709,-0.379,-1.061718455395982,-0.379,-1.169318989769119,-0.379,-1.248724883073089,-0.379,-1.30738396523032,-0.379,-1.352481722948473,-0.379,-1.388017192604809,-0.379,-1.415998745988459,-0.379,-1.437771997565185,-0.379,-1.454435724577981,-0.379,-1.466948576030083
-0.378,-0.200921590568795,-0.378,-0.3982969232509586,-0.378,-0.5881251671192856,-0.378,-0.7657311427658346,-0.378,-0.9256000088783954,-0.378,-1.06166855836294,-0.378,-1.16931012060566,-0.378,-1.248750513115437,-0.378,-1.30741147997145,-0.378,-1.352480877368642,-0.378,-1.3879766586888,-0.378,-1.415915686478281,-0.378,-1.437648356965584,-0.378,-1.454276190897547,-0.378,-1.46675929684028
-0.377,-0.2009024212381352,-0.377,-0.3982592327287976,-0.377,-0.5880702729701142,-0.377,-0.7656630798575448,-0.377,-0.9255296507447257,-0.377,-1.061617344611747,-0.377,-1.169300037025784,-0.377,-1.248778747206823,-0.377,-1.307438255074148,-0.377,-1.352479083663924,-0.377,-1.387934815545059,-0.377,-1.415830914812047,-0.377,-1.437522617414888,-0.377,-1.454114219656457,-0.377,-1.466567307238953
-0.376,-0.2008830176953974,-0.376,-0.398221073815163,-0.376,-0.5880146675299519,-0.376,-0.7655940552016516,-0.376,-0.9254580923574781,-0.376,-1.061564790639035,-0.376,-1.169288706222228,-0.376,-1.248809230110938,-0.376,-1.307464258243062,-0.376,-1.352476311191739,-0.376,-1.3878916327,-0.376,-1.415744400305979,-0.376,-1.437394748070585,-0.376,-1.45394978008574,-0.376,-1.46637257684797
-0.375,-0.2008633782131113,-0.375,-0.3981824429676655,-0.375,-0.5879583449554163,-0.375,-0.7655240594656877,-0.375,-0.9253853188418165,-0.375,-1.061510872806843,-0.375,-1.169276095042251,-0.375,-1.248838735157447,-0.375,-1.307489456606982,-0.375,-1.352472528802232,-0.375,-1.387847079235134,-0.375,-1.415656111896553,-0.375,-1.437264717777711,-0.375,-1.453782841170805,-0.375,-1.466175075106972
-0.374,-0.2008435010686289,-0.374,-0.3981433366552184,-0.374,-0.5879012994185389,-0.374,-0.7654530833245206,-0.374,-0.9253113152989917,-0.374,-1.061455567349156,-0.374,-1.169262169994824,-0.374,-1.248867223859744,-0.374,-1.307513816717905,-0.374,-1.352467704837745,-0.374,-1.387801123786983,-0.374,-1.415566018141024,-0.374,-1.437132495070145,-0.374,-1.453613371653556,-0.374,-1.46597477127627
-0.373,-0.2008233845443237,-0.373,-0.3981037513585952,-0.373,-0.5878435251079518,-0.373,-0.7653811174626515,-0.373,-0.9252360668104269,-0.373,-1.061398850378597,-0.373,-1.16924689725811,-0.373,-1.248894657169093,-0.373,-1.30753730455029,-0.373,-1.352461807132493,-0.373,-1.387753734547178,-0.373,-1.415474087218131,-0.373,-1.436998048172077,-0.373,-1.453441340034698,-0.373,-1.465771634439889
-0.372,-0.2008030269277812,-0.372,-0.3980636835709903,-0.372,-0.5877850162300734,-0.372,-0.7653081525765373,-0.372,-0.9251595584418554,-0.372,-1.061340697893279,-0.372,-1.169230242687235,-0.372,-1.248920995475157,-0.372,-1.307559885500508,-0.372,-1.352454803012422,-0.372,-1.387704879262737,-0.372,-1.415380286928992,-0.372,-1.436861344999651,-0.372,-1.453266714576203,-0.372,-1.465565633508796
-0.371,-0.2007824265119914,-0.371,-0.3980231297985656,-0.371,-0.5877257670103002,-0.371,-0.7652341793769261,-0.371,-0.9250817752475133,-0.371,-1.061281085783795,-0.371,-1.169212171822353,-0.371,-1.248946198610875,-0.371,-1.307581524386487,-0.371,-1.352446659295263,-0.371,-1.387654525236546,-0.371,-1.415284584698175,-0.371,-1.436722353162811,-0.371,-1.453089463303981,-0.371,-1.465356737224294
-0.37,-0.2007615815955365,-0.37,-0.3979820865609938,-0.37,-0.5876657716941979,-0.37,-0.7651591885912141,-0.37,-0.9250027022743722,-0.37,-1.061219989840362,-0.37,-1.169192649896992,-0.37,-1.248970225857704,-0.37,-1.30760218544756,-0.37,-1.352437342290796,-0.37,-1.387602639328023,-0.37,-1.415186947574975,-0.37,-1.436581039967315,-0.37,-1.452909554010709,-0.37,-1.465144914161584
-0.369,-0.2007404904827732,-0.369,-0.397940550392001,-0.369,-0.5876050245486897,-0.369,-0.7650831709658156,-0.369,-0.9249223245664242,-0.369,-1.061157385760109,-0.369,-1.169171641846694,-0.369,-1.248993035951241,-0.369,-1.307621832344513,-0.369,-1.352426817801301,-0.369,-1.387549187953998,-0.369,-1.41508734223488,-0.369,-1.436437372416959,-0.369,-1.452726954258879,-0.369,-1.464930132733522
-0.368,-0.200719151484005,-0.368,-0.3978985178399027,-0.368,-0.587543519863249,-0.368,-0.7650061172685451,-0.368,-0.9248406271690055,-0.368,-1.061093249154495,-0.368,-1.169149112317931,-0.368,-1.249014587087216,-0.368,-1.307640428159837,-0.368,-1.352415051122233,-0.368,-1.387494137089781,-0.368,-1.414985734981246,-0.368,-1.436291317216001,-0.368,-1.452541631384025,-0.368,-1.464712361194554
-0.367,-0.2006975629156594,-0.367,-0.3978559854681266,-0.367,-0.5874812519510847,-0.367,-0.7649280182910247,-0.367,-0.9247575951331589,-0.367,-1.061027555556876,-0.367,-1.169125025677312,-0.367,-1.249034836927872,-0.367,-1.307657935398189,-0.367,-1.352402007043092,-0.367,-1.387437452270448,-0.367,-1.41488209174717,-0.367,-1.436142840771783,-0.367,-1.452353552498154,-0.367,-1.464491567644837
-0.366,-0.2006757231004525,-0.366,-0.3978129498557387,-0.366,-0.5874182151503295,-0.366,-0.7648488648510856,-0.366,-0.9246732135200398,-0.366,-1.060960280430197,-0.366,-1.169099346021071,-0.366,-1.249053742608722,-0.366,-1.307674315987059,-0.366,-1.352387649848516,-0.366,-1.387379098592344,-0.366,-1.414776378097586,-0.366,-1.435991909197566,-0.366,-1.452162684493392,-0.366,-1.464267720034558
-0.365,-0.2006536303675499,-0.365,-0.3977694075979593,-0.365,-0.5873544038252263,-0.365,-0.7647686477951912,-0.365,-0.9245874674053541,-0.365,-1.060891399174817,-0.365,-1.169072037184824,-0.365,-1.2490712607457,-0.365,-1.307689531277657,-0.365,-1.352371943319586,-0.365,-1.38731904071479,-0.365,-1.414668559231568,-0.365,-1.435838488315587,-0.365,-1.451968994045824,-0.365,-1.464040786168452
-0.364,-0.2006312830527459,-0.364,-0.3977253553066648,-0.364,-0.5872898123673013,-0.364,-0.7646873580008732,-0.364,-0.9245003418838275,-0.364,-1.060820887136456,-0.364,-1.169043062753613,-0.364,-1.249087347442695,-0.364,-1.307703542046005,-0.364,-1.352354850735353,-0.364,-1.387257242862022,-0.364,-1.414558599984864,-0.364,-1.435682543660325,-0.364,-1.451772447619567,-0.364,-1.463810733710512
-0.363,-0.2006086794986878,-0.363,-0.3976807896108937,-0.363,-0.587224435196554,-0.363,-0.7646049863791646,-0.363,-0.9244118220737136,-0.363,-1.06074871961427,-0.363,-1.169012386072222,-0.363,-1.249101958299484,-0.363,-1.307716308494253,-0.363,-1.352336334874592,-0.363,-1.387193668825356,-0.363,-1.414446464832642,-0.363,-1.435524040481999,-0.363,-1.451573011471053,-0.363,-1.463577530188919
-0.362,-0.2005858180546821,-0.362,-0.3976357071573372,-0.362,-0.5871582667626183,-0.362,-0.7645215238770464,-0.362,-0.9243218931213167,-0.362,-1.060674871869035,-0.362,-1.168979970255753,-0.362,-1.249115048420059,-0.362,-1.307727790252215,-0.362,-1.352316358017781,-0.362,-1.387128281965573,-0.362,-1.414332117892488,-0.362,-1.435362943750299,-0.362,-1.451370651653538,-0.362,-1.463341143001164
-0.361,-0.200562697077205,-0.361,-0.3975901046108227,-0.361,-0.5870913015459356,-0.361,-0.7644369614798996,-0.361,-0.9242305402055601,-0.361,-1.060599319131456,-0.361,-1.168945778200485,-0.361,-1.249126572421353,-0.361,-1.307737946379121,-0.361,-1.352294881949306,-0.361,-1.387061045215552,-0.361,-1.414215522927617,-0.361,-1.435199218158341,-0.361,-1.451165334021844,-0.361,-1.463101539419405
-0.36,-0.200539314929907,-0.36,-0.3975439786547894,-0.36,-0.5870235340589156,-0.36,-0.7643512902139593,-0.36,-0.9241377485425554,-0.36,-1.060522036610572,-0.36,-1.168909772594988,-0.36,-1.249136484442368,-0.36,-1.307746735365604,-0.36,-1.352271867959911,-0.36,-1.386991921083132,-0.36,-1.414096643350342,-0.36,-1.435032828126876,-0.36,-1.450957024237333,-0.36,-1.46285868659602
-0.359,-0.2005156699837392,-0.359,-0.3974973259917524,-0.359,-0.5869549588470954,-0.359,-0.7642645011487706,-0.359,-0.9240435033902119,-0.359,-1.060442999502278,-0.359,-1.168871915931501,-0.359,-1.249144738153703,-0.359,-1.307754115135905,-0.359,-1.35224727684938,-0.359,-1.386920871654219,-0.359,-1.413975442225783,-0.359,-1.434863737808732,-0.359,-1.45074568777312,-0.359,-1.462612551569401
-0.358,-0.2004917606170699,-0.358,-0.3974501433437625,-0.358,-0.5868855704902808,-0.358,-0.7641765853996471,-0.358,-0.9239477900528508,-0.358,-1.060362182997939,-0.358,-1.168832170517564,-0.358,-1.249151286767494,-0.358,-1.307760043050313,-0.358,-1.35222106892946,-0.358,-1.386847858596143,-0.358,-1.413851882275823,-0.358,-1.434691911093517,-0.358,-1.450531289919532,-0.358,-1.462363101269957
-0.357,-0.2004675852158001,-0.357,-0.3974024274528484,-0.357,-0.5868153636036915,-0.357,-0.7640875341301292,-0.357,-0.9238505938858473,-0.357,-1.060279562293104,-0.357,-1.16879049848791,-0.357,-1.249156083047754,-0.357,-1.307764475907842,-0.357,-1.352193204027036,-0.357,-1.386772843161267,-0.357,-1.413725925883323,-0.357,-1.434517311612566,-0.357,-1.450313795789814,-0.357,-1.462110302526363
-0.356,-0.2004431421734644,-0.356,-0.397354175081454,-0.356,-0.5867443328390912,-0.356,-0.7639973385544397,-0.356,-0.9237519003002719,-0.356,-1.060195112596307,-0.356,-1.168746861816602,-0.356,-1.249159079321123,-0.356,-1.307767369949131,-0.356,-1.352163641487542,-0.356,-1.386695786190848,-0.356,-1.413597535096597,-0.356,-1.434339902744156,-0.356,-1.450093170326087,-0.356,-1.461854122072028
-0.355,-0.2004184298913312,-0.355,-0.3973053830128606,-0.355,-0.5866724728859097,-0.355,-0.7639059899399349,-0.355,-0.9236516947675569,-0.355,-1.060108809137959,-0.355,-1.168701222329418,-0.355,-1.249160227488035,-0.355,-1.307768680859596,-0.355,-1.352132340178644,-0.355,-1.386616648119162,-0.355,-1.413466671634152,-0.355,-1.434159647618985,-0.355,-1.44986937830557,-0.355,-1.461594526551813
-0.354,-0.2003934467784896,-0.354,-0.3972560480516032,-0.354,-0.5865997784723552,-0.354,-0.7638134796095546,-0.354,-0.9235499628241639,-0.354,-1.060020627179316,-0.354,-1.168653541716474,-0.354,-1.249159479034281,-0.354,-1.307768363772813,-0.354,-1.352099258494157,-0.354,-1.386535388977893,-0.354,-1.413333296889695,-0.354,-1.433976509125915,-0.354,-1.449642384347051,-0.354,-1.461331482528981
-0.353,-0.2003681912519326,-0.353,-0.397206167023866,-0.353,-0.5865262443665129,-0.353,-0.7637197989442597,-0.353,-0.9234466900762524,-0.353,-1.05993054202152,-0.353,-1.168603781545093,-0.353,-1.249156785042995,-0.353,-1.307766373274149,-0.353,-1.352064354358242,-0.353,-1.38645196840079,-0.353,-1.413197371937418,-0.353,-1.433790449917996,-0.353,-1.44941215291764,-0.353,-1.4610649564924
-0.352,-0.2003426617366302,-0.352,-0.3971557367778739,-0.352,-0.5864518653774358,-0.352,-0.7636249393854696,-0.352,-0.9233418622043642,-0.352,-1.05983852901472,-0.352,-1.168551903272896,-0.352,-1.249152096207042,-0.352,-1.307762663404633,-0.352,-1.352027585229853,-0.352,-1.386366345628601,-0.352,-1.413058857537557,-0.352,-1.433601432418765,-0.352,-1.449178648339784,-0.352,-1.460794914863986
