;Version, 1, 0
;/M3/D,;/vout
;X, Y,;X, Y
;Re, Re,;Re, Re
;time, I,;time, V
;s, A,;s, V
0,0.003008176209324893,0,0.150407074633606
1.231536370693641e-12,0.002814521232914278,1.231536370693641e-12,0.1511944434468114
2.254055936956518e-12,0.002813892593641207,2.254055936956518e-12,0.1518419319104855
3.452323191304831e-12,0.002813392232762643,3.452323191304831e-12,0.1525951570230148
5.848857700001457e-12,0.00281350988484301,5.848857700001457e-12,0.1540786414597083
1.064192671739471e-11,0.002817946956138866,1.064192671739471e-11,0.1569555814439035
1.495671281953142e-11,0.002826454381859505,1.495671281953142e-11,0.1594498977848247
1.913333655941486e-11,0.002838332007164302,1.913333655941486e-11,0.1617855208163767
2.375978373721344e-11,0.002855170816793532,2.375978373721344e-11,0.1642908739844398
2.86578976664752e-11,0.002876722299550228,2.86578976664752e-11,0.1668584694854878
3.375880874074395e-11,0.002902723522109226,3.375880874074395e-11,0.1694482026560309
3.915080661202347e-11,0.002933614564364408,3.915080661202347e-11,0.1721008614807475
4.486870955942998e-11,0.002969639110417715,4.486870955942998e-11,0.1748268379855799
5.092394711695493e-11,0.003010877425725633,5.092394711695493e-11,0.1776238142900873
5.734776133684812e-11,0.003057498996397319,5.734776133684812e-11,0.180497267774904
6.417885609664373e-11,0.00310969811733283,6.417885609664373e-11,0.1834534257695133
7.148757700839345e-11,0.003167883417142534,7.148757700839345e-11,0.1865081945072264
7.933261854555462e-11,0.003232333312028567,7.933261854555462e-11,0.1896669448547286
8.776899763035896e-11,0.003303210121989981,8.776899763035896e-11,0.1929273724499614
9.685974758373773e-11,0.003380618169198258,9.685974758373773e-11,0.1962826744669147
1.066738918715291e-10,0.003464546088274016,1.066738918715291e-10,0.1997184039186272
1.172847078807709e-10,0.003554798370583897,1.172847078807709e-10,0.2032090834317175
1.287723889680244e-10,0.003650950906440797,1.287723889680244e-10,0.206715744362137
1.412283154089801e-10,0.003752301344560469,1.412283154089801e-10,0.210182852018355
1.547618308431143e-10,0.003857809196441811,1.547618308431143e-10,0.2135342740085701
1.695133306468636e-10,0.003966031270153212,1.695133306468636e-10,0.2166680353868528
1.847781611005116e-10,0.004069285292714586,1.847781611005116e-10,0.2193115370478352
1.995805981346947e-10,0.004159815146855466,1.995805981346947e-10,0.2212672079794496
2.13874085544703e-10,0.004237342497159497,2.13874085544703e-10,0.2225685738942391
2.277363777655607e-10,0.004302550048643006,2.277363777655607e-10,0.2232668350558513
2.41201106479922e-10,0.004355961466952142,2.41201106479922e-10,0.2234059894644649
2.543466623714023e-10,0.004398279057166006,2.543466623714023e-10,0.223026323732069
2.672476888314771e-10,0.004430140275596383,2.672476888314771e-10,0.2221597273055712
2.799858703094811e-10,0.004451990075967249,2.799858703094811e-10,0.2208284102591076
2.925854290547629e-10,0.004464130262131097,2.925854290547629e-10,0.2190545277836134
3.051057115790794e-10,0.004466846590755302,3.051057115790794e-10,0.2168525051534119
3.175892983498086e-10,0.004460328856406915,3.175892983498086e-10,0.2142349229650722
3.30074762691334e-10,0.004444712216420024,3.30074762691334e-10,0.211212420405144
3.426071447110714e-10,0.004420068833637301,3.426071447110714e-10,0.2077917242545303
3.552326159522051e-10,0.004386405161502399,3.552326159522051e-10,0.2039769205931589
3.679988902847071e-10,0.0043436642058372,3.679988902847071e-10,0.1997699074083603
3.809583250132193e-10,0.004291718051925806,3.809583250132193e-10,0.1951699827870791
3.941700548653466e-10,0.004230357339286378,3.941700548653466e-10,0.1901736171591462
4.077028724534015e-10,0.004159274708108753,4.077028724534015e-10,0.1847740371698306
4.216398120719493e-10,0.004078036153586572,4.216398120719493e-10,0.1789603211846611
4.360849793012039e-10,0.003986034679733103,4.360849793012039e-10,0.1727159092936709
4.511744264504695e-10,0.003882413409159066,4.511744264504695e-10,0.1660160943198795
4.669065650239373e-10,0.00376733369424161,4.669065650239373e-10,0.1589091036859286
4.825656554490135e-10,0.003646817164863961,4.825656554490135e-10,0.1517863799738766
4.979262187961952e-10,0.003524028947714636,4.979262187961952e-10,0.1448251369483028
5.131178681132459e-10,0.003399351675889081,5.131178681132459e-10,0.1380346809952127
5.282016463069873e-10,0.003273519747644876,5.282016463069873e-10,0.1314507580453265
5.43154651465186e-10,0.003147858011484144,5.43154651465186e-10,0.1251413216952313
5.580004374400842e-10,0.003023225347974588,5.580004374400842e-10,0.1191486782423168
5.728045599518752e-10,0.00290005094714115,5.728045599518752e-10,0.1134954074461076
5.876235362540083e-10,0.002778787645144139,5.876235362540083e-10,0.1082079887327685
6.025050761724843e-10,0.002659937253256724,6.025050761724843e-10,0.1033170793061582
6.175075558776924e-10,0.002543921319101529,6.175075558776924e-10,0.09885178185827631
6.327027464982154e-10,0.002431101788315669,6.327027464982154e-10,0.09484156468983847
6.481737120472e-10,0.002321849545048076,6.481737120472e-10,0.09132000602190381
6.64021591415992e-10,0.002216562753867081,6.64021591415992e-10,0.08832675313339367
6.803786616484672e-10,0.002115680319460372,6.803786616484672e-10,0.08591046284467839
6.97426793887055e-10,0.002019732201476417,6.97426793887055e-10,0.08413499724965386
7.142599019522823e-10,0.001934900112408187,7.142599019522823e-10,0.08313337462072684
7.306506673720739e-10,0.001862434512471884,7.306506673720739e-10,0.08287474560603614
7.466331191921222e-10,0.001802024560328056,7.466331191921222e-10,0.08329580195269545
7.62179539750382e-10,0.001753520506181191,7.62179539750382e-10,0.08433073156341622
7.773040759602135e-10,0.001716530760907928,7.773040759602135e-10,0.08591382463352779
7.920504582456617e-10,0.001690585953100761,7.920504582456617e-10,0.08798689868241202
8.064576079828629e-10,0.001675271247410584,8.064576079828629e-10,0.0904983266424311
8.205637964234851e-10,0.001670213773177908,8.205637964234851e-10,0.09340298673814781
8.344096615410504e-10,0.001675083722416943,8.344096615410504e-10,0.09666256004030535
8.480364434906351e-10,0.001689600012592064,8.480364434906351e-10,0.1002448587691505
8.61486444910493e-10,0.001713531869123245,8.61486444910493e-10,0.1041233996876329
8.748041430453781e-10,0.001746702965048947,8.748041430453781e-10,0.1082771758313205
8.880368222669339e-10,0.001788997197902773,8.880368222669339e-10,0.1126903324875924
9.012353474879617e-10,0.00184036579033721,9.012353474879617e-10,0.1173518707094536
9.14455331495251e-10,0.001900836780238879,9.14455331495251e-10,0.122255459098276
9.277587686394375e-10,0.00197052793206862,9.277587686394375e-10,0.1273993716768362
9.412164348560202e-10,0.002049665212186498,9.412164348560202e-10,0.132786629233536
9.549115561738704e-10,0.002138610782506392,9.549115561738704e-10,0.1384254757883083
9.689455822053903e-10,0.002237907422256897,9.689455822053903e-10,0.144330400785776
9.830200404065739e-10,0.002345021494544829,9.830200404065739e-10,0.1503403546361015
9.970182374001214e-10,0.002458159347224593,9.970182374001214e-10,0.1563627237643655
1.011022415163589e-09,0.002576952575701013,1.011022415163589e-09,0.1623888073117848
1.025099994178636e-09,0.002700960975956395,1.025099994178636e-09,0.1684022975900577
1.039275104158958e-09,0.00282934785104326,1.039275104158958e-09,0.1743656086103658
1.053589097352989e-09,0.002961365579179285,1.053589097352989e-09,0.1802449771194761
1.068105969237007e-09,0.003096402883719042,1.068105969237007e-09,0.1860108510139781
1.082891101895367e-09,0.00323376116897513,1.082891101895367e-09,0.1916268332122043
1.098011183396915e-09,0.003372606064783302,1.098011183396915e-09,0.1970476117733501
1.113545711008947e-09,0.003512016253946297,1.113545711008947e-09,0.2022205218355249
1.129593541996853e-09,0.003650962325017799,1.129593541996853e-09,0.2070834439920481
1.146278860030495e-09,0.003788239744665847,1.146278860030495e-09,0.2115603512506624
1.163765284821443e-09,0.003922404180171567,1.163765284821443e-09,0.2155558426817891
1.180691097681152e-09,0.004041204707849185,1.180691097681152e-09,0.2186897186792622
1.196637246141203e-09,0.004141814420799462,1.196637246141203e-09,0.2209415144437836
1.21177365258884e-09,0.004226109119927469,1.21177365258884e-09,0.2224227431217059
1.226208483895021e-09,0.004295570789998326,1.226208483895021e-09,0.2232226817964291
1.240063993067398e-09,0.004351659969443361,1.240063993067398e-09,0.2234181675798131
1.253477717413712e-09,0.004395673270192925,1.253477717413712e-09,0.2230691840880312
1.266552413344248e-09,0.004428603060545345,1.266552413344248e-09,0.222220141739123
1.279397637595021e-09,0.004451149950378877,1.279397637595021e-09,0.2209010109112414
1.292055956169489e-09,0.004463783418758116,1.292055956169489e-09,0.2191386020013606
1.304604813594574e-09,0.004466899671159584,1.304604813594574e-09,0.2169491694312515
1.317101895049161e-09,0.004460744406041857,1.317101895049161e-09,0.2143450338968214
1.329592886588508e-09,0.004445475151519739,1.329592886588508e-09,0.2113364760110846
1.34212557227105e-09,0.004421174885722006,1.34212557227105e-09,0.2079301419004943
1.354747845726576e-09,0.004387855323737284,1.354747845726576e-09,0.2041299705904309
1.367508295284335e-09,0.00434546234997322,1.367508295284335e-09,0.1999377580578314
1.380459470392264e-09,0.004293870889769578,1.380459470392264e-09,0.195352813304169
1.393660390529281e-09,0.004232874791228762,1.393660390529281e-09,0.1903716692653813
1.407179509766993e-09,0.00416217064915044,1.407179509766993e-09,0.1849876555275245
1.421099253055169e-09,0.004081329866234605,1.421099253055169e-09,0.1791900148081062
1.435522767988664e-09,0.003989753150697923,1.435522767988664e-09,0.1729624335712887
1.450584614199748e-09,0.003886595116490601,1.450584614199748e-09,0.166280578551499
1.466318521724048e-09,0.00377175194719765,1.466318521724048e-09,0.1591761062914409
1.481990717844878e-09,0.00365133370757491,1.481990717844878e-09,0.1520478733152472
1.497359264902413e-09,0.003528627202325475,1.497359264902413e-09,0.1450807880848689
1.512555844972999e-09,0.003404008070491815,1.512555844972999e-09,0.1382834418811378
1.527645492101867e-09,0.003278182739458502,1.527645492101867e-09,0.1316899721491297
1.542603755737873e-09,0.003152491770338895,1.542603755737873e-09,0.125369242932311
1.557452314260857e-09,0.003027813112787457,1.557452314260857e-09,0.119364487270081
1.572257021975162e-09,0.002904576027633213,1.572257021975162e-09,0.1136981762894123
1.587074884617602e-09,0.002783230710937087,1.587074884617602e-09,0.108396587978559
1.601953297125217e-09,0.00266428195785885,1.601953297125217e-09,0.1034904494585309
1.616950167225797e-09,0.002548154166790586,1.616950167225797e-09,0.09900889330376239
1.632136939505598e-09,0.002435209315644021,1.632136939505598e-09,0.09498126745461206
1.647596176872886e-09,0.002325817558859169,1.647596176872886e-09,0.09144096673604643
1.663428113603757e-09,0.002220376192879089,1.663428113603757e-09,0.08842738455927
1.679763611959224e-09,0.002119321887047879,1.679763611959224e-09,0.08598875549737382
1.696782265260798e-09,0.002023179837798841,1.696782265260798e-09,0.0841882191777381
1.713623929092501e-09,0.001937916874899454,1.713623929092501e-09,0.08315764490063268
1.730030399650544e-09,0.001864986227885252,1.730030399650544e-09,0.08287175086836575
1.746026863977648e-09,0.001804123947886655,1.746026863977648e-09,0.08326785463902647
1.761588817577338e-09,0.001755172031266246,1.761588817577338e-09,0.08428033029286627
1.7767285613439e-09,0.001717748378133426,1.7767285613439e-09,0.08584340375844564
1.791488587692456e-09,0.00169138631449397,1.791488587692456e-09,0.08789856355771221
1.805908007637099e-09,0.001675669172668903,1.805908007637099e-09,0.09039395258094945
1.820025067553806e-09,0.001670222711928,1.820025067553806e-09,0.0932842064411651
1.833880261308308e-09,0.001674715531171019,1.833880261308308e-09,0.09653074393948503
1.847514777473285e-09,0.001688864689995071,1.847514777473285e-09,0.1001011455961373
1.860970857792932e-09,0.001712437440601847,1.860970857792932e-09,0.1039687134278811
1.874292877472761e-09,0.001745255264753333,1.874292877472761e-09,0.1081122335896066
1.887527995941794e-09,0.001787199613094371,1.887527995941794e-09,0.1125156571072953
1.900726921215988e-09,0.001838218955000688,1.900726921215988e-09,0.1171678016874374
1.913945057311568e-09,0.001898338156616797,1.913945057311568e-09,0.1220621580101518
1.927244115088344e-09,0.001967671228570598,1.927244115088344e-09,0.1271968214613865
1.940694475511053e-09,0.00204643953069016,1.940694475511053e-09,0.1325746237677866
1.954378796853022e-09,0.002134999297648641,1.954378796853022e-09,0.1382035933732211
1.968397684248426e-09,0.002233885240744626,1.968397684248426e-09,0.1440979508513966
1.982470601190388e-09,0.002340709526180909,1.982470601190388e-09,0.1501045995248595
1.996471130301998e-09,0.002453625906758755,1.996471130301998e-09,0.1561270296645677
2.010473714822745e-09,0.002572205459074087,2.010473714822745e-09,0.1621532212210866
2.02454721036439e-09,0.002696018485474132,2.02454721036439e-09,0.1681675686349539
2.038717552154832e-09,0.002824245960143526,2.038717552154832e-09,0.1741333822779954
2.053025101827288e-09,0.002956134239840963,2.053025101827288e-09,0.1800166366336987
2.067532885695212e-09,0.003091066411013178,2.067532885695212e-09,0.1857876206662494
2.082306284601006e-09,0.003228348601580987,2.082306284601006e-09,0.1914102669764017
2.097411887791243e-09,0.003367152277258732,2.097411887791243e-09,0.1968396387959539
2.112928557354316e-09,0.003506559582431028,2.112928557354316e-09,0.2020233782754489
2.128954241863889e-09,0.003645545890364881,2.128954241863889e-09,0.2068997873655359
2.14561192407287e-09,0.003782914601233125,2.14561192407287e-09,0.2113934709002995
2.163063303085598e-09,0.003917232341716058,2.163063303085598e-09,0.2154099264607448
2.180020058538833e-09,0.00403672229886599,2.180020058538833e-09,0.2185797952551057
2.196002545539346e-09,0.004138035401763255,2.196002545539346e-09,0.2208652720819677
2.211166671534779e-09,0.004222950313238315,2.211166671534779e-09,0.2223758980892077
2.225626760346715e-09,0.004292986024597294,2.225626760346715e-09,0.2232021572049988
2.239502965478043e-09,0.0043495961648085,2.239502965478043e-09,0.2234212098467047
2.252932249950589e-09,0.004394083415340156,2.252932249950589e-09,0.2230936993432462
2.266018391789988e-09,0.00442745486622814,2.266018391789988e-09,0.2222646142935205
2.27887279622471e-09,0.004450420528957728,2.27887279622471e-09,0.2209642344256977
2.291536829653764e-09,0.004463452950386017,2.291536829653764e-09,0.2192197741710529
2.304088977338349e-09,0.004466955816850528,2.304088977338349e-09,0.2170476761620271
2.316587433028818e-09,0.004461178915665677,2.316587433028818e-09,0.2144603744134567
2.329077785493462e-09,0.00444628293355319,2.329077785493462e-09,0.211468314230918
2.341607870500868e-09,0.004422353879290017,2.341607870500868e-09,0.2080782561787469
2.354225598692043e-09,0.004389406194780421,2.354225598692043e-09,0.2042942295278155
2.366979436285698e-09,0.004347388577775606,2.366979436285698e-09,0.2001181318059055
2.37992172380097e-09,0.004296179041177497,2.37992172380097e-09,0.195549379344762
2.393111169460813e-09,0.004235575010554301,2.393111169460813e-09,0.1905846239083743
2.406615760240651e-09,0.004165277545257397,2.406615760240651e-09,0.1852173418050432
2.420517232582384e-09,0.004084863949047694,2.420517232582384e-09,0.1794369683036448
2.43491770840737e-09,0.003993743164409157,2.43491770840737e-09,0.1732274577016547
2.449950165500778e-09,0.003891082007130623,2.449950165500778e-09,0.1665648754911649
2.465686179941022e-09,0.003776493733895688,2.465686179941022e-09,0.1594631403782391
2.48137263503289e-09,0.003656182174727135,2.48137263503289e-09,0.1523290249660509
2.496749922362641e-09,0.003533564242835968,2.496749922362641e-09,0.1453556942126679
2.511951943403096e-09,0.003409008263047774,2.511951943403096e-09,0.138550978978883
2.527048010193757e-09,0.003283190806393731,2.527048010193757e-09,0.1319472924319839
2.542012022346358e-09,0.003157469200293174,2.542012022346358e-09,0.1256144719080218
2.556863653981967e-09,0.00303274182857811,2.556863653981967e-09,0.1195967457782474
2.571669082030045e-09,0.002909438065236426,2.571669082030045e-09,0.1139164697713615
2.586485839742316e-09,0.002788005286542529,2.586485839742316e-09,0.1085997054166005
2.601360989984778e-09,0.002668951488155167,2.601360989984778e-09,0.1036772552624657
2.616351943549905e-09,0.002552704141548151,2.616351943549905e-09,0.09917828553284413
2.631529801088497e-09,0.002439625281141616,2.631529801088497e-09,0.09513201693168075
2.646976597553476e-09,0.002330084303547713,2.646976597553476e-09,0.09157165023314991
2.662791611997632e-09,0.002224477613238828,2.662791611997632e-09,0.0885363112567004
2.679104214340726e-09,0.002123239548214661,2.679104214340726e-09,0.08607378987317739
2.696091601277436e-09,0.002026890310736155,2.696091601277436e-09,0.0842464657855384
2.712942635170664e-09,0.001941165372496413,2.712942635170664e-09,0.08318482552395862
2.72936607518759e-09,0.001867736124561472,2.72936607518759e-09,0.08286965371537142
2.745377682453277e-09,0.001806389059992924,2.745377682453277e-09,0.08323896847052925
2.760956383154822e-09,0.001756928269723929,2.760956383154822e-09,0.08422702601365448
2.776126767770301e-09,0.001719040585391487,2.776126767770301e-09,0.08577049581920611
2.790876533069841e-09,0.001692279684282439,2.790876533069841e-09,0.08780307290940338
2.805315478928744e-09,0.001676117608928145,2.805315478928744e-09,0.09028210587859313
2.819450370688522e-09,0.001670250239033332,2.819450370688522e-09,0.09315812303516592
2.833314019950701e-09,0.001674339122290444,2.833314019950701e-09,0.09639034243135025
2.846956551341708e-09,0.001688094656032029,2.846956551341708e-09,0.09994790595088887
2.860419829471597e-09,0.001711284012822877,2.860419829471597e-09,0.1038038965252056
2.873746542566023e-09,0.001743724043067616,2.873746542566023e-09,0.1079364385998912
2.886984219750117e-09,0.001785293939877237,2.886984219750117e-09,0.1123294045016113
2.900183664745679e-09,0.001835940031154668,2.900183664745679e-09,0.1169715034240758
2.913399921467118e-09,0.001895683412190442,2.913399921467118e-09,0.1218559908912759
2.926694383261083e-09,0.001964633989173167,2.926694383261083e-09,0.1269807642590134
2.940137051162096e-09,0.002043008408799577,2.940137051162096e-09,0.1323484679068396
2.953809983045081e-09,0.002131156641556779,2.953809983045081e-09,0.1379669010047441
2.967812888091383e-09,0.00222960484578383,2.967812888091383e-09,0.1438499967357017
2.981884287425098e-09,0.002336119393874633,2.981884287425098e-09,0.1498531016107262
2.990942143712549e-09,0.002408608048475984,2.990942143712549e-09,0.1537442636899689
3e-09,0.002483474615604623,3e-09,0.1576434747213285
