;Version, 1, 0
;/vout,;/vin,;/M3/D
;X, Y,;X, Y,;X, Y
;Re, Re,;Re, Re,;Re, Re
;time, V,;time, V,;time, I
;s, V,;s, V,;s, A
0,0.06983390081472478,0,0.9,0,0.001396728737401786
9.165346134862676e-13,0.07040034452687911,9.165346134862676e-13,0.900863808748073,9.165346134862676e-13,0.001341497688856258
1.623159669112666e-12,0.07082403634999307,1.623159669112666e-12,0.9015297654283856,1.623159669112666e-12,0.001338901811523208
2.493689882897935e-12,0.07133370762141573,2.493689882897935e-12,0.902350151183348,2.493689882897935e-12,0.001335974389354878
4.234750310468474e-12,0.07230289434862032,4.234750310468474e-12,0.9039906872189711,4.234750310468474e-12,0.001331256438362999
6.332298279861051e-12,0.07338651239088387,6.332298279861051e-12,0.9059664760752462,6.332298279861051e-12,0.001327464952215286
8.660366922255505e-12,0.07449368345397728,8.660366922255505e-12,0.9081581761353987,8.660366922255505e-12,0.001325420468474605
1.121133529914668e-11,0.07560746326728837,1.121133529914668e-11,0.9105576979550153,1.121133529914668e-11,0.001325431204860422
1.400069265155766e-11,0.07672506856137194,1.400069265155766e-11,0.9131783297671865,1.400069265155766e-11,0.001327716744187078
1.70743476097001e-11,0.07785631775947432,1.70743476097001e-11,0.9160613430160878,1.70743476097001e-11,0.001332511865069707
1.980836744453268e-11,0.07878891348827714,1.980836744453268e-11,0.918620786180897,1.980836744453268e-11,0.001338451897951186
2.363346829248645e-11,0.08000198411841968,2.363346829248645e-11,0.9221922511492895,2.363346829248645e-11,0.001348840332172318
2.703807841922187e-11,0.08100845281459562,2.703807841922187e-11,0.92536038885867,2.703807841922187e-11,0.001359746243451905
3.045998044860761e-11,0.08196465103386126,3.045998044860761e-11,0.9285329217107731,3.045998044860761e-11,0.001371950482438177
3.431394545829743e-11,0.08298927219082138,3.431394545829743e-11,0.9320901649963031,3.431394545829743e-11,0.001386849914532525
3.857368174653819e-11,0.08407109240155049,3.857368174653819e-11,0.9359999620458912,3.857368174653819e-11,0.001404407734975984
4.329484358984511e-11,0.0852215153302827,4.329484358984511e-11,0.9403030324891483,4.329484358984511e-11,0.001424862915086694
4.863310777975528e-11,0.08647438712207568,4.863310777975528e-11,0.9451256413554605,4.863310777975528e-11,0.001448892322316986
5.474284928852701e-11,0.08785929177554802,5.474284928852701e-11,0.9505825910458179,5.474284928852701e-11,0.001477184481824163
6.178653656932607e-11,0.08940346611092437,6.178653656932607e-11,0.9567807019095381,6.178653656932607e-11,0.001510440134969501
6.995576290954783e-11,0.09113460292882336,6.995576290954783e-11,0.9638291667884632,6.995576290954783e-11,0.001549431927295178
7.94431682078166e-11,0.09307136622596665,7.94431682078166e-11,0.9718027226291872,7.94431682078166e-11,0.001594821005165578
9.039161036878015e-11,0.09520902313154234,9.039161036878015e-11,0.9806854036192889,9.039161036878015e-11,0.00164684345608684
1.028444699595242e-10,0.09750691489091087,1.028444699595242e-10,0.9903224444998364,1.028444699595242e-10,0.001705004272976342
1.167361092084722e-10,0.09988724799593594,1.167361092084722e-10,1.000418218780818,1.167361092084722e-10,0.00176799843756722
1.319533185648437e-10,0.1022495757702233,1.319533185648437e-10,1.010597250757371,1.319533185648437e-10,0.001834002043754671
1.478721960063607e-10,0.1044179302886579,1.478721960063607e-10,1.020162989866612,1.478721960063607e-10,0.001898912555878585
1.631889467056e-10,0.1061853285776587,1.631889467056e-10,1.028234092502462,1.631889467056e-10,0.001956670666194555
1.777922384612504e-10,0.1075586021079301,1.777922384612504e-10,1.0348250808931,1.777922384612504e-10,0.002006835316089815
1.91793546449806e-10,0.1085745479553846,1.91793546449806e-10,1.040079873603665,1.91793546449806e-10,0.002049946101110809
2.052349442878924e-10,0.1092622496365588,2.052349442878924e-10,1.04410567281921,2.052349442878924e-10,0.002086362059138998
2.18215702716166e-10,0.1096516833757401,2.18215702716166e-10,1.047018722902161,2.18215702716166e-10,0.002116615951039057
2.308413342165666e-10,0.1097669996906488,2.308413342165666e-10,1.048914507011681,2.308413342165666e-10,0.002141186921840937
2.431901219391764e-10,0.1096262213181138,2.431901219391764e-10,1.049862711736632,2.431901219391764e-10,0.002160420343293764
2.553263701040716e-10,0.1092432579939313,2.553263701040716e-10,1.049916006989899,2.553263701040716e-10,0.002174576599712787
2.673032282567656e-10,0.108629202124304,2.673032282567656e-10,1.049114379919797,2.673032282567656e-10,0.002183859115552826
2.79170974334361e-10,0.1077923846877522,2.79170974334361e-10,1.047487496225995,2.79170974334361e-10,0.002188412216740725
2.909587139219383e-10,0.1067410952850195,2.909587139219383e-10,1.045060131721537,2.909587139219383e-10,0.002188354661124096
3.027103843346493e-10,0.1054806203610213,3.027103843346493e-10,1.041848452679072,3.027103843346493e-10,0.002183768708007954
3.144574126782431e-10,0.1040163755149,3.144574126782431e-10,1.037865485565278,3.144574126782431e-10,0.002174720603002427
3.262443096602923e-10,0.1023509866258378,3.262443096602923e-10,1.033114489188062,3.262443096602923e-10,0.002161238443908477
3.381117293643961e-10,0.1004863274898708,3.381117293643961e-10,1.027593838646629,3.381117293643961e-10,0.002143322590569958
3.501024767695789e-10,0.09842308205512991,3.501024767695789e-10,1.02129575448264,3.501024767695789e-10,0.002120943458737822
3.622643206394611e-10,0.09616045225216517,3.622643206394611e-10,1.014205026795718,3.622643206394611e-10,0.002094036218303113
3.746507815470137e-10,0.09369618281442986,3.746507815470137e-10,1.006298492168173,3.746507815470137e-10,0.002062497218938603
3.87323909934755e-10,0.09102628117953691,3.87323909934755e-10,0.9975433453145279,3.87323909934755e-10,0.00202617575302087
4.003584653682943e-10,0.08814448555819358,4.003584653682943e-10,0.9878942415704267,4.003584653682943e-10,0.001984859867093952
4.138477674503142e-10,0.08504147406616266,4.138477674503142e-10,0.9772889290700539,4.138477674503142e-10,0.001938254527414125
4.279130773949062e-10,0.08170352407685344,4.279130773949062e-10,0.9656410368546335,4.279130773949062e-10,0.001885945453606609
4.427196624546872e-10,0.07811012574371043,4.427196624546872e-10,0.9528275139699669,4.427196624546872e-10,0.001827335947949717
4.585065086871754e-10,0.07422945246199762,4.585065086871754e-10,0.9386651812682423,4.585065086871754e-10,0.001761528659560159
4.756285968294324e-10,0.0700135048513406,4.756285968294324e-10,0.9228798436051623,4.756285968294324e-10,0.001687163567914627
4.929410138742321e-10,0.06579993096403096,4.929410138742321e-10,0.9066507566450899,4.929410138742321e-10,0.001609742994753448
5.099865124503049e-10,0.06175488618243278,5.099865124503049e-10,0.8905941087368515,5.099865124503049e-10,0.001532292114656671
5.26922139504927e-10,0.05788815220548901,5.26922139504927e-10,0.8747473146832268,5.26922139504927e-10,0.001455093875655941
5.438559922749974e-10,0.05421978221918446,5.438559922749974e-10,0.8591877967385811,5.438559922749974e-10,0.001378556805195459
5.607746441441522e-10,0.05079447343411495,5.607746441441522e-10,0.8441031580621796,5.607746441441522e-10,0.00130357124140214
5.777088760347503e-10,0.04764335162195436,5.777088760347503e-10,0.8296366093507359,5.777088760347503e-10,0.001230767670873565
5.94749446096264e-10,0.04478482496972166,5.94749446096264e-10,0.8158829057592817,5.94749446096264e-10,0.001160484728500475
6.119954142429337e-10,0.04223807267673606,6.119954142429337e-10,0.8029449010617434,6.119954142429337e-10,0.001093038774920878
6.295510685723784e-10,0.04002526985983567,6.295510685723784e-10,0.790944777793168,6.295510685723784e-10,0.001028773922844721
6.471611971391007e-10,0.03820658056073824,6.471611971391007e-10,0.7802392955603892,6.471611971391007e-10,0.0009692658134559
6.641731726578453e-10,0.03684058765812073,6.641731726578453e-10,0.7712871153412777,6.641731726578453e-10,0.0009168913323440486
6.806021236662406e-10,0.03588915660531698,6.806021236662406e-10,0.7640352892978093,6.806021236662406e-10,0.0008714121784980929
6.965496149988332e-10,0.03530983862244903,6.965496149988332e-10,0.7583798628792877,6.965496149988332e-10,0.0008323222501441066
7.120570608118014e-10,0.03506766618470711,7.120570608118014e-10,0.7542425308573308,7.120570608118014e-10,0.0007992958626944438
7.271934547343357e-10,0.03513098125015332,7.271934547343357e-10,0.7515374348472319,7.271934547343357e-10,0.0007719730605720223
7.420234988674962e-10,0.03547346797172629,7.420234988674962e-10,0.750188345373029,7.420234988674962e-10,0.000750061167001878
7.5658984964497e-10,0.0360727622968666,7.5658984964497e-10,0.75012856121399,7.5658984964497e-10,0.0007333501515983686
7.70929081042654e-10,0.03691010577905161,7.70929081042654e-10,0.7512950764005817,7.70929081042654e-10,0.0007216973792175714
7.850469852871361e-10,0.03796659257781237,7.850469852871361e-10,0.7536221520358114,7.850469852871361e-10,0.0007149759494919712
7.989878836139141e-10,0.03922845560569234,7.989878836139141e-10,0.7570496386981693,7.989878836139141e-10,0.0007130768569193083
8.127576674515505e-10,0.04068075229885387,8.127576674515505e-10,0.7615111847833649,8.127576674515505e-10,0.0007159190947074605
8.263723530758401e-10,0.04231056236270807,8.263723530758401e-10,0.7669411795570507,8.263723530758401e-10,0.0007234201348625875
8.398561722627209e-10,0.04410726742565767,8.398561722627209e-10,0.7732782291938201,8.398561722627209e-10,0.0007355086966861602
8.532335889052136e-10,0.04606162842152791,8.532335889052136e-10,0.7804636992701577,8.532335889052136e-10,0.0007521242928125577
8.665332982512896e-10,0.04816616671480875,8.665332982512896e-10,0.7884442077703402,8.665332982512896e-10,0.0007732210718860644
8.797898946034976e-10,0.05041539445053975,8.797898946034976e-10,0.7971736734992027,8.797898946034976e-10,0.0007987747393871269
8.930436203833138e-10,0.05280573801670248,8.930436203833138e-10,0.8066140014935533,8.930436203833138e-10,0.0008287876837617512
9.063412296965455e-10,0.05533558227554801,9.063412296965455e-10,0.8167359701237786,9.063412296965455e-10,0.0008632955913660561
9.197375324987468e-10,0.0580054006658716,9.197375324987468e-10,0.8275202754463029,9.197375324987468e-10,0.0009023761339101422
9.332975672605054e-10,0.06081795199190335,9.332975672605054e-10,0.8389587106227312,9.332975672605054e-10,0.0009461600764570459
9.471001536992489e-10,0.06377866171124587,9.471001536992489e-10,0.8510560122509067,9.471001536992489e-10,0.0009948473862126884
9.612437692232378e-10,0.06689633338268124,9.612437692232378e-10,0.8638330417308699,9.612437692232378e-10,0.00104873247895708
9.758564600722448e-10,0.07018444128488398,9.758564600722448e-10,0.8773324228480182,9.758564600722448e-10,0.001108246113074648
9.911135208742553e-10,0.07366355559816526,9.911135208742553e-10,0.8916290418589865,9.911135208742553e-10,0.001174029959233912
1.007249381070059e-09,0.07736107269661505,1.007249381070059e-09,0.906830018381322,1.007249381070059e-09,0.001246979064149929
1.023656246617524e-09,0.08110064609642209,1.023656246617524e-09,0.9222134827333843,1.023656246617524e-09,0.001323930032608118
1.040117687603417e-09,0.08479039755675712,1.040117687603417e-09,0.9374109061279716,1.040117687603417e-09,0.001403055470687777
1.056765738972978e-09,0.08841491118984733,1.056765738972978e-09,0.9523733142143733,1.056765738972978e-09,0.001484039236849245
1.073702514530886e-09,0.09194599215982847,1.073702514530886e-09,0.9670067556659949,1.073702514530886e-09,0.001566353525359746
1.090965170605405e-09,0.09533477339303262,1.090965170605405e-09,0.9811405810867685,1.090965170605405e-09,0.001649041218519427
1.108628019267411e-09,0.09853266395081421,1.108628019267411e-09,0.9946137373163648,1.108628019267411e-09,0.001731177674790788
1.126818708068721e-09,0.1014901290091963,1.126818708068721e-09,1.00727111173728,1.126818708068721e-09,0.001811885140071087
1.145697786944565e-09,0.1041468355218512,1.145697786944565e-09,1.018925188949975,1.145697786944565e-09,0.001890132804199505
1.163145228443612e-09,0.1061850797955366,1.163145228443612e-09,1.028212711178639,1.163145228443612e-09,0.001956373571394599
1.179153496616502e-09,0.1076735185634224,1.179153496616502e-09,1.035382448478633,1.179153496616502e-09,0.002011154907413176
1.194128609926364e-09,0.1087164545039899,1.194128609926364e-09,1.040851807527507,1.194128609926364e-09,0.002056572164402535
1.208218862717055e-09,0.1093770879847097,1.208218862717055e-09,1.044860913514643,1.208218862717055e-09,0.002093717350224746
1.221614869917689e-09,0.1097091405294249,1.221614869917689e-09,1.047620688580944,1.221614869917689e-09,0.002123689395541523
1.234503488362026e-09,0.1097518574737922,1.234503488362026e-09,1.049289529976585,1.234503488362026e-09,0.002147380776448347
1.247011421969972e-09,0.109531882970686,1.247011421969972e-09,1.049973555373478,1.247011421969972e-09,0.002165378972723068
1.259231072570858e-09,0.1090688043312759,1.259231072570858e-09,1.049747766028723,1.259231072570858e-09,0.002178116835181071
1.27125933015541e-09,0.108375319240089,1.27125933015541e-09,1.048663791251702,1.27125933015541e-09,0.00218589129028309
1.283137281396719e-09,0.1074629359604246,1.283137281396719e-09,1.046760445580698,1.283137281396719e-09,0.002188903529705403
1.29493139806953e-09,0.1063383627012779,1.29493139806953e-09,1.044062077861804,1.29493139806953e-09,0.002187307784377532
1.306689873913972e-09,0.1050070339592724,1.306689873913972e-09,1.040584672851443,1.306689873913972e-09,0.00218120009922683
1.318455141177223e-09,0.1034730519196941,1.318455141177223e-09,1.036337586888438,1.318455141177223e-09,0.002170637306506329
1.330269554846688e-09,0.1017390743201365,1.330269554846688e-09,1.031323424279355,1.330269554846688e-09,0.002155643398584697
1.342176985068608e-09,0.09980634351155346,1.342176985068608e-09,1.025537987313515,1.342176985068608e-09,0.002136208862991891
1.35422287404814e-09,0.09767492999071417,1.35422287404814e-09,1.018970744967972,1.35422287404814e-09,0.002112292125085376
1.366456803267607e-09,0.09534357287235221,1.366456803267607e-09,1.011603975282541,1.366456803267607e-09,0.00208381627012477
1.378935090667898e-09,0.09280943935839771,1.378935090667898e-09,1.003411393753404,1.378935090667898e-09,0.002050662650741348
1.391723802442627e-09,0.09006780151035046,1.391723802442627e-09,0.9943562038870311,1.391723802442627e-09,0.002012661244537968
1.40490329705513e-09,0.08711145790925272,1.40490329705513e-09,0.9843878715463714,1.40490329705513e-09,0.001969574692814709
1.418575173735117e-09,0.08392977002766926,1.418575173735117e-09,0.9734369030329868,1.418575173735117e-09,0.001921072260116114
1.432873484764074e-09,0.08050703472792296,1.432873484764074e-09,0.9614061691698454,1.432873484764074e-09,0.001866686297531043
1.447984335033371e-09,0.07681954661544796,1.447984335033371e-09,0.9481555240866465,1.447984335033371e-09,0.0018057348003054
1.464183442581459e-09,0.07282982761491118,1.464183442581459e-09,0.9334721053373609,1.464183442581459e-09,0.001737171569762253
1.481356743067698e-09,0.06861118860385454,1.481356743067698e-09,0.9175307000234967,1.481356743067698e-09,0.001661741655753818
1.498572957941684e-09,0.06444960023992001,1.498572957941684e-09,0.901344937432645,1.498572957941684e-09,0.001584234573618618
1.515571655262878e-09,0.06046064561746208,1.515571655262878e-09,0.8853474639119731,1.515571655262878e-09,0.001506813387871763
1.532495485177452e-09,0.05665682906797122,1.532495485177452e-09,0.8695860724193323,1.532495485177452e-09,0.001429788781371605
1.549415172904198e-09,0.05306594157622477,1.549415172904198e-09,0.8541719721640338,1.549415172904198e-09,0.001353714882852175
1.566330519150908e-09,0.0497283943292291,1.566330519150908e-09,0.8392790611738695,1.566330519150908e-09,0.001279401338763901
1.58329056264444e-09,0.04667111285900838,1.58329056264444e-09,0.8250349125595426,1.58329056264444e-09,0.001207385012031384
1.600388331976438e-09,0.04391263629217587,1.600388331976438e-09,0.8115363793189703,1.600388331976438e-09,0.001137995116180882
1.617723999134007e-09,0.04147301486581913,1.617723999134007e-09,0.7988920763761085,1.617723999134007e-09,0.001071555108777772
1.635410004573309e-09,0.03937493892128327,1.635410004573309e-09,0.7872281689269524,1.635410004573309e-09,0.001008403631980921
1.652829627391239e-09,0.03770846140840515,1.652829627391239e-09,0.7770991708551047,1.652829627391239e-09,0.0009512378718247186
1.669634988436405e-09,0.03648419098190012,1.669634988436405e-09,0.7687200741726415,1.669634988436405e-09,0.0009012006590920207
1.685903640056595e-09,0.03565910570200943,1.685903640056595e-09,0.7620007916166254,1.685903640056595e-09,0.0008578530591538967
1.701699617694786e-09,0.03519455500386456,1.701699617694786e-09,0.7568546668954277,1.701699617694786e-09,0.0008207997513080219
1.717077631101695e-09,0.03505617314535414,1.717077631101695e-09,0.7531978197544312,1.717077631101695e-09,0.000789687270262061
1.732109122733839e-09,0.03521410066677119,1.732109122733839e-09,0.7509467316551933,1.732109122733839e-09,0.0007641702311801148
1.746849818279568e-09,0.03564356826015039,1.746849818279568e-09,0.7500293817754705,1.746849818279568e-09,0.0007439907480325161
1.761338119659948e-09,0.03632328962212182,1.761338119659948e-09,0.7503804691006092,1.761338119659948e-09,0.000728960978622832
1.775604958038647e-09,0.03723489982173042,1.775604958038647e-09,0.7519370115592694,1.775604958038647e-09,0.0007189427874026984
1.789666091329015e-09,0.03836100546487042,1.789666091329015e-09,0.7546345825574363,1.789666091329015e-09,0.0007138197435595312
1.803549033394427e-09,0.03968722158611601,1.803549033394427e-09,0.7584105306694664,1.803549033394427e-09,0.000713494516590217
1.817266415079344e-09,0.04119951200768646,1.817266415079344e-09,0.7631990614651876,1.817266415079344e-09,0.0007178830769159462
1.830837223124475e-09,0.04288575827612594,1.830837223124475e-09,0.7689359495096497,1.830837223124475e-09,0.0007269069514135258
1.844284533942927e-09,0.0447356665669771,1.844284533942927e-09,0.7755601497653607,1.844284533942927e-09,0.0007404979128212535
1.857634268262441e-09,0.0467405788979145,1.857634268262441e-09,0.7830146017901527,1.857634268262441e-09,0.0007585997552299773
1.870917179528658e-09,0.04889368814190264,1.870917179528658e-09,0.7912482554104359,1.870917179528658e-09,0.0007811732685188423
1.884169588388632e-09,0.05119012175971895,1.884169588388632e-09,0.8002175028049224,1.884169588388632e-09,0.0008082021893916115
1.897433770582978e-09,0.05362694171338071,1.897433770582978e-09,0.8098870578800149,1.897433770582978e-09,0.0008396990591967016
1.91075899361402e-09,0.0562032109231478,1.91075899361402e-09,0.8202308694134839,1.91075899361402e-09,0.0008757124540457175
1.924203168940575e-09,0.05892012897494492,1.924203168940575e-09,0.8312331393643184,1.924203168940575e-09,0.000916336196955463
1.937835427434543e-09,0.06178128160620854,1.937835427434543e-09,0.8428896811380111,1.937835427434543e-09,0.0009617218397114625
1.951740320708357e-09,0.06479311355077767,1.951740320708357e-09,0.8552101267486685,1.951740320708357e-09,0.001012097257900252
1.966024772363827e-09,0.06796579354961138,1.966024772363827e-09,0.8682217505694034,1.966024772363827e-09,0.001067796289993753
1.980829999713701e-09,0.07131479868296001,1.980829999713701e-09,0.8819763550717075,1.980829999713701e-09,0.001129309039937071
1.996353300614179e-09,0.07486394230046026,1.996353300614179e-09,0.8965633675239066,1.996353300614179e-09,0.001197373835631689
2.012568099803492e-09,0.07857746634260054,2.012568099803492e-09,0.9118328479791942,2.012568099803492e-09,0.001271662429174756
2.028986050556196e-09,0.08230409130136521,2.028986050556196e-09,0.9271679350452025,2.028986050556196e-09,0.00134938688634145
2.045499309256556e-09,0.08597591500918791,2.045499309256556e-09,0.9423003617971633,2.045499309256556e-09,0.00142917851455294
2.062231054186625e-09,0.08957379629055923,2.062231054186625e-09,0.9571682522213099,2.062231054186625e-09,0.001510661980343261
2.079263749505823e-09,0.09306318282733227,2.079263749505823e-09,0.9716542110956341,2.079263749505823e-09,0.001593180764839636
