;Version, 1, 0
;/M3/D,;/M4/D,;/R1/PLUS
;X, Y,;X, Y,;X, Y
;Re, Re,;Re, Re,;Re, Re
;time, I,;time, I,;time, I
;s, A,;s, A,;s, A
0,0.001590499217355808,0,0.0006420269469827942,0,0.0009484495938110565
1.588026335909406e-12,0.001446237716436242,1.588026335909406e-12,0.0008516103946776848,1.588026335909406e-12,0.0009526892964410031
2.981321953601912e-12,0.001454476608993123,2.981321953601912e-12,0.0008555633356722538,2.981321953601912e-12,0.0009564454384064617
4.551210072080283e-12,0.00146382718365288,4.551210072080283e-12,0.000859611451093288,4.551210072080283e-12,0.0009607124934020195
7.690986309037025e-12,0.001482469068014145,7.690986309037025e-12,0.0008677009767693575,7.690986309037025e-12,0.0009693769032123901
1.346839386753342e-11,0.001517361602435885,1.346839386753342e-11,0.00088034896540746,1.346839386753342e-11,0.0009859910924903564
1.807745498472632e-11,0.001544411837469964,1.807745498472632e-11,0.0008915972764259049,1.807745498472632e-11,0.0009996043401028277
2.226166760750523e-11,0.001569625268393365,2.226166760750523e-11,0.0008998226009562126,2.226166760750523e-11,0.001012336814115651
2.639295947031201e-11,0.001593956604536622,2.639295947031201e-11,0.0009086808938603807,2.639295947031201e-11,0.001025127036797871
3.08481327796527e-11,0.001620630629350296,3.08481327796527e-11,0.0009166296941659789,3.08481327796527e-11,0.001039248687184307
3.539896878456273e-11,0.001647337989124562,3.539896878456273e-11,0.0009252970669378646,3.539896878456273e-11,0.001053887918165352
4.040850140939073e-11,0.001677119078243202,4.040850140939073e-11,0.0009330902731438561,4.040850140939073e-11,0.001070348876739008
4.552555370498422e-11,0.001706889369314372,4.552555370498422e-11,0.0009415950699633209,4.552555370498422e-11,0.001087361664929551
5.105036879307842e-11,0.001739382000168142,5.105036879307842e-11,0.0009487575696955903,5.105036879307842e-11,0.001106072746695908
5.659876197329496e-11,0.001771211304376508,5.659876197329496e-11,0.0009565396726750584,5.659876197329496e-11,0.001125007317384155
6.248475053611893e-11,0.001805263366878371,6.248475053611893e-11,0.0009625649725978062,6.248475053611893e-11,0.001145386049234907
6.836928452102139e-11,0.001838452563184426,6.836928452102139e-11,0.0009688702261475407,6.836928452102139e-11,0.001165867457712746
7.506800418892248e-11,0.001875983167201239,7.506800418892248e-11,0.0009745556803208084,7.506800418892248e-11,0.001189300537287729
8.38230214539258e-11,0.001924045685676181,8.38230214539258e-11,0.000980575407106832,8.38230214539258e-11,0.001219991695151623
9.679583941068879e-11,0.001993012124896898,9.679583941068879e-11,0.0009864149645489248,9.679583941068879e-11,0.001265268967927426
1.110665097033498e-10,0.002065379456531385,1.110665097033498e-10,0.0009885169825100686,1.110665097033498e-10,0.001314263298797089
1.254388456200753e-10,0.002133941381416561,1.254388456200753e-10,0.0009861847840854478,1.254388456200753e-10,0.001362116630040206
1.397194718040768e-10,0.002197112624109098,1.397194718040768e-10,0.0009797119730569953,1.397194718040768e-10,0.001407552791996236
1.535815439092303e-10,0.002253178871995607,1.535815439092303e-10,0.0009697066129023058,1.535815439092303e-10,0.001449068729400943
1.66976997345337e-10,0.002302005698221507,1.66976997345337e-10,0.0009568116659874924,1.66976997345337e-10,0.001486260688272293
1.799813527488639e-10,0.002344029893215631,1.799813527488639e-10,0.000941524714417747,1.799813527488639e-10,0.001519178996049447
1.926560751129037e-10,0.002379626891935217,1.926560751129037e-10,0.0009242634968434441,1.926560751129037e-10,0.00154786425841394
2.050657480211533e-10,0.002409150942849237,2.050657480211533e-10,0.0009053672517443322,2.050657480211533e-10,0.001572374519720984
2.17273413207305e-10,0.00243290393600632,2.17273413207305e-10,0.0008851124663452192,2.17273413207305e-10,0.001592755444240702
2.293315368000914e-10,0.00245110275674049,2.293315368000914e-10,0.0008638114225229236,2.293315368000914e-10,0.001608999777922024
2.412748306934353e-10,0.002463979298700046,2.412748306934353e-10,0.0008414383678054566,2.412748306934353e-10,0.001621131855888575
2.531992181594708e-10,0.002471579166720622,2.531992181594708e-10,0.0008184498979415083,2.531992181594708e-10,0.001629108922660203
2.650105782819543e-10,0.002474051820684193,2.650105782819543e-10,0.0007949916003994333,2.650105782819543e-10,0.001632830953579675
2.768774729469682e-10,0.002471482872467523,2.768774729469682e-10,0.0007710318366816823,2.768774729469682e-10,0.001632308386822903
2.887745622753052e-10,0.002463890531830778,2.887745622753052e-10,0.0007467952272471012,2.887745622753052e-10,0.001627457734247064
3.007175008251213e-10,0.002451318488280256,3.007175008251213e-10,0.0007224585732167641,3.007175008251213e-10,0.001618229596105202
3.127592190304527e-10,0.002433758522858087,3.127592190304527e-10,0.0006981081434440658,3.127592190304527e-10,0.001604538288872918
3.249417720311029e-10,0.002411234724478702,3.249417720311029e-10,0.0006735229268932585,3.249417720311029e-10,0.001586360579525076
3.373588664102463e-10,0.002383419932195974,3.373588664102463e-10,0.000649002868724648,3.373588664102463e-10,0.001563467603246251
3.499032304581151e-10,0.002350680561804508,3.499032304581151e-10,0.0006246012884243207,3.499032304581151e-10,0.001536098067345612
3.627862265383936e-10,0.002312433452755682,3.627862265383936e-10,0.0006000604197095297,3.627862265383936e-10,0.001503838915732571
3.75996726667334e-10,0.002268666632693858,3.75996726667334e-10,0.0005754554837922609,3.75996726667334e-10,0.00146675410698168
3.895988658167173e-10,0.002219156455442337,3.895988658167173e-10,0.0005507151615054825,3.895988658167173e-10,0.001424777951616722
4.036997344603638e-10,0.002163499881370642,4.036997344603638e-10,0.0005256860278413734,4.036997344603638e-10,0.001377743006526792
4.184171749147278e-10,0.002101218600023071,4.184171749147278e-10,0.000500207869301835,4.184171749147278e-10,0.001325483017135037
4.339130540232313e-10,0.002031637332406497,4.339130540232313e-10,0.0004740713465966198,4.339130540232313e-10,0.0012677474885769
4.504329492389057e-10,0.001953707202641807,4.504329492389057e-10,0.0004469849673019966,4.504329492389057e-10,0.001204086064644847
4.683701069484033e-10,0.001865715455206338,4.683701069484033e-10,0.0004185379911548461,4.683701069484033e-10,0.001133672721816106
4.868102455394789e-10,0.001772721130410919,4.868102455394789e-10,0.0003905896046665825,4.868102455394789e-10,0.001061169022590297
5.048576416651769e-10,0.001680407423159053,5.048576416651769e-10,0.000364828597279429,5.048576416651769e-10,0.0009912928076785321
5.225364106125841e-10,0.001589928843441493,5.225364106125841e-10,0.000341420959427538,5.225364106125841e-10,0.0009249075492291531
5.40107960941652e-10,0.001501067102802063,5.40107960941652e-10,0.0003203167858180021,5.40107960941652e-10,0.0008618009608721524
5.575828948403889e-10,0.001414764010689637,5.575828948403889e-10,0.0003019182218962903,5.575828948403889e-10,0.0008025718744568209
5.749167279656612e-10,0.001332131058808982,5.749167279656612e-10,0.0002866709706249078,5.749167279656612e-10,0.0007478287441353174
5.922273230156174e-10,0.001253426309047856,5.922273230156174e-10,0.0002748320016044292,5.922273230156174e-10,0.0006975344453808533
6.097043585263722e-10,0.001178617366991602,6.097043585263722e-10,0.0002666703682810619,6.097043585263722e-10,0.0006514709117691324
6.275018638003082e-10,0.001107946455556329,6.275018638003082e-10,0.0002625748647418718,6.275018638003082e-10,0.0006096157420109792
6.447494127114011e-10,0.001045303520117908,6.447494127114011e-10,0.0002629204642198836,6.447494127114011e-10,0.0005740157153282061
6.613046597575524e-10,0.0009910542838108944,6.613046597575524e-10,0.000267304725379896,6.613046597575524e-10,0.0005444720903257366
6.772871724760328e-10,0.0009445037690770802,6.772871724760328e-10,0.0002752763409959693,6.772871724760328e-10,0.0005202473855623914
6.92764137887081e-10,0.0009050613182919796,6.92764137887081e-10,0.0002868455883853139,6.92764137887081e-10,0.0005006658916097785
7.078944037180551e-10,0.0008724580235746356,7.078944037180551e-10,0.0003001756495220318,7.078944037180551e-10,0.0004855582965552298
7.223798115257502e-10,0.0008461554504704312,7.223798115257502e-10,0.0003171008035999176,7.223798115257502e-10,0.0004743913643631151
7.372222757701364e-10,0.0008251367909931445,7.372222757701364e-10,0.000336653977645029,7.372222757701364e-10,0.0004664066894844595
7.513203358742356e-10,0.0008107106283132688,7.513203358742356e-10,0.0003569991019874648,7.513203358742356e-10,0.0004622817813409625
7.651498779879951e-10,0.0008014258669800246,7.651498779879951e-10,0.0003801757997352067,7.651498779879951e-10,0.0004611701350134037
7.793324118743806e-10,0.000797692322761801,7.793324118743806e-10,0.0004055161470027006,7.793324118743806e-10,0.000463178047191908
7.928747920768004e-10,0.0007994132072681964,7.928747920768004e-10,0.0004316622394253075,7.928747920768004e-10,0.0004680582025392688
8.063501674992609e-10,0.0008063866601858087,8.063501674992609e-10,0.000459405771336066,8.063501674992609e-10,0.0004757645189343958
8.197638238380448e-10,0.000818631751670611,8.197638238380448e-10,0.000488642586572934,8.197638238380448e-10,0.000486227654884866
8.330171938231393e-10,0.0008363782220073461,8.330171938231393e-10,0.000517261247872342,8.330171938231393e-10,0.000499752881527361
8.458613716505639e-10,0.0008578279464179966,8.458613716505639e-10,0.0005482123974113098,8.458613716505639e-10,0.0005152461853780039
8.587570749894284e-10,0.0008850889861693862,8.587570749894284e-10,0.0005782111810586571,8.587570749894284e-10,0.0005336575352072547
8.711510098023257e-10,0.00091553454891311,8.711510098023257e-10,0.0006086845903490608,8.711510098023257e-10,0.0005537932513386363
8.844306689165116e-10,0.0009533702108781379,8.844306689165116e-10,0.0006413059494631192,8.844306689165116e-10,0.0005781169850132581
8.974638566311867e-10,0.0009954208384397544,8.974638566311867e-10,0.0006734988253096577,8.974638566311867e-10,0.0006047373048668058
9.106050590941185e-10,0.001042594363988401,9.106050590941185e-10,0.0007058271544453027,9.106050590941185e-10,0.0006342991306336725
9.240345432564808e-10,0.001095503885849802,9.240345432564808e-10,0.0007384597135774337,9.240345432564808e-10,0.0006672722203009417
9.377474426550016e-10,0.001154123487296594,9.377474426550016e-10,0.0007710374242680938,9.377474426550016e-10,0.0007037303017128868
9.518401099266077e-10,0.001218789522519187,9.518401099266077e-10,0.0008034001584787381,9.518401099266077e-10,0.0007439985861013159
9.664873751084659e-10,0.001290218051963866,9.664873751084659e-10,0.0008354729490380825,9.664873751084659e-10,0.000788665331046716
9.819053726649667e-10,0.001369359827511347,9.819053726649667e-10,0.0008671010045754171,9.819053726649667e-10,0.0008385026901761268
9.981543456301767e-10,0.001456277955417638,9.981543456301767e-10,0.0008975929816045032,9.981543456301767e-10,0.0008937662936499037
1.014639557493735e-09,0.001547126749685645,1.014639557493735e-09,0.0009250270387013151,1.014639557493735e-09,0.0009522098877617772
1.031178110166362e-09,0.001639804260493636,1.031178110166362e-09,0.0009485688324818265,1.031178110166362e-09,0.00101266215807514
1.047964830970492e-09,0.001734172649445377,1.047964830970492e-09,0.0009680122545003921,1.047964830970492e-09,0.00107521181146389
1.065130954670428e-09,0.001829643280127699,1.065130954670428e-09,0.0009829013183279085,1.065130954670428e-09,0.001139643697868077
1.082681292402283e-09,0.001924753208272347,1.082681292402283e-09,0.0009926048128673459,1.082681292402283e-09,0.001205132649779424
1.100692877022027e-09,0.002018234768994992,1.100692877022027e-09,0.0009965752695189132,1.100692877022027e-09,0.0012709529020355
1.119365370010145e-09,0.002109154198508246,1.119365370010145e-09,0.0009942444488408293,1.119365370010145e-09,0.001336585242627205
1.136861430402356e-09,0.002187534210782611,1.136861430402356e-09,0.0009861022622175315,1.136861430402356e-09,0.001394643799116272
1.152909068055277e-09,0.002252592136842431,1.152909068055277e-09,0.0009738220001508304,1.152909068055277e-09,0.001444126632312968
1.167856831680931e-09,0.002306571485825963,1.167856831680931e-09,0.0009585585391011941,1.167856831680931e-09,0.001486307353316313
1.181914269210658e-09,0.002351024937112399,1.181914269210658e-09,0.0009411234897159727,1.181914269210658e-09,0.001522006656403144
1.195292416988292e-09,0.002387313046896937,1.195292416988292e-09,0.000922041209503815,1.195292416988292e-09,0.001551984121413068
1.208178120755698e-09,0.002416482618478769,1.208178120755698e-09,0.0009016446325280476,1.208178120755698e-09,0.001576826971274133
1.220703263755823e-09,0.002439238635196749,1.220703263755823e-09,0.0008801921274232395,1.220703263755823e-09,0.001596899235954284
1.232968486151544e-09,0.002456060841495541,1.232968486151544e-09,0.0008579516592008928,1.232968486151544e-09,0.001612411918719584
1.245045074880996e-09,0.002467351066119752,1.245045074880996e-09,0.0008348983761310484,1.245045074880996e-09,0.001623537559050127
1.257050945637172e-09,0.002473264836111131,1.257050945637172e-09,0.00081138122962666,1.257050945637172e-09,0.001630328798614054
1.2689257214993e-09,0.002474023863087,1.2689257214993e-09,0.0007875452239874105,1.2689257214993e-09,0.001632768881732755
1.280838503471367e-09,0.002469716460790631,1.280838503471367e-09,0.0007633125267973472,1.280838503471367e-09,0.001630882889482388
1.292775215724391e-09,0.00246039034321636,1.292775215724391e-09,0.0007389102988596486,1.292775215724391e-09,0.001624616148480651
1.304766750591833e-09,0.002446084836207132,1.304766750591833e-09,0.000714470178035788,1.304766750591833e-09,0.001613921925336173
1.316867534851858e-09,0.002426811219913349,1.316867534851858e-09,0.0006899063094224622,1.316867534851858e-09,0.001598752852015391
1.329145397569609e-09,0.002402395204660689,1.329145397569609e-09,0.0006654520132273162,1.329145397569609e-09,0.001578948551955353
1.341562469686436e-09,0.002373067740585762,1.341562469686436e-09,0.0006408111168826918,1.341562469686436e-09,0.001554658909513592
1.354322516340766e-09,0.002338121723874917,1.354322516340766e-09,0.0006162277813081976,1.354322516340766e-09,0.001525410863833395
1.367234112669168e-09,0.002298237227703456,1.367234112669168e-09,0.0005917836125839158,1.367234112669168e-09,0.001491723606858045
1.380590049234722e-09,0.002252465768388531,1.380590049234722e-09,0.000567088274690964,1.380590049234722e-09,0.00145293698605756
1.394371208053656e-09,0.002200816878639567,1.394371208053656e-09,0.0005422149242728602,1.394371208053656e-09,0.001409194525293005
1.408665141235431e-09,0.002142957865048289,1.408665141235431e-09,0.0005170482948340519,1.408665141235431e-09,0.001360410755293125
1.423628339903711e-09,0.002078258602198294,1.423628339903711e-09,0.0004913627480884172,1.423628339903711e-09,0.001306315536329989
1.439447653048729e-09,0.002005929129964817,1.439447653048729e-09,0.0004649222147848222,1.439447653048729e-09,0.00124659758045802
1.456401918895915e-09,0.001924770062279664,1.456401918895915e-09,0.0004374134644007646,1.456401918895915e-09,0.001180732982124599
1.474768187468956e-09,0.001833689322838274,1.474768187468956e-09,0.0004086770763400408,1.474768187468956e-09,0.001108457791459447
1.493193855856207e-09,0.001740159535050317,1.493193855856207e-09,0.0003812786250888524,1.493193855856207e-09,0.001036268248905909
1.511073542200665e-09,0.001648542783877398,1.511073542200665e-09,0.0003563765555886623,1.511073542200665e-09,0.000967668740078858
1.528681888955881e-09,0.00155867524948346,1.528681888955881e-09,0.0003337753602382928,1.528681888955881e-09,0.0009024703551829762
1.546243568771744e-09,0.001470481415269279,1.546243568771744e-09,0.0003135388066394473,1.546243568771744e-09,0.0008405724312011166
1.563681584538223e-09,0.001385308258393284,1.563681584538223e-09,0.0002961899839999401,1.563681584538223e-09,0.0007828325427479036
1.580985730750269e-09,0.001304062167685095,1.580985730750269e-09,0.0002821158951243451,1.580985730750269e-09,0.0007296813281328388
1.598330369402049e-09,0.001226734538139561,1.598330369402049e-09,0.0002715330857118105,1.598330369402049e-09,0.0006808992887149611
1.615906166679525e-09,0.001153326834303707,1.615906166679525e-09,0.0002647476341217083,1.615906166679525e-09,0.0006363000485468454
1.633590832753666e-09,0.00108514650891291,1.633590832753666e-09,0.0002622066524406464,1.633590832753666e-09,0.0005964868741917657
1.650592161904351e-09,0.00102547863275329,1.650592161904351e-09,0.0002640148688229601,1.650592161904351e-09,0.000563070940673752
1.666930935789526e-09,0.000973999433239381,1.666930935789526e-09,0.0002696944673561455,1.666930935789526e-09,0.0005354636931025835
1.682728945988968e-09,0.0009300096818947702,1.682728945988968e-09,0.0002788198518454486,1.682728945988968e-09,0.0005129587491054492
1.698051650280621e-09,0.0008929487434556821,1.698051650280621e-09,0.0002913653537548108,1.698051650280621e-09,0.0004949331668486686
1.71304997565679e-09,0.0008625492001405986,1.71304997565679e-09,0.0003057297220434501,1.71304997565679e-09,0.0004812090344702107
1.727466237107519e-09,0.0008382978531055365,1.727466237107519e-09,0.0003234384118334332,1.727466237107519e-09,0.0004712913948994527
1.742165540170621e-09,0.0008194116044412885,1.742165540170621e-09,0.0003436663804204747,1.742165540170621e-09,0.00046458057925499
1.756208744787029e-09,0.0008067681657969098,1.756208744787029e-09,0.0003653340192127059,1.756208744787029e-09,0.0004614068809298242
1.770090745434102e-09,0.0007995783705520856,1.770090745434102e-09,0.0003888237530288641,1.770090745434102e-09,0.0004613866149529923
1.783887446114831e-09,0.0007977603586894304,1.783887446114831e-09,0.0004140991626153236,1.783887446114831e-09,0.0004644281741105002
1.797513573132286e-09,0.0008012831870013247,1.797513573132286e-09,0.0004408553793487494,1.797513573132286e-09,0.0004704071681486774
1.810989773092565e-09,0.000810066659450755,1.810989773092565e-09,0.0004689827719688291,1.810989773092565e-09,0.0004791983188577722
1.824338867226124e-09,0.0008240513285925675,1.824338867226124e-09,0.0004983903070368045,1.824338867226124e-09,0.0004906906113996614
1.837568118884718e-09,0.0008433185939228898,1.837568118884718e-09,0.0005282545103840088,1.837568118884718e-09,0.0005049657015689777
1.850573894154101e-09,0.000867167253476449,1.850573894154101e-09,0.0005592783625609225,1.850573894154101e-09,0.000521615839691875
1.863804343220459e-09,0.0008970057469845523,1.863804343220459e-09,0.0005904216435922577,1.863804343220459e-09,0.0005415555501571385
1.876614214888449e-09,0.0009304546507352821,1.876614214888449e-09,0.0006221161499994072,1.876614214888449e-09,0.000563454486186024
1.889975436772703e-09,0.0009706660228691777,1.889975436772703e-09,0.0006550107444841339,1.889975436772703e-09,0.0005891097961686334
1.903065253375377e-09,0.001014952468854051,1.903065253375377e-09,0.0006873147803529789,1.903065253375377e-09,0.0006170056787904487
1.916329889460412e-09,0.001064583310307339,1.916329889460412e-09,0.0007198078312563277,1.916329889460412e-09,0.0006480173618004924
1.929893496340199e-09,0.001120002441209577,1.929893496340199e-09,0.0007524908624578536,1.929893496340199e-09,0.0006825104490077379
1.943764981968316e-09,0.001181213937514282,1.943764981968316e-09,0.0007850158547127186,1.943764981968316e-09,0.0007205864642784605
1.958076433592117e-09,0.001248710113258173,1.958076433592117e-09,0.0008172729986077453,1.958076433592117e-09,0.0007626785283235796
1.973026290410784e-09,0.001323331759667513,1.973026290410784e-09,0.0008491783993668901,1.973026290410784e-09,0.000809467021004703
1.988869001989975e-09,0.001406221683910072,1.988869001989975e-09,0.0008805576332180281,1.988869001989975e-09,0.0008618678737279616
2.005250060406755e-09,0.001495118988640085,2.005250060406755e-09,0.0009098598418787784,2.005250060406755e-09,0.0009186608200979885
2.021737058196552e-09,0.001586783663900094,2.021737058196552e-09,0.0009356391647414634,2.021737058196552e-09,0.0009779663844772172
2.038363473481624e-09,0.001680235318166777,2.038363473481624e-09,0.0009574615558294102,2.038363473481624e-09,0.001039330686997957
