;Version, 1, 0
;/vout,;/M3/D
;X, Y,;X, Y
;Re, Re,;Re, Re
;vin, V,;vin, I
;xunit, V,;xunit, A
-0.15,0.03680810144829409,-0.15,0.0007361964724226668
-0.1499,0.03682827348930663,-0.1499,0.0007365942404925028
-0.1498,0.03684823437388766,-0.1498,0.0007369934536725984
-0.1497,0.036868199200274,-0.1497,0.000737392745681897
-0.1496,0.03688816796715055,-0.1496,0.0007377921164940916
-0.1495,0.03690814067320241,-0.1495,0.000738191566082897
-0.1494000000000001,0.03692811731711546,-0.1494000000000001,0.0007385910944220376
-0.1493000000000001,0.03694809789757625,-0.1493000000000001,0.0007389907014852485
-0.1492000000000001,0.03696808241327186,-0.1492000000000001,0.0007393903872462773
-0.1491000000000001,0.03698807086289029,-0.1491000000000001,0.0007397901516788969
-0.1490000000000001,0.03700806324512006,-0.1490000000000001,0.0007401899947568727
-0.1489000000000001,0.03702805955864967,-0.1489000000000001,0.0007405899164540013
-0.1488000000000001,0.03704805980216952,-0.1488000000000001,0.0007409899167440742
-0.1487000000000001,0.03706806397436931,-0.1487000000000001,0.000741389995600914
-0.1486000000000001,0.03708807207394042,-0.1486000000000001,0.0007417901529983349
-0.1485000000000002,0.03710808409957418,-0.1485000000000002,0.0007421903889101855
-0.1484000000000002,0.037128100049963,-0.1484000000000002,0.000742590703310314
-0.1483000000000002,0.0371481199237995,-0.1483000000000002,0.0007429910961725787
-0.1482000000000002,0.03716814371977709,-0.1482000000000002,0.0007433915674708582
-0.1481000000000002,0.03718817143659026,-0.1481000000000002,0.0007437921171790469
-0.1480000000000002,0.03720820307293326,-0.1480000000000002,0.0007441927452710367
-0.1479000000000002,0.03722823862750181,-0.1479000000000002,0.0007445934517207408
-0.1478000000000002,0.03724827809899164,-0.1478000000000002,0.0007449942365020932
-0.1477000000000002,0.03726832148609934,-0.1477000000000002,0.0007453950995890286
-0.1476000000000003,0.03728836878752212,-0.1476000000000003,0.0007457960409555046
-0.1475000000000003,0.03730842000195789,-0.1475000000000003,0.0007461970605754706
-0.1474000000000003,0.03732847512810522,-0.1474000000000003,0.0007465981584229103
-0.1473000000000003,0.03734853416466306,-0.1473000000000003,0.0007469993344718185
-0.1472000000000003,0.03736859711033112,-0.1472000000000003,0.0007474005886961865
-0.1471000000000003,0.03738866396380978,-0.1471000000000003,0.000747801921070031
-0.1470000000000003,0.03740873472379996,-0.1470000000000003,0.000748203331567381
-0.1469000000000003,0.0374288093890035,-0.1469000000000003,0.0007486048201622742
-0.1468000000000003,0.0374488879581223,-0.1468000000000003,0.0007490063868287598
-0.1467000000000004,0.03746897042985935,-0.1467000000000004,0.0007494080315408989
-0.1466000000000004,0.0374890568029183,-0.1466000000000004,0.0007498097542727713
-0.1465000000000004,0.0375091470760027,-0.1465000000000004,0.0007502115549984649
-0.1464000000000004,0.03752924124781772,-0.1464000000000004,0.0007506134336920798
-0.1463000000000004,0.03754933931706834,-0.1463000000000004,0.0007510153903277298
-0.1462000000000004,0.03756944128246089,-0.1462000000000004,0.0007514174248795421
-0.1461000000000004,0.03758954714270168,-0.1461000000000004,0.0007518195373216509
-0.1460000000000004,0.03760965689649805,-0.1460000000000004,0.0007522217276282103
-0.1459000000000004,0.03762977054255773,-0.1459000000000004,0.0007526239957733826
-0.1458000000000005,0.03764988807958918,-0.1458000000000005,0.0007530263417313428
-0.1457000000000005,0.03767000950630155,-0.1457000000000005,0.0007534287654762736
-0.1456000000000005,0.03769013482140422,-0.1456000000000005,0.0007538312669823884
-0.1455000000000005,0.03771026402360775,-0.1455000000000005,0.0007542338462238821
-0.1454000000000005,0.03773039711162281,-0.1454000000000005,0.0007546365031749931
-0.1453000000000005,0.03775053408416124,-0.1453000000000005,0.000755039237809955
-0.1452000000000005,0.03777067493993483,-0.1452000000000005,0.0007554420501030179
-0.1451000000000005,0.03779081967765664,-0.1451000000000005,0.0007558449400284434
-0.1450000000000005,0.03781096829603994,-0.1450000000000005,0.0007562479075605027
-0.1449000000000006,0.0378311207937988,-0.1449000000000006,0.0007566509526734827
-0.1448000000000006,0.03785127716964787,-0.1448000000000006,0.000757054075341691
-0.1447000000000006,0.03787143742230215,-0.1447000000000006,0.0007574572755394261
-0.1446000000000006,0.0378916015504777,-0.1446000000000006,0.0007578605532410243
-0.1445000000000006,0.03791176955289093,-0.1445000000000006,0.0007582639084208172
-0.1444000000000006,0.03793194142825899,-0.1444000000000006,0.0007586673410531487
-0.1443000000000006,0.0379521171752995,-0.1443000000000006,0.0007590708511123831
-0.1442000000000006,0.03797229679273074,-0.1442000000000006,0.0007594744385728926
-0.1441000000000006,0.03799248027927161,-0.1441000000000006,0.0007598781034090668
-0.1440000000000007,0.0380126676336417,-0.1440000000000007,0.0007602818455953018
-0.1439000000000007,0.03803285885456139,-0.1439000000000007,0.0007606856651059978
-0.1438000000000007,0.03805305394075113,-0.1438000000000007,0.0007610895619155868
-0.1437000000000007,0.03807325289093248,-0.1437000000000007,0.0007614935359985067
-0.1436000000000007,0.03809345570382749,-0.1436000000000007,0.0007618975873291917
-0.1435000000000007,0.03811366237815881,-0.1435000000000007,0.0007623017158821078
-0.1434000000000007,0.03813387291264926,-0.1434000000000007,0.0007627059216317344
-0.1433000000000007,0.03815408730602299,-0.1433000000000007,0.0007631102045525418
-0.1432000000000007,0.0381743055570047,-0.1432000000000007,0.0007635145646190267
-0.1431000000000008,0.03819452766431908,-0.1431000000000008,0.0007639190018057041
-0.1430000000000008,0.03821475362669189,-0.1430000000000008,0.0007643235160870918
-0.1429000000000008,0.03823498344284951,-0.1429000000000008,0.0007647281074377271
-0.1428000000000008,0.03825521711151861,-0.1428000000000008,0.0007651327758321399
-0.1427000000000008,0.03827545463142688,-0.1427000000000008,0.0007655375212449021
-0.1426000000000008,0.03829569600130252,-0.1426000000000008,0.0007659423436505779
-0.1425000000000008,0.03831594121987414,-0.1425000000000008,0.000766347243023749
-0.1424000000000008,0.03833619028587104,-0.1424000000000008,0.0007667522193390024
-0.1423000000000008,0.03835644319802323,-0.1423000000000008,0.0007671572725709553
-0.1422000000000009,0.03837669995506118,-0.1422000000000009,0.0007675624026942163
-0.1421000000000009,0.03839696055571618,-0.1421000000000009,0.000767967609683417
-0.1420000000000009,0.03841722499871997,-0.1420000000000009,0.0007683728935132023
-0.1419000000000009,0.03843749328280498,-0.1419000000000009,0.0007687782541582253
-0.1418000000000009,0.03845776540670412,-0.1418000000000009,0.0007691836915931538
-0.1417000000000009,0.03847804136915116,-0.1417000000000009,0.0007695892057926677
-0.1416000000000009,0.03849832116887975,-0.1416000000000009,0.0007699947967314475
-0.1415000000000009,0.03851860480462546,-0.1415000000000009,0.0007704004643842115
-0.1414000000000009,0.03853889227512317,-0.1414000000000009,0.0007708062087256617
-0.141300000000001,0.0385591835791094,-0.141300000000001,0.0007712120297305322
-0.141200000000001,0.03857947871532003,-0.141200000000001,0.0007716179273735681
-0.141100000000001,0.03859977768249297,-0.141100000000001,0.0007720239016295076
-0.141000000000001,0.03862008047936578,-0.141000000000001,0.000772429952473121
-0.140900000000001,0.03864038710467709,-0.140900000000001,0.0007728360798791852
-0.140800000000001,0.03866069755716544,-0.140800000000001,0.0007732422838224821
-0.140700000000001,0.03868101183557137,-0.140700000000001,0.0007736485642778179
-0.140600000000001,0.03870132993863421,-0.140600000000001,0.0007740549212200061
-0.140500000000001,0.0387216518650956,-0.140500000000001,0.000774461354623859
-0.1404000000000011,0.03874197761369619,-0.1404000000000011,0.0007748678644642285
-0.1403000000000011,0.03876230718317893,-0.1403000000000011,0.0007752744507159454
-0.1402000000000011,0.03878264057228586,-0.1402000000000011,0.0007756811133538833
-0.1401000000000011,0.0388029777797604,-0.1401000000000011,0.0007760878523529119
-0.1400000000000011,0.03882331880434668,-0.1400000000000011,0.0007764946676879106
-0.1399000000000011,0.03884366364478906,-0.1399000000000011,0.0007769015593337807
-0.1398000000000011,0.0388640122998324,-0.1398000000000011,0.0007773085272654289
-0.1397000000000011,0.03888436476822259,-0.1397000000000011,0.0007777155714577763
-0.1396000000000011,0.03890472104870593,-0.1396000000000011,0.0007781226918857487
-0.1395000000000012,0.03892508114002891,-0.1395000000000012,0.0007785298885243009
-0.1394000000000012,0.03894544504093959,-0.1394000000000012,0.0007789371613483776
-0.1393000000000012,0.03896581275018585,-0.1393000000000012,0.0007793445103329593
-0.1392000000000012,0.03898618426651618,-0.1392000000000012,0.0007797519354530184
-0.1391000000000012,0.03900655958867986,-0.1391000000000012,0.0007801594366835537
-0.1390000000000012,0.03902693871542728,-0.1390000000000012,0.000780567013999559
-0.1389000000000012,0.03904732164550817,-0.1389000000000012,0.0007809746673760642
-0.1388000000000012,0.03906770837767421,-0.1388000000000012,0.000781382396788079
-0.1387000000000012,0.03908809891067687,-0.1387000000000012,0.0007817902022106654
-0.1386000000000012,0.03910849324326832,-0.1386000000000012,0.0007821980836188611
-0.1385000000000013,0.03912889137420151,-0.1385000000000013,0.0007826060409877359
-0.1384000000000013,0.03914929330223008,-0.1384000000000013,0.0007830140742923594
-0.1383000000000013,0.03916969902610772,-0.1383000000000013,0.0007834221835078288
-0.1382000000000013,0.03919010854458933,-0.1382000000000013,0.0007838303686092378
-0.1381000000000013,0.03921052185643021,-0.1381000000000013,0.0007842386295716999
-0.1380000000000013,0.0392309389603862,-0.1380000000000013,0.0007846469663703361
-0.1379000000000013,0.03925135985521358,-0.1379000000000013,0.0007850553789802877
-0.1378000000000013,0.03927178453966948,-0.1378000000000013,0.0007854638673766974
-0.1377000000000013,0.03929221301251168,-0.1377000000000013,0.0007858724315347258
-0.1376000000000014,0.03931264527249803,-0.1376000000000014,0.0007862810714295484
-0.1375000000000014,0.03933308131838781,-0.1375000000000014,0.00078668978703634
-0.1374000000000014,0.03935352114894034,-0.1374000000000014,0.0007870985783303047
-0.1373000000000014,0.03937396476291513,-0.1373000000000014,0.0007875074452866464
-0.1372000000000014,0.0393944121590737,-0.1372000000000014,0.0007879163878805772
-0.1371000000000014,0.03941486333617641,-0.1371000000000014,0.0007883254060873362
-0.1370000000000014,0.03943531829298549,-0.1370000000000014,0.0007887344998821659
-0.1369000000000014,0.03945577702826329,-0.1369000000000014,0.0007891436692403122
-0.1368000000000014,0.03947623954077247,-0.1368000000000014,0.0007895529141370493
-0.1367000000000015,0.03949670582927718,-0.1367000000000015,0.0007899622345476563
-0.1366000000000015,0.03951717589254104,-0.1366000000000015,0.0007903716304474124
-0.1365000000000015,0.03953764972932877,-0.1365000000000015,0.0007907811018116295
-0.1364000000000015,0.03955812733840643,-0.1364000000000015,0.0007911906486156201
-0.1363000000000015,0.03957860871853915,-0.1363000000000015,0.0007916002708347053
-0.1362000000000015,0.03959909386849389,-0.1362000000000015,0.0007920099684442233
-0.1361000000000015,0.03961958278703757,-0.1361000000000015,0.0007924197414195276
-0.1360000000000015,0.0396400754729381,-0.1360000000000015,0.0007928295897359689
-0.1359000000000015,0.03966057192496334,-0.1359000000000015,0.0007932395133689341
-0.1358000000000016,0.03968107214188268,-0.1358000000000016,0.0007936495122937954
-0.1357000000000016,0.0397015761224653,-0.1357000000000016,0.0007940595864859467
-0.1356000000000016,0.0397220838654811,-0.1356000000000016,0.0007944697359208077
-0.1355000000000016,0.03974259536970111,-0.1355000000000016,0.0007948799605737912
-0.1354000000000016,0.03976311063389657,-0.1354000000000016,0.0007952902604203288
-0.1353000000000016,0.03978362965683877,-0.1353000000000016,0.0007957006354358655
-0.1352000000000016,0.0398041524373007,-0.1352000000000016,0.0007961110855958471
-0.1351000000000016,0.03982467897405489,-0.1351000000000016,0.0007965216108757568
-0.1350000000000016,0.0398452092658752,-0.1350000000000016,0.00079693221125106
-0.1349000000000017,0.03986574331153568,-0.1349000000000017,0.0007973428866972477
-0.1348000000000017,0.03988628110981109,-0.1348000000000017,0.0007977536371898222
-0.1347000000000017,0.03990682265947681,-0.1347000000000017,0.000798164462704298
-0.1346000000000017,0.03992736795930878,-0.1346000000000017,0.0007985753632162009
-0.1345000000000017,0.03994791700808337,-0.1345000000000017,0.0007989863387010705
-0.1344000000000017,0.03996846980457776,-0.1344000000000017,0.0007993973891344429
-0.1343000000000017,0.03998902634756955,-0.1343000000000017,0.0007998085144918947
-0.1342000000000017,0.04000958663583712,-0.1342000000000017,0.0008002197147489878
-0.1341000000000017,0.04003015066815926,-0.1341000000000017,0.0008006309898813038
-0.1340000000000018,0.04005071844331529,-0.1340000000000018,0.0008010423398644436
-0.1339000000000018,0.04007128996008533,-0.1339000000000018,0.000801453764674008
-0.1338000000000018,0.04009186521724983,-0.1338000000000018,0.0008018652642856236
-0.1337000000000018,0.04011244421359002,-0.1337000000000018,0.0008022768386749102
-0.1336000000000018,0.04013302694788769,-0.1336000000000018,0.0008026884878175197
-0.1335000000000018,0.04015361341892529,-0.1335000000000018,0.0008031002116890963
-0.1334000000000018,0.04017420362548525,-0.1334000000000018,0.0008035120102653095
-0.1333000000000018,0.04019479756635166,-0.1333000000000018,0.0008039238835218384
-0.1332000000000018,0.04021539524030794,-0.1332000000000018,0.0008043358314343628
-0.1331000000000019,0.04023599664613953,-0.1331000000000019,0.0008047478539785876
-0.1330000000000019,0.04025660178263127,-0.1330000000000019,0.0008051599511302283
-0.1329000000000019,0.04027721064856849,-0.1329000000000019,0.0008055721228649977
-0.1328000000000019,0.04029782324273826,-0.1328000000000019,0.0008059843691586389
-0.1327000000000019,0.0403184395639274,-0.1327000000000019,0.0008063966899868897
-0.1326000000000019,0.04033905961092317,-0.1326000000000019,0.0008068090853255182
-0.1325000000000019,0.04035968338251417,-0.1325000000000019,0.0008072215551502802
-0.1324000000000019,0.0403803108774887,-0.1324000000000019,0.0008076340994369697
-0.1323000000000019,0.04040094209463604,-0.1323000000000019,0.0008080467181613701
-0.132200000000002,0.04042157703274634,-0.132200000000002,0.0008084594112992861
-0.132100000000002,0.04044221569060959,-0.132100000000002,0.0008088721788265352
-0.132000000000002,0.04046285806701736,-0.132000000000002,0.0008092850207189471
-0.131900000000002,0.04048350416076087,-0.131900000000002,0.0008096979369523517
-0.131800000000002,0.04050415397063197,-0.131800000000002,0.0008101109275026068
-0.131700000000002,0.04052480749542437,-0.131700000000002,0.0008105239923455681
-0.131600000000002,0.04054546473393022,-0.131600000000002,0.000810937131457113
-0.131500000000002,0.04056612568494426,-0.131500000000002,0.0008113503448131246
-0.131400000000002,0.04058679034726055,-0.131400000000002,0.0008117636323894966
-0.1313000000000021,0.04060745871967442,-0.1313000000000021,0.0008121769941621328
-0.1312000000000021,0.04062813080098118,-0.1312000000000021,0.00081259043010696
-0.1311000000000021,0.04064880658997705,-0.1311000000000021,0.0008130039401999072
-0.1310000000000021,0.04066948608545878,-0.1310000000000021,0.0008134175244169104
-0.1309000000000021,0.04069016928622383,-0.1309000000000021,0.0008138311827339273
-0.1308000000000021,0.04071085619107004,-0.1308000000000021,0.0008142449151269248
-0.1307000000000021,0.04073154679879599,-0.1307000000000021,0.0008146587215718757
-0.1306000000000021,0.04075224110820054,-0.1306000000000021,0.0008150726020447617
-0.1305000000000021,0.04077293911808324,-0.1305000000000021,0.0008154865565215926
-0.1304000000000022,0.04079364082724442,-0.1304000000000022,0.0008159005849783696
-0.1303000000000022,0.04081434623448505,-0.1303000000000022,0.00081631468739112
-0.1302000000000022,0.04083505533860598,-0.1302000000000022,0.0008167288637358788
-0.1301000000000022,0.04085576813840951,-0.1301000000000022,0.0008171431139886774
-0.1300000000000022,0.04087648463269777,-0.1300000000000022,0.0008175574381255923
-0.1299000000000022,0.0408972048202742,-0.1299000000000022,0.0008179718361226733
-0.1298000000000022,0.04091792869994217,-0.1298000000000022,0.0008183863079560042
-0.1297000000000022,0.04093865627050589,-0.1297000000000022,0.0008188008536016832
-0.1296000000000022,0.04095938753076999,-0.1296000000000022,0.0008192154730358001
-0.1295000000000023,0.04098012247953997,-0.1295000000000023,0.0008196301662344751
-0.1294000000000023,0.04100086111562152,-0.1294000000000023,0.0008200449331738281
-0.1293000000000023,0.04102160343782135,-0.1293000000000023,0.0008204597738299918
-0.1292000000000023,0.04104234944494586,-0.1292000000000023,0.0008208746881791292
-0.1291000000000023,0.04106309913580363,-0.1291000000000023,0.0008212896761973832
-0.1290000000000023,0.041083852509202,-0.1290000000000023,0.0008217047378609255
-0.1289000000000023,0.04110460956395004,-0.1289000000000023,0.0008221198731459424
-0.1288000000000023,0.04112537029885694,-0.1288000000000023,0.0008225350820286179
-0.1287000000000023,0.04114613471273262,-0.1287000000000023,0.0008229503644851619
-0.1286000000000024,0.04116690280438744,-0.1286000000000024,0.0008233657204917843
-0.1285000000000024,0.04118767457263221,-0.1285000000000024,0.0008237811500247192
-0.1284000000000024,0.04120845001627871,-0.1284000000000024,0.0008241966530602022
-0.1283000000000024,0.04122922913413889,-0.1283000000000024,0.0008246122295744741
-0.1282000000000024,0.04125001192502548,-0.1282000000000024,0.0008250278795437994
-0.1281000000000024,0.04127079838775179,-0.1281000000000024,0.0008254436029444515
-0.1280000000000024,0.04129158852113159,-0.1280000000000024,0.000825859399752711
-0.1279000000000024,0.0413123823239791,-0.1279000000000024,0.0008262752699448763
-0.1278000000000024,0.04133317979510949,-0.1278000000000024,0.000826691213497242
-0.1277000000000025,0.04135398093333804,-0.1277000000000025,0.0008271072303861388
-0.1276000000000025,0.04137478573748094,-0.1276000000000025,0.0008275233205878736
-0.1275000000000025,0.04139559420635459,-0.1275000000000025,0.0008279394840788097
-0.1274000000000025,0.04141640633877648,-0.1274000000000025,0.0008283557208352758
-0.1273000000000025,0.04143722213356393,-0.1273000000000025,0.0008287720308336464
-0.1272000000000025,0.04145804158953567,-0.1272000000000025,0.0008291884140502884
-0.1271000000000025,0.04147886470551021,-0.1271000000000025,0.0008296048704615905
-0.1270000000000025,0.04149969148030732,-0.1270000000000025,0.0008300214000439396
-0.1269000000000025,0.04152052191274645,-0.1269000000000025,0.0008304380027737482
-0.1268000000000025,0.04154135600164875,-0.1268000000000025,0.0008308546786274341
-0.1267000000000026,0.04156219374583506,-0.1267000000000026,0.0008312714275814158
-0.1266000000000026,0.04158303514412675,-0.1266000000000026,0.0008316882496121448
-0.1265000000000026,0.04160388019534628,-0.1265000000000026,0.0008321051446960671
-0.1264000000000026,0.04162472889831636,-0.1264000000000026,0.0008325221128096441
-0.1263000000000026,0.04164558125186044,-0.1263000000000026,0.0008329391539293518
-0.1262000000000026,0.04166643725480224,-0.1262000000000026,0.0008333562680316705
-0.1261000000000026,0.0416872969059665,-0.1261000000000026,0.0008337734550930955
-0.1260000000000026,0.04170816020417791,-0.1260000000000026,0.0008341907150901387
-0.1259000000000026,0.04172902714826198,-0.1259000000000026,0.0008346080479993133
-0.1258000000000027,0.04174989773704526,-0.1258000000000027,0.0008350254537971461
-0.1257000000000027,0.04177077196935386,-0.1257000000000027,0.0008354429324601853
-0.1256000000000027,0.04179164984401527,-0.1256000000000027,0.0008358604839649699
