;Version, 1, 0
;/vout,;/vin,;/M3/D,;/M5/D,;/R1/PLUS
;X, Y,;X, Y,;X, Y,;X, Y,;X, Y
;Re, Re,;Re, Re,;Re, Re,;Re, Re,;Re, Re
;time, V,;time, V,;time, I,;time, I,;time, I
;s, V,;s, V,;s, A,;s, A,;s, A
0,0.04566399109176186,0,0.9,0,0.001549117970604144,0,0.0006358156803495859,0,0.0009132798218352371
1.595340058744532e-12,0.04586854304552904,1.595340058744532e-12,0.9015035474036304,1.595340058744532e-12,0.001407907796002861,1.595340058744532e-12,0.0008414891621481324,1.595340058744532e-12,0.0009173708609105809
2.996153684530182e-12,0.04604990701646819,2.996153684530182e-12,0.9028236415335434,2.996153684530182e-12,0.001415984321873786,2.996153684530182e-12,0.0008454612844278619,2.996153684530182e-12,0.0009209981403293638
4.573170473209832e-12,0.04625577816845787,4.573170473209832e-12,0.9043095185478849,4.573170473209832e-12,0.001425144247893996,4.573170473209832e-12,0.0008495257199395549,4.573170473209832e-12,0.0009251155633691574
7.727204050569133e-12,0.04667382466175032,7.727204050569133e-12,0.9072798573902463,7.727204050569133e-12,0.001443410220994222,7.727204050569133e-12,0.0008576516602009281,7.727204050569133e-12,0.0009334764932350064
1.3455662777192e-11,0.04746551206105201,1.3455662777192e-11,0.9126665612175501,1.3455662777192e-11,0.001477179556813784,1.3455662777192e-11,0.0008702255699844931,1.3455662777192e-11,0.0009493102412210401
1.797159042677662e-11,0.04810611468798279,1.797159042677662e-11,0.9169018531291722,1.797159042677662e-11,0.00150304312622093,1.797159042677662e-11,0.0008813144844992989,1.797159042677662e-11,0.0009621222937596557
2.203147627913587e-11,0.04869930787471758,2.203147627913587e-11,0.9206979259240552,2.203147627913587e-11,0.001526944890526614,2.203147627913587e-11,0.0008893756441478411,2.203147627913587e-11,0.0009739861574943516
2.601699308197847e-11,0.04929142167268416,2.601699308197847e-11,0.924411377009975,2.601699308197847e-11,0.001549875646355518,2.601699308197847e-11,0.0008980325062346639,2.601699308197847e-11,0.0009858284334536833
3.029016602402214e-11,0.0499411599074272,3.029016602402214e-11,0.928375781365862,3.029016602402214e-11,0.001574891123515401,3.029016602402214e-11,0.0009058103731357389,3.029016602402214e-11,0.000998823198148544
3.464469963633522e-11,0.05061280029707087,3.464469963633522e-11,0.9323946068186016,3.464469963633522e-11,0.00159988406976926,3.464469963633522e-11,0.0009142934297041537,3.464469963633522e-11,0.001012256005941418
3.942138553496432e-11,0.05136519538441809,3.942138553496432e-11,0.9367750390147548,3.942138553496432e-11,0.001627681514897708,3.942138553496432e-11,0.0009219830025320279,3.942138553496432e-11,0.001027303907688362
4.429768386521673e-11,0.05214217396314651,4.429768386521673e-11,0.9412126254532813,4.429768386521673e-11,0.001655466231952985,4.429768386521673e-11,0.0009303915249451126,4.429768386521673e-11,0.00104284347926293
4.954700547258204e-11,0.05299422535884219,4.954700547258204e-11,0.9459463204647266,4.954700547258204e-11,0.001685737804412042,4.954700547258204e-11,0.0009375850414848327,4.954700547258204e-11,0.001059884507176844
5.481334114894955e-11,0.05385565328346011,5.481334114894955e-11,0.9506451316703062,5.481334114894955e-11,0.001715383692362645,5.481334114894955e-11,0.0009454116887464419,5.481334114894955e-11,0.001077113065669202
6.038038163156391e-11,0.05477988914589452,6.038038163156391e-11,0.9555518509018038,6.038038163156391e-11,0.001747038466347674,6.038038163156391e-11,0.0009516391719051553,6.038038163156391e-11,0.00109559778291789
6.593455746600722e-11,0.05570504103086782,6.593455746600722e-11,0.9603795098807362,6.593455746600722e-11,0.001777763952028263,6.593455746600722e-11,0.0009584976529908054,6.593455746600722e-11,0.001114100820617356
7.176590089089924e-11,0.05668658415012199,7.176590089089924e-11,0.9653688554714139,7.176590089089924e-11,0.001810255526710373,7.176590089089924e-11,0.0009635319124300682,7.176590089089924e-11,0.00113373168300244
7.761218425788789e-11,0.05767174166659163,7.761218425788789e-11,0.9702828962705548,7.761218425788789e-11,0.001841938898666577,7.761218425788789e-11,0.0009688976315518807,7.761218425788789e-11,0.001153434833331833
8.424111279856539e-11,0.05878973879676536,8.424111279856539e-11,0.9757397144262654,8.424111279856539e-11,0.001877556490718271,8.424111279856539e-11,0.0009735632758052296,8.424111279856539e-11,0.001175794775935307
9.296580484356101e-11,0.06025697671825613,9.296580484356101e-11,0.9827199978582847,9.296580484356101e-11,0.001923360109172689,9.296580484356101e-11,0.0009783800602882146,9.296580484356101e-11,0.001205139534365123
1.055257611429472e-10,0.06234609851238094,1.055257611429472e-10,0.9923270918878124,1.055257611429472e-10,0.001986992016078278,1.055257611429472e-10,0.0009825220744959003,1.055257611429472e-10,0.001246921970247619
1.192807319061458e-10,0.0645796357605041,1.192807319061458e-10,1.002186855372435,1.192807319061458e-10,0.002053201408525883,1.192807319061458e-10,0.0009832299287624168,1.192807319061458e-10,0.001291592715210082
1.331809185412293e-10,0.06675205945335028,1.331809185412293e-10,1.011375553744113,1.331809185412293e-10,0.002115880309817472,1.331809185412293e-10,0.0009800063019080561,1.331809185412293e-10,0.001335041189067005
1.470480535337534e-10,0.0688073111904446,1.470480535337534e-10,1.019696466786077,1.470480535337534e-10,0.002173607496838057,1.470480535337534e-10,0.0009730832267151546,1.470480535337534e-10,0.001376146223808892
1.605820547379921e-10,0.07068029333426872,1.605820547379921e-10,1.026942281686654,1.605820547379921e-10,0.002224861267607937,1.605820547379921e-10,0.0009629746600568498,1.605820547379921e-10,0.001413605866685374
1.737243736415483e-10,0.07235132365931271,1.737243736415483e-10,1.033100881754093,1.737243736415483e-10,0.002269442518725034,1.737243736415483e-10,0.0009502247084528378,1.737243736415483e-10,0.001447026473186254
1.865320322193659e-10,0.07382049630891599,1.865320322193659e-10,1.038230251423626,1.865320322193659e-10,0.002307666216825426,1.865320322193659e-10,0.0009352601889511374,1.865320322193659e-10,0.00147640992617832
1.990537889497652e-10,0.07508822054843568,1.990537889497652e-10,1.042380381824965,1.990537889497652e-10,0.00233982031623126,1.990537889497652e-10,0.0009184470642139123,1.990537889497652e-10,0.001501764410968714
2.113434031203729e-10,0.07615601532469166,2.113434031203729e-10,1.045597167875852,2.113434031203729e-10,0.00236618797276475,2.113434031203729e-10,0.0009000872098700782,2.113434031203729e-10,0.001523120306493833
2.234555557364641e-10,0.07702409986723543,2.234555557364641e-10,1.047918572356497,2.234555557364641e-10,0.002387001916286579,2.234555557364641e-10,0.0008805168087349492,2.234555557364641e-10,0.001540481997344709
2.354246601221211e-10,0.07769506594205061,2.354246601221211e-10,1.049371428289367,2.354246601221211e-10,0.002402520918980335,2.354246601221211e-10,0.0008596519261377286,2.354246601221211e-10,0.001553901318841012
2.473613732317249e-10,0.07816780099123165,2.473613732317249e-10,1.0499793857765,2.473613732317249e-10,0.002412803364415005,2.473613732317249e-10,0.0008380382124501409,2.473613732317249e-10,0.001563356019824633
2.591427478654333e-10,0.07843653310903936,2.591427478654333e-10,1.049752568463314,2.591427478654333e-10,0.002417993679415773,2.591427478654333e-10,0.0008157853614332764,2.591427478654333e-10,0.001568730662180787
2.709763496520421e-10,0.07850442182324932,2.709763496520421e-10,1.048699075578742,2.709763496520421e-10,0.002418210439553063,2.709763496520421e-10,0.0007927983128425111,2.709763496520421e-10,0.001570088436464986
2.827998910002891e-10,0.07836781981110931,2.827998910002891e-10,1.046825844949554,2.827998910002891e-10,0.002413511200887074,2.827998910002891e-10,0.0007694173671763607,2.827998910002891e-10,0.001567356396222186
2.946684612403464e-10,0.07802437673301282,2.946684612403464e-10,1.044130916027649,2.946684612403464e-10,0.002403903484930142,2.946684612403464e-10,0.0007456602717425736,2.946684612403464e-10,0.001560487534660257
3.065973429238133e-10,0.07747189521642608,3.065973429238133e-10,1.040615059420243,3.065973429238133e-10,0.002389419379053799,3.065973429238133e-10,0.0007217179990243762,3.065973429238133e-10,0.001549437904328522
3.186291922868893e-10,0.0767068056305512,3.186291922868893e-10,1.0362691048322,3.186291922868893e-10,0.00237005894955218,3.186291922868893e-10,0.0006976808624790141,3.186291922868893e-10,0.001534136112611024
3.308182526411371e-10,0.07572922532748907,3.308182526411371e-10,1.031072745257486,3.308182526411371e-10,0.00234584297320448,3.308182526411371e-10,0.0006731694394443278,3.308182526411371e-10,0.001514584506549782
3.432812261187157e-10,0.07452424027135265,3.432812261187157e-10,1.024965356409605,3.432812261187157e-10,0.002316303801705252,3.432812261187157e-10,0.0006486197166163186,3.432812261187157e-10,0.001490484805427053
3.558338203372137e-10,0.07311362737592413,3.558338203372137e-10,1.018039970080139,3.558338203372137e-10,0.002282074054063897,3.558338203372137e-10,0.0006240879235349785,3.558338203372137e-10,0.001462272547518483
3.687835711274182e-10,0.07146641367361765,3.687835711274182e-10,1.010126896680876,3.687835711274182e-10,0.002242269400181848,3.687835711274182e-10,0.0005991661101462141,3.687835711274182e-10,0.001429328273472353
3.820809694488201e-10,0.06959093113858646,3.820809694488201e-10,1.00124362707831,3.820809694488201e-10,0.002196983839854685,3.820809694488201e-10,0.0005739980177027868,3.820809694488201e-10,0.001391818622771729
3.957952140992767e-10,0.06748421611164813,3.957952140992767e-10,0.99134271416584,3.957952140992767e-10,0.002145979475763025,3.957952140992767e-10,0.0005485067182835789,3.957952140992767e-10,0.001349684322232963
4.100558578909072e-10,0.06513547164290467,4.100558578909072e-10,0.9803295648043796,4.100558578909072e-10,0.002088769790194085,4.100558578909072e-10,0.0005225064069974906,4.100558578909072e-10,0.001302709432858094
4.24998538594065e-10,0.06253463469191138,4.24998538594065e-10,0.9680998021793437,4.24998538594065e-10,0.002024805252914188,4.24998538594065e-10,0.0004958257764498813,4.24998538594065e-10,0.001250692693838228
4.408137535157235e-10,0.05966608740101227,4.408137535157235e-10,0.9545048771630286,4.408137535157235e-10,0.001953296642094646,4.408137535157235e-10,0.0004682402392986671,4.408137535157235e-10,0.001193321748020245
4.578032927206825e-10,0.0565005419673319,4.578032927206825e-10,0.9393051702813886,4.578032927206825e-10,0.001872965563733531,4.578032927206825e-10,0.000439419515671833,4.578032927206825e-10,0.001130010839346638
4.759849135783989e-10,0.05307454572480815,4.759849135783989e-10,0.9225478955277376,4.759849135783989e-10,0.001784028979611162,4.759849135783989e-10,0.000409680445691728,4.759849135783989e-10,0.001061490914496163
4.941345827819041e-10,0.04967366170952433,4.941345827819041e-10,0.9055267742348312,4.941345827819041e-10,0.001693306953110163,4.941345827819041e-10,0.0003814792528185688,4.941345827819041e-10,0.0009934732341904866
5.118018836719481e-10,0.04643348950294192,5.118018836719481e-10,0.8888871776262195,5.118018836719481e-10,0.001604293926617255,5.118018836719481e-10,0.0003557825347886515,5.118018836719481e-10,0.0009286697900588384
5.292515280901269e-10,0.04334525709810844,5.292515280901269e-10,0.8725860343309139,5.292515280901269e-10,0.001516827706182334,5.292515280901269e-10,0.0003324265229315848,5.292515280901269e-10,0.0008669051419621688
5.46655399635612e-10,0.04041235887395985,5.46655399635612e-10,0.8566553962724337,5.46655399635612e-10,0.001431066828352017,5.46655399635612e-10,0.0003115457916619569,5.46655399635612e-10,0.000808247177479197
5.639441963632746e-10,0.03767341136542576,5.639441963632746e-10,0.8413423519691964,5.639441963632746e-10,0.001348270956941174,5.639441963632746e-10,0.00029364083444074,5.639441963632746e-10,0.0007534682273085151
5.811343172347829e-10,0.0351447343855813,5.811343172347829e-10,0.8268019600046767,5.811343172347829e-10,0.001269186390807418,5.811343172347829e-10,0.0002790553482284684,5.811343172347829e-10,0.0007028946877116261
5.983967966153956e-10,0.03281707728594813,5.983967966153956e-10,0.8130590760357471,5.983967966153956e-10,0.001193815706847935,5.983967966153956e-10,0.0002679968592970537,5.983967966153956e-10,0.0006563415457189625
6.159069903556386e-10,0.03068430128721176,6.159069903556386e-10,0.8001636257865617,6.159069903556386e-10,0.001122224522323298,6.159069903556386e-10,0.0002607661276037519,6.159069903556386e-10,0.0006136860257442352
6.334911317680031e-10,0.02878125695106131,6.334911317680031e-10,0.7884288168630265,6.334911317680031e-10,0.001055873379340503,6.334911317680031e-10,0.0002578027137393915,6.334911317680031e-10,0.0005756251390212261
6.504129265463652e-10,0.02717942848711891,6.504129265463652e-10,0.7784191087390346,6.504129265463652e-10,0.0009977445566990632,6.504129265463652e-10,0.0002591832736640476,6.504129265463652e-10,0.0005435885697423782
6.666961738817831e-10,0.02585173548799865,6.666961738817831e-10,0.7700822867174636,6.666961738817831e-10,0.0009475169915690993,6.666961738817831e-10,0.0002644298637400902,6.666961738817831e-10,0.000517034709759973
6.824554404309873e-10,0.02476606610347942,6.824554404309873e-10,0.7633067959860105,6.824554404309873e-10,0.000904537765836277,6.824554404309873e-10,0.0002731166086102693,6.824554404309873e-10,0.0004953213220695885
6.977557936263503e-10,0.02389343796427264,6.977557936263503e-10,0.7580092895453907,6.977557936263503e-10,0.0008682713766151513,6.977557936263503e-10,0.0002852040653717436,6.977557936263503e-10,0.0004778687592854528
7.127432485911671e-10,0.0232264071597741,7.127432485911671e-10,0.7540911634726796,7.127432485911671e-10,0.0008384652008102104,7.127432485911671e-10,0.0002991537115643285,7.127432485911671e-10,0.0004645281431954821
7.271665251526651e-10,0.02274156151435435,7.271665251526651e-10,0.7515410615113789,7.271665251526651e-10,0.0008146415658186112,7.271665251526651e-10,0.0003164088700783939,7.271665251526651e-10,0.0004548312302870871
7.418634444903673e-10,0.02241081492770031,7.418634444903673e-10,0.7501959781219928,7.418634444903673e-10,0.0007960510410795555,7.418634444903673e-10,0.0003361712065792407,7.418634444903673e-10,0.0004482162985540063
7.559244429752563e-10,0.02225020601675707,7.559244429752563e-10,0.7501039120465262,7.559244429752563e-10,0.0007835364619880494,7.559244429752563e-10,0.0003574105888605778,7.559244429752563e-10,0.0004450041203351413
7.69826193238924e-10,0.0222416828523686,7.69826193238924e-10,0.7511623528329436,7.69826193238924e-10,0.0007763509099148143,7.69826193238924e-10,0.000380475903249576,7.69826193238924e-10,0.000444833657047372
7.836410130754956e-10,0.02238086937554336,7.836410130754956e-10,0.7533384245319996,7.836410130754956e-10,0.0007744140819665122,7.836410130754956e-10,0.0004053194340966462,7.836410130754956e-10,0.0004476173875108672
7.97288245181896e-10,0.02266195244368879,7.97288245181896e-10,0.7565724918277007,7.97288245181896e-10,0.0007776976468983254,7.97288245181896e-10,0.0004316521914716196,7.97288245181896e-10,0.0004532390488737758
8.107860091235634e-10,0.02307893676919108,8.107860091235634e-10,0.7608079320606215,8.107860091235634e-10,0.0007861258624822384,8.107860091235634e-10,0.0004593592389106308,8.107860091235634e-10,0.0004615787353838217
8.24155252557379e-10,0.02362643122591031,8.24155252557379e-10,0.7659894585262941,8.24155252557379e-10,0.0007996396809660081,8.24155252557379e-10,0.0004883464883017529,8.24155252557379e-10,0.0004725286245182062
8.37403744143336e-10,0.02430734225754864,8.37403744143336e-10,0.7720565981890731,8.37403744143336e-10,0.0008182978537828557,8.37403744143336e-10,0.0005179050455777626,8.37403744143336e-10,0.0004861468451509728
8.504449198536053e-10,0.02510455512142162,8.504449198536053e-10,0.7788943989766185,8.504449198536053e-10,0.0008415170275799245,8.504449198536053e-10,0.0005485662749906868,8.504449198536053e-10,0.0005020911024284324
8.636557138740927e-10,0.02605632826669863,8.636557138740927e-10,0.7866495074908358,8.636557138740927e-10,0.0008704435113348588,8.636557138740927e-10,0.0005793555780756999,8.636557138740927e-10,0.0005211265653339725
8.76493389324327e-10,0.02710644586148336,8.76493389324327e-10,0.7949338805791071,8.76493389324327e-10,0.0009030428877702921,8.76493389324327e-10,0.0006107770347226315,8.76493389324327e-10,0.0005421289172296672
8.898451958970698e-10,0.02833418555719264,8.898451958970698e-10,0.8042740293414048,8.898451958970698e-10,0.0009421417245404501,8.898451958970698e-10,0.0006433686469321488,8.898451958970698e-10,0.0005666837111438529
9.029360677052535e-10,0.02967106734786547,9.029360677052535e-10,0.8140857820654601,9.029360677052535e-10,0.0009852659332848935,9.029360677052535e-10,0.0006754458927462006,9.029360677052535e-10,0.0005934213469573094
9.161962044987002e-10,0.03115758792249339,9.161962044987002e-10,0.8246163324402817,9.161962044987002e-10,0.001033604198757249,9.161962044987002e-10,0.0007077504776832859,9.161962044987002e-10,0.0006231517584498679
9.29744784863529e-10,0.03281067092793678,9.29744784863529e-10,0.8359155462601771,9.29744784863529e-10,0.001087568997451343,9.29744784863529e-10,0.0007402783499338777,9.29744784863529e-10,0.0006562134185587355
9.435929906503794e-10,0.03463541274362539,9.435929906503794e-10,0.8479436352104125,9.435929906503794e-10,0.001147170946511532,9.435929906503794e-10,0.0007726995030415466,9.435929906503794e-10,0.0006927082548725078
9.578709058690456e-10,0.03665233380943866,9.578709058690456e-10,0.8607563305472716,9.578709058690456e-10,0.001212881966962009,9.578709058690456e-10,0.0008049139522760471,9.578709058690456e-10,0.0007330466761887733
9.727719576355789e-10,0.03889336236648184,9.727719576355789e-10,0.8744631698302292,9.727719576355789e-10,0.001285500821810075,9.727719576355789e-10,0.0008368490216646329,9.727719576355789e-10,0.0007778672473296368
9.88543434843197e-10,0.04140132492553648,9.88543434843197e-10,0.8892117641772799,9.88543434843197e-10,0.001366111798224529,9.88543434843197e-10,0.0008683521271338722,9.88543434843197e-10,0.0008280264985107297
1.004855033443362e-09,0.0441215432377701,1.004855033443362e-09,0.9045750515828521,1.004855033443362e-09,0.001452643989295411,1.004855033443362e-09,0.0008979541015078155,1.004855033443362e-09,0.0008824308647554021
1.021274840982082e-09,0.04696401136745052,1.021274840982082e-09,0.919991404236336,1.021274840982082e-09,0.001541956523392093,1.021274840982082e-09,0.0009242214769461806,1.021274840982082e-09,0.0009392802273490104
1.037827023241965e-09,0.04990538745942651,1.037827023241965e-09,0.9353164266655352,1.037827023241965e-09,0.001633061713878971,1.037827023241965e-09,0.0009467249445002262,1.037827023241965e-09,0.0009981077491885303
1.054691641859777e-09,0.05294643827545027,1.054691641859777e-09,0.9505371534133724,1.054691641859777e-09,0.001725742070388087,1.054691641859777e-09,0.0009651913467905408,1.054691641859777e-09,0.001058928765509006
1.071925088827663e-09,0.05606089446820103,1.071925088827663e-09,0.965503857822628,1.071925088827663e-09,0.001818976199529544,1.071925088827663e-09,0.000979080260737516,1.071925088827663e-09,0.00112121788936402
1.089549615913641e-09,0.05920913245161837,1.089549615913641e-09,0.9800153001207789,1.089549615913641e-09,0.001911385537602562,1.089549615913641e-09,0.0009878226570485048,1.089549615913641e-09,0.001184182649032367
1.10769345401721e-09,0.06236159169837602,1.10769345401721e-09,0.9939286219773861,1.10769345401721e-09,0.002001933982535438,1.10769345401721e-09,0.0009909120464208863,1.10769345401721e-09,0.001247231833967521
1.126176880627064e-09,0.06542671163830215,1.126176880627064e-09,1.006847421653731,1.126176880627064e-09,0.00208791939450949,1.126176880627064e-09,0.0009878684307260985,1.126176880627064e-09,0.001308534232766043
1.143177298531095e-09,0.06806827722655868,1.143177298531095e-09,1.017462616538042,1.143177298531095e-09,0.002160277867034147,1.143177298531095e-09,0.0009795924127666501,1.143177298531095e-09,0.001361365544531174
