;Version, 1, 0
;ac_out (VCTRL=0.1),;ac_out (VCTRL=0.01),;ac_out (VCTRL=0.02),;ac_out (VCTRL=0.03),;ac_out (VCTRL=0.04),;ac_out (VCTRL=0.05),;ac_out (VCTRL=0.06),;ac_out (VCTRL=0.07),;ac_out (VCTRL=0.08),;ac_out (VCTRL=0.09)
;X, Y,;X, Y,;X, Y,;X, Y,;X, Y,;X, Y,;X, Y,;X, Y,;X, Y,;X, Y
;Re, Re,;Re, Re,;Re, Re,;Re, Re,;Re, Re,;Re, Re,;Re, Re,;Re, Re,;Re, Re,;Re, Re
;freq, V,;freq, V,;freq, V,;freq, V,;freq, V,;freq, V,;freq, V,;freq, V,;freq, V,;freq, V
;Hz, dB,;Hz, dB,;Hz, dB,;Hz, dB,;Hz, dB,;Hz, dB,;Hz, dB,;Hz, dB,;Hz, dB,;Hz, dB
1,23.88488759830722,1,3.537954553955891,1,9.781980054949006,1,13.65597709464615,1,16.59046078295726,1,18.95875809725278,1,20.83361511685801,1,22.19934834208293,1,23.08564241909717,1,23.60288450081224
1.023292992280754,23.88488759830722,1.023292992280754,3.537954553955891,1.023292992280754,9.781980054949006,1.023292992280754,13.65597709464615,1.023292992280754,16.59046078295726,1.023292992280754,18.95875809725278,1.023292992280754,20.83361511685801,1.023292992280754,22.19934834208293,1.023292992280754,23.08564241909717,1.023292992280754,23.60288450081224
1.047128548050899,23.88488759830722,1.047128548050899,3.537954553955886,1.047128548050899,9.781980054949004,1.047128548050899,13.65597709464615,1.047128548050899,16.59046078295725,1.047128548050899,18.95875809725278,1.047128548050899,20.83361511685801,1.047128548050899,22.19934834208293,1.047128548050899,23.08564241909717,1.047128548050899,23.60288450081224
1.071519305237606,23.88488759830723,1.071519305237606,3.537954553955891,1.071519305237606,9.781980054949004,1.071519305237606,13.65597709464615,1.071519305237606,16.59046078295725,1.071519305237606,18.95875809725278,1.071519305237606,20.83361511685801,1.071519305237606,22.19934834208293,1.071519305237606,23.08564241909717,1.071519305237606,23.60288450081224
1.096478196143185,23.88488759830723,1.096478196143185,3.537954553955891,1.096478196143185,9.781980054949004,1.096478196143185,13.65597709464615,1.096478196143185,16.59046078295725,1.096478196143185,18.95875809725278,1.096478196143185,20.83361511685801,1.096478196143185,22.19934834208293,1.096478196143185,23.08564241909717,1.096478196143185,23.60288450081224
1.122018454301963,23.88488759830723,1.122018454301963,3.537954553955899,1.122018454301963,9.781980054949004,1.122018454301963,13.65597709464615,1.122018454301963,16.59046078295726,1.122018454301963,18.95875809725278,1.122018454301963,20.83361511685801,1.122018454301963,22.19934834208293,1.122018454301963,23.08564241909717,1.122018454301963,23.60288450081224
1.148153621496882,23.88488759830723,1.148153621496882,3.537954553955899,1.148153621496882,9.781980054949004,1.148153621496882,13.65597709464615,1.148153621496882,16.59046078295726,1.148153621496882,18.95875809725278,1.148153621496882,20.83361511685801,1.148153621496882,22.19934834208293,1.148153621496882,23.08564241909717,1.148153621496882,23.60288450081224
1.174897554939529,23.88488759830723,1.174897554939529,3.537954553955901,1.174897554939529,9.781980054949004,1.174897554939529,13.65597709464616,1.174897554939529,16.59046078295726,1.174897554939529,18.95875809725278,1.174897554939529,20.83361511685801,1.174897554939529,22.19934834208293,1.174897554939529,23.08564241909717,1.174897554939529,23.60288450081224
1.202264434617413,23.88488759830723,1.202264434617413,3.537954553955894,1.202264434617413,9.781980054949003,1.202264434617413,13.65597709464616,1.202264434617413,16.59046078295726,1.202264434617413,18.95875809725278,1.202264434617413,20.833615116858,1.202264434617413,22.19934834208295,1.202264434617413,23.08564241909717,1.202264434617413,23.60288450081224
1.230268770812381,23.88488759830723,1.230268770812381,3.537954553955894,1.230268770812381,9.781980054949003,1.230268770812381,13.65597709464616,1.230268770812381,16.59046078295725,1.230268770812381,18.95875809725278,1.230268770812381,20.833615116858,1.230268770812381,22.19934834208294,1.230268770812381,23.08564241909717,1.230268770812381,23.60288450081224
1.258925411794167,23.88488759830723,1.258925411794167,3.537954553955891,1.258925411794167,9.781980054949004,1.258925411794167,13.65597709464616,1.258925411794167,16.59046078295725,1.258925411794167,18.95875809725278,1.258925411794167,20.83361511685801,1.258925411794167,22.19934834208294,1.258925411794167,23.08564241909717,1.258925411794167,23.60288450081224
1.288249551693134,23.88488759830723,1.288249551693134,3.537954553955896,1.288249551693134,9.781980054949006,1.288249551693134,13.65597709464616,1.288249551693134,16.59046078295726,1.288249551693134,18.95875809725278,1.288249551693134,20.83361511685801,1.288249551693134,22.19934834208294,1.288249551693134,23.08564241909717,1.288249551693134,23.60288450081224
1.318256738556407,23.88488759830723,1.318256738556407,3.537954553955899,1.318256738556407,9.781980054949004,1.318256738556407,13.65597709464616,1.318256738556407,16.59046078295726,1.318256738556407,18.95875809725278,1.318256738556407,20.83361511685801,1.318256738556407,22.19934834208295,1.318256738556407,23.08564241909717,1.318256738556407,23.60288450081224
1.348962882591653,23.88488759830723,1.348962882591653,3.5379545539559,1.348962882591653,9.781980054949004,1.348962882591653,13.65597709464616,1.348962882591653,16.59046078295725,1.348962882591653,18.95875809725278,1.348962882591653,20.83361511685801,1.348962882591653,22.19934834208295,1.348962882591653,23.08564241909717,1.348962882591653,23.60288450081224
1.380384264602885,23.88488759830723,1.380384264602885,3.537954553955898,1.380384264602885,9.781980054949008,1.380384264602885,13.65597709464616,1.380384264602885,16.59046078295725,1.380384264602885,18.95875809725278,1.380384264602885,20.83361511685801,1.380384264602885,22.19934834208294,1.380384264602885,23.08564241909717,1.380384264602885,23.60288450081224
1.412537544622754,23.88488759830723,1.412537544622754,3.537954553955898,1.412537544622754,9.781980054949006,1.412537544622754,13.65597709464616,1.412537544622754,16.59046078295725,1.412537544622754,18.95875809725278,1.412537544622754,20.83361511685801,1.412537544622754,22.19934834208294,1.412537544622754,23.08564241909717,1.412537544622754,23.60288450081224
1.445439770745927,23.88488759830723,1.445439770745927,3.537954553955898,1.445439770745927,9.781980054949004,1.445439770745927,13.65597709464615,1.445439770745927,16.59046078295725,1.445439770745927,18.95875809725278,1.445439770745927,20.83361511685801,1.445439770745927,22.19934834208294,1.445439770745927,23.08564241909717,1.445439770745927,23.60288450081224
1.479108388168207,23.88488759830723,1.479108388168207,3.537954553955896,1.479108388168207,9.781980054949004,1.479108388168207,13.65597709464615,1.479108388168207,16.59046078295726,1.479108388168207,18.95875809725278,1.479108388168207,20.83361511685801,1.479108388168207,22.19934834208294,1.479108388168207,23.08564241909717,1.479108388168207,23.60288450081224
1.513561248436208,23.88488759830722,1.513561248436208,3.537954553955894,1.513561248436208,9.781980054949011,1.513561248436208,13.65597709464616,1.513561248436208,16.59046078295726,1.513561248436208,18.95875809725278,1.513561248436208,20.83361511685801,1.513561248436208,22.19934834208294,1.513561248436208,23.08564241909717,1.513561248436208,23.60288450081224
1.548816618912481,23.88488759830722,1.548816618912481,3.537954553955894,1.548816618912481,9.781980054949006,1.548816618912481,13.65597709464616,1.548816618912481,16.59046078295726,1.548816618912481,18.95875809725278,1.548816618912481,20.83361511685801,1.548816618912481,22.19934834208294,1.548816618912481,23.08564241909717,1.548816618912481,23.60288450081224
1.584893192461113,23.88488759830722,1.584893192461113,3.537954553955894,1.584893192461113,9.781980054949004,1.584893192461113,13.65597709464616,1.584893192461113,16.59046078295726,1.584893192461113,18.95875809725278,1.584893192461113,20.83361511685801,1.584893192461113,22.19934834208294,1.584893192461113,23.08564241909717,1.584893192461113,23.60288450081224
1.621810097358929,23.88488759830722,1.621810097358929,3.537954553955891,1.621810097358929,9.781980054949004,1.621810097358929,13.65597709464616,1.621810097358929,16.59046078295726,1.621810097358929,18.95875809725278,1.621810097358929,20.83361511685801,1.621810097358929,22.19934834208294,1.621810097358929,23.08564241909717,1.621810097358929,23.60288450081224
1.65958690743756,23.88488759830722,1.65958690743756,3.537954553955891,1.65958690743756,9.781980054949011,1.65958690743756,13.65597709464616,1.65958690743756,16.59046078295725,1.65958690743756,18.95875809725278,1.65958690743756,20.833615116858,1.65958690743756,22.19934834208294,1.65958690743756,23.08564241909717,1.65958690743756,23.60288450081224
1.698243652461743,23.88488759830722,1.698243652461743,3.5379545539559,1.698243652461743,9.781980054949013,1.698243652461743,13.65597709464616,1.698243652461743,16.59046078295726,1.698243652461743,18.95875809725278,1.698243652461743,20.83361511685801,1.698243652461743,22.19934834208294,1.698243652461743,23.08564241909717,1.698243652461743,23.60288450081224
1.737800828749374,23.88488759830722,1.737800828749374,3.537954553955898,1.737800828749374,9.781980054949004,1.737800828749374,13.65597709464615,1.737800828749374,16.59046078295726,1.737800828749374,18.95875809725278,1.737800828749374,20.833615116858,1.737800828749374,22.19934834208294,1.737800828749374,23.08564241909717,1.737800828749374,23.60288450081224
1.778279410038922,23.88488759830722,1.778279410038922,3.537954553955899,1.778279410038922,9.781980054949006,1.778279410038922,13.65597709464615,1.778279410038922,16.59046078295726,1.778279410038922,18.95875809725278,1.778279410038922,20.83361511685801,1.778279410038922,22.19934834208294,1.778279410038922,23.08564241909717,1.778279410038922,23.60288450081224
1.819700858609982,23.88488759830722,1.819700858609982,3.537954553955901,1.819700858609982,9.781980054949008,1.819700858609982,13.65597709464616,1.819700858609982,16.59046078295727,1.819700858609982,18.95875809725278,1.819700858609982,20.83361511685801,1.819700858609982,22.19934834208294,1.819700858609982,23.08564241909717,1.819700858609982,23.60288450081224
1.862087136662866,23.88488759830723,1.862087136662866,3.537954553955907,1.862087136662866,9.781980054949008,1.862087136662866,13.65597709464616,1.862087136662866,16.59046078295727,1.862087136662866,18.95875809725278,1.862087136662866,20.83361511685801,1.862087136662866,22.19934834208294,1.862087136662866,23.08564241909718,1.862087136662866,23.60288450081224
1.905460717963246,23.88488759830723,1.905460717963246,3.537954553955907,1.905460717963246,9.781980054949013,1.905460717963246,13.65597709464616,1.905460717963246,16.59046078295727,1.905460717963246,18.95875809725277,1.905460717963246,20.833615116858,1.905460717963246,22.19934834208294,1.905460717963246,23.08564241909717,1.905460717963246,23.60288450081224
1.949844599758044,23.88488759830723,1.949844599758044,3.537954553955904,1.949844599758044,9.781980054949008,1.949844599758044,13.65597709464616,1.949844599758044,16.59046078295727,1.949844599758044,18.95875809725278,1.949844599758044,20.83361511685801,1.949844599758044,22.19934834208294,1.949844599758044,23.08564241909717,1.949844599758044,23.60288450081223
1.995262314968878,23.88488759830723,1.995262314968878,3.537954553955899,1.995262314968878,9.781980054949011,1.995262314968878,13.65597709464616,1.995262314968878,16.59046078295727,1.995262314968878,18.95875809725278,1.995262314968878,20.83361511685801,1.995262314968878,22.19934834208294,1.995262314968878,23.08564241909717,1.995262314968878,23.60288450081224
2.041737944669527,23.88488759830723,2.041737944669527,3.537954553955896,2.041737944669527,9.781980054949011,2.041737944669527,13.65597709464616,2.041737944669527,16.59046078295727,2.041737944669527,18.95875809725278,2.041737944669527,20.83361511685801,2.041737944669527,22.19934834208294,2.041737944669527,23.08564241909717,2.041737944669527,23.60288450081224
2.089296130854037,23.88488759830723,2.089296130854037,3.537954553955898,2.089296130854037,9.781980054949011,2.089296130854037,13.65597709464616,2.089296130854037,16.59046078295727,2.089296130854037,18.95875809725278,2.089296130854037,20.83361511685801,2.089296130854037,22.19934834208294,2.089296130854037,23.08564241909717,2.089296130854037,23.60288450081224
2.13796208950223,23.88488759830723,2.13796208950223,3.537954553955905,2.13796208950223,9.781980054949011,2.13796208950223,13.65597709464616,2.13796208950223,16.59046078295727,2.13796208950223,18.95875809725278,2.13796208950223,20.83361511685801,2.13796208950223,22.19934834208294,2.13796208950223,23.08564241909717,2.13796208950223,23.60288450081224
2.18776162394955,23.88488759830723,2.18776162394955,3.537954553955904,2.18776162394955,9.781980054949015,2.18776162394955,13.65597709464615,2.18776162394955,16.59046078295728,2.18776162394955,18.95875809725278,2.18776162394955,20.83361511685801,2.18776162394955,22.19934834208293,2.18776162394955,23.08564241909718,2.18776162394955,23.60288450081224
2.238721138568337,23.88488759830723,2.238721138568337,3.537954553955895,2.238721138568337,9.781980054949008,2.238721138568337,13.65597709464616,2.238721138568337,16.59046078295727,2.238721138568337,18.95875809725278,2.238721138568337,20.83361511685801,2.238721138568337,22.19934834208295,2.238721138568337,23.08564241909717,2.238721138568337,23.60288450081224
2.29086765276777,23.88488759830723,2.29086765276777,3.537954553955904,2.29086765276777,9.781980054949004,2.29086765276777,13.65597709464616,2.29086765276777,16.59046078295727,2.29086765276777,18.95875809725278,2.29086765276777,20.83361511685801,2.29086765276777,22.19934834208295,2.29086765276777,23.08564241909717,2.29086765276777,23.60288450081224
2.344228815319919,23.88488759830723,2.344228815319919,3.537954553955904,2.344228815319919,9.781980054949004,2.344228815319919,13.65597709464616,2.344228815319919,16.59046078295727,2.344228815319919,18.95875809725279,2.344228815319919,20.83361511685801,2.344228815319919,22.19934834208295,2.344228815319919,23.08564241909717,2.344228815319919,23.60288450081224
2.398832919019488,23.88488759830723,2.398832919019488,3.537954553955904,2.398832919019488,9.781980054949006,2.398832919019488,13.65597709464616,2.398832919019488,16.59046078295728,2.398832919019488,18.95875809725278,2.398832919019488,20.83361511685801,2.398832919019488,22.19934834208295,2.398832919019488,23.08564241909717,2.398832919019488,23.60288450081224
2.454708915685027,23.88488759830723,2.454708915685027,3.537954553955909,2.454708915685027,9.781980054949011,2.454708915685027,13.65597709464615,2.454708915685027,16.59046078295728,2.454708915685027,18.95875809725278,2.454708915685027,20.83361511685801,2.454708915685027,22.19934834208295,2.454708915685027,23.08564241909717,2.454708915685027,23.60288450081224
2.511886431509577,23.88488759830723,2.511886431509577,3.537954553955904,2.511886431509577,9.781980054949006,2.511886431509577,13.65597709464616,2.511886431509577,16.59046078295728,2.511886431509577,18.95875809725278,2.511886431509577,20.83361511685801,2.511886431509577,22.19934834208295,2.511886431509577,23.08564241909718,2.511886431509577,23.60288450081224
2.57039578276886,23.88488759830723,2.57039578276886,3.537954553955915,2.57039578276886,9.781980054949006,2.57039578276886,13.65597709464615,2.57039578276886,16.59046078295728,2.57039578276886,18.95875809725278,2.57039578276886,20.83361511685801,2.57039578276886,22.19934834208295,2.57039578276886,23.08564241909718,2.57039578276886,23.60288450081224
2.630267991895378,23.88488759830723,2.630267991895378,3.537954553955915,2.630267991895378,9.781980054949011,2.630267991895378,13.65597709464616,2.630267991895378,16.59046078295728,2.630267991895378,18.95875809725279,2.630267991895378,20.83361511685801,2.630267991895378,22.19934834208295,2.630267991895378,23.08564241909718,2.630267991895378,23.60288450081224
2.691534803926912,23.88488759830723,2.691534803926912,3.537954553955907,2.691534803926912,9.781980054949003,2.691534803926912,13.65597709464616,2.691534803926912,16.59046078295728,2.691534803926912,18.95875809725278,2.691534803926912,20.833615116858,2.691534803926912,22.19934834208294,2.691534803926912,23.08564241909717,2.691534803926912,23.60288450081224
2.754228703338163,23.88488759830723,2.754228703338163,3.537954553955907,2.754228703338163,9.781980054949004,2.754228703338163,13.65597709464616,2.754228703338163,16.59046078295728,2.754228703338163,18.95875809725278,2.754228703338163,20.833615116858,2.754228703338163,22.19934834208294,2.754228703338163,23.08564241909717,2.754228703338163,23.60288450081224
2.81838293126445,23.88488759830723,2.81838293126445,3.537954553955905,2.81838293126445,9.781980054949006,2.81838293126445,13.65597709464616,2.81838293126445,16.59046078295728,2.81838293126445,18.95875809725278,2.81838293126445,20.833615116858,2.81838293126445,22.19934834208295,2.81838293126445,23.08564241909718,2.81838293126445,23.60288450081224
2.884031503126602,23.88488759830724,2.884031503126602,3.537954553955901,2.884031503126602,9.781980054949011,2.884031503126602,13.65597709464616,2.884031503126602,16.59046078295728,2.884031503126602,18.95875809725278,2.884031503126602,20.833615116858,2.884031503126602,22.19934834208295,2.884031503126602,23.08564241909718,2.884031503126602,23.60288450081224
2.951209226666381,23.88488759830724,2.951209226666381,3.537954553955896,2.951209226666381,9.781980054949006,2.951209226666381,13.65597709464616,2.951209226666381,16.59046078295728,2.951209226666381,18.95875809725278,2.951209226666381,20.83361511685801,2.951209226666381,22.19934834208295,2.951209226666381,23.08564241909718,2.951209226666381,23.60288450081224
3.019951720402012,23.88488759830723,3.019951720402012,3.537954553955903,3.019951720402012,9.781980054949011,3.019951720402012,13.65597709464616,3.019951720402012,16.59046078295727,3.019951720402012,18.95875809725278,3.019951720402012,20.83361511685801,3.019951720402012,22.19934834208295,3.019951720402012,23.08564241909718,3.019951720402012,23.60288450081224
3.090295432513586,23.88488759830724,3.090295432513586,3.537954553955892,3.090295432513586,9.781980054949011,3.090295432513586,13.65597709464616,3.090295432513586,16.59046078295727,3.090295432513586,18.95875809725279,3.090295432513586,20.83361511685801,3.090295432513586,22.19934834208295,3.090295432513586,23.08564241909718,3.090295432513586,23.60288450081225
3.162277660168374,23.88488759830724,3.162277660168374,3.537954553955905,3.162277660168374,9.781980054949017,3.162277660168374,13.65597709464616,3.162277660168374,16.59046078295727,3.162277660168374,18.95875809725279,3.162277660168374,20.83361511685801,3.162277660168374,22.19934834208295,3.162277660168374,23.08564241909718,3.162277660168374,23.60288450081225
3.235936569296277,23.88488759830723,3.235936569296277,3.5379545539559,3.235936569296277,9.781980054949008,3.235936569296277,13.65597709464616,3.235936569296277,16.59046078295727,3.235936569296277,18.95875809725278,3.235936569296277,20.83361511685801,3.235936569296277,22.19934834208295,3.235936569296277,23.08564241909718,3.235936569296277,23.60288450081225
3.311311214825905,23.88488759830723,3.311311214825905,3.537954553955894,3.311311214825905,9.781980054949004,3.311311214825905,13.65597709464616,3.311311214825905,16.59046078295727,3.311311214825905,18.95875809725278,3.311311214825905,20.83361511685801,3.311311214825905,22.19934834208295,3.311311214825905,23.08564241909718,3.311311214825905,23.60288450081226
3.38844156139202,23.88488759830723,3.38844156139202,3.537954553955899,3.38844156139202,9.781980054949008,3.38844156139202,13.65597709464616,3.38844156139202,16.59046078295727,3.38844156139202,18.95875809725279,3.38844156139202,20.83361511685801,3.38844156139202,22.19934834208295,3.38844156139202,23.08564241909718,3.38844156139202,23.60288450081225
