;Version, 1, 0
;ac_phase (VCTRL=0.1),;ac_phase (VCTRL=0.01),;ac_phase (VCTRL=0.02),;ac_phase (VCTRL=0.03),;ac_phase (VCTRL=0.04),;ac_phase (VCTRL=0.05),;ac_phase (VCTRL=0.06),;ac_phase (VCTRL=0.07),;ac_phase (VCTRL=0.08),;ac_phase (VCTRL=0.09)
;X, Y,;X, Y,;X, Y,;X, Y,;X, Y,;X, Y,;X, Y,;X, Y,;X, Y,;X, Y
;Re, Re,;Re, Re,;Re, Re,;Re, Re,;Re, Re,;Re, Re,;Re, Re,;Re, Re,;Re, Re,;Re, Re
;freq, V,;freq, V,;freq, V,;freq, V,;freq, V,;freq, V,;freq, V,;freq, V,;freq, V,;freq, V
;Hz, deg,;Hz, deg,;Hz, deg,;Hz, deg,;Hz, deg,;Hz, deg,;Hz, deg,;Hz, deg,;Hz, deg,;Hz, deg
1,8.300903150209649e-08,1,2.168498178271957e-08,1,2.338272965342548e-08,1,2.693158475654058e-08,1,3.327169870566413e-08,1,4.307586540384579e-08,1,5.560508170167423e-08,1,6.806623942860378e-08,1,7.725501147038114e-08,1,8.196487350769184e-08
1.023292992280754,8.494256023210767e-08,1.023292992280754,2.219008989599206e-08,1.023292992280754,2.392738339474572e-08,1.023292992280754,2.755890195238309e-08,1.023292992280754,3.404669612678259e-08,1.023292992280754,4.407923120418423e-08,1.023292992280754,5.690029044052181e-08,1.023292992280754,6.965170581819429e-08,1.023292992280754,7.905451185621018e-08,1.023292992280754,8.387408067359942e-08
1.047128548050899,8.692112663190157e-08,1.047128548050899,2.270696348864884e-08,1.047128548050899,2.448472375145821e-08,1.047128548050899,2.820083124282613e-08,1.047128548050899,3.483974555684869e-08,1.047128548050899,4.51059683963646e-08,1.047128548050899,5.822566846652537e-08,1.047128548050899,7.127410246415864e-08,1.047128548050899,8.089592799063558e-08,1.047128548050899,8.582775898728486e-08
1.071519305237606,8.894577976357303e-08,1.071519305237606,2.323587661390904e-08,1.071519305237606,2.505504623279752e-08,1.071519305237606,2.885771298727593e-08,1.071519305237606,3.565126748116814e-08,1.071519305237606,4.615662137003715e-08,1.071519305237606,5.958191851265807e-08,1.071519305237606,7.293428958267429e-08,1.071519305237606,8.278023621686589e-08,1.071519305237606,8.782694431485017e-08
1.096478196143185,9.101759312501155e-08,1.096478196143185,2.377710970851306e-08,1.096478196143185,2.563865323129148e-08,1.096478196143185,2.952989547312882e-08,1.096478196143185,3.648169217940584e-08,1.096478196143185,4.723174719531513e-08,1.096478196143185,6.096975968064587e-08,1.096478196143185,7.463314742692563e-08,1.096478196143185,8.470843562006427e-08,1.096478196143185,8.987269665081807e-08
1.122018454301963,9.313766521908545e-08,1.122018454301963,2.433094974141287e-08,1.122018454301963,2.623585418309671e-08,1.122018454301963,3.021773510043553e-08,1.122018454301963,3.733145995372969e-08,1.122018454301963,4.833191591814242e-08,1.122018454301963,6.238992782224654e-08,1.122018454301963,7.637157675382923e-08,1.122018454301963,8.668154855707731e-08,1.122018454301963,9.196610068015612e-08
1.148153621496882,9.530712013608073e-08,1.148153621496882,2.489769036592243e-08,1.148153621496882,2.684696573206299e-08,1.148153621496882,3.092159657087229e-08,1.148153621496882,3.820102136226118e-08,1.148153621496882,4.945771086253739e-08,1.148153621496882,6.384317592940691e-08,1.148153621496882,7.815049930162535e-08,1.148153621496882,8.870062119850087e-08,1.148153621496882,9.410826635339006e-08
1.174897554939529,9.752710814971142e-08,1.174897554939529,2.547763207542431e-08,1.174897554939529,2.747231189762103e-08,1.174897554939529,3.164185308110616e-08,1.174897554939529,3.909083745796941e-08,1.174897554939529,5.060972893988234e-08,1.174897554939529,6.533027453350938e-08,1.174897554939529,7.997085827859514e-08,1.174897554939529,9.076672408337587e-08,1.174897554939529,9.630032947511474e-08
1.202264434617413,9.979880632700707e-08,1.202264434617413,2.607108236268957e-08,1.202264434617413,2.811222424658708e-08,1.202264434617413,3.237888652067326e-08,1.202264434617413,4.000138003312584e-08,1.202264434617413,5.178858096540993e-08,1.202264434617413,6.685201211391812e-08,1.202264434617413,8.1833618863164e-08,1.202264434617413,9.288095268679931e-08,1.202264434617413,9.854345230621273e-08
1.230268770812381,1.021234191524105e-07,1.230268770812381,2.667835588291373e-08,1.230268770812381,2.876704206895754e-08,1.230268770812381,3.313308767445877e-08,1.230268770812381,4.09331318694571e-08,1.230268770812381,5.299489198206883e-08,1.230268770812381,6.840919551604024e-08,1.230268770812381,8.373976871565006e-08,1.230268770812381,9.504442800076191e-08,1.230268770812381,1.008388241801e-07
1.258925411794167,1.045021791664117e-07,1.258925411794167,2.729977462055824e-08,1.258925411794167,2.943711255781002e-08,1.258925411794167,3.390485642989754e-08,1.258925411794167,4.188658699411944e-08,1.258925411794167,5.422930159192669e-08,1.258925411794167,7.000265037912816e-08,1.258925411794167,8.569031850193575e-08,1.258925411794167,9.725829712851244e-08,1.258925411794167,1.031876621333272e-07
1.288249551693134,1.069363476190572e-07,1.288249551693134,2.793566806006229e-08,1.288249551693134,3.012279099338667e-08,1.288249551693134,3.469460198899923e-08,1.288249551693134,4.286225094164062e-08,1.288249551693134,5.549246429529776e-08,1.288249551693134,7.163322157404149e-08,1.288249551693134,8.768630242933644e-08,1.288249551693134,9.952373389276618e-08,1.288249551693134,1.055912115508677e-07
1.318256738556407,1.094272151386798e-07,1.318256738556407,2.858637336054263e-08,1.318256738556407,3.08244409314701e-08,1.318256738556407,3.55027430853124e-08,1.318256738556407,4.386064102196007e-08,1.318256738556407,5.678504983776806e-08,1.318256738556407,7.330177365121166e-08,1.318256738556407,8.97287787949509e-08,1.318256738556407,1.018419394580822e-07,1.318256738556407,1.080507468264375e-07
1.348962882591653,1.119761024162094e-07,1.348962882591653,2.925223553456406e-08,1.348962882591653,3.154243439614581e-08,1.348962882591653,3.632970820594438e-08,1.348962882591653,4.488228659471291e-08,1.348962882591653,5.810774356530164e-08,1.348962882591653,7.500919129903439e-08,1.348962882591653,9.181883054678323e-08,1.348962882591653,1.042141429677361e-07,1.348962882591653,1.105675720381955e-07
1.380384264602885,1.145843609054192e-07,1.380384264602885,2.993360763106649e-08,1.380384264602885,3.227715207705174e-08,1.380384264602885,3.717593581874738e-08,1.380384264602885,4.592772934990636e-08,1.380384264602885,5.946124678761986e-08,1.380384264602885,7.675637981294818e-08,1.380384264602885,9.395756585793722e-08,1.380384264602885,1.066416021954288e-07,1.380384264602885,1.131430216401829e-07
1.412537544622754,1.172533735394842e-07,1.412537544622754,3.063085092255169e-08,1.412537544622754,3.302898353122704e-08,1.412537544622754,3.804187460480321e-08,1.412537544622754,4.69975235951264e-08,1.412537544622754,6.084627715004794e-08,1.412537544622754,7.854426557542968e-08,1.412537544622754,9.614611871418454e-08,1.412537544622754,1.091256042121742e-07,1.412537544622754,1.157784611698691e-07
1.445439770745927,1.199845554642318e-07,1.445439770745927,3.134433509664257e-08,1.445439770745927,3.379832738966082e-08,1.445439770745927,3.89279836963182e-08,1.445439770745927,4.809223654944235e-08,1.445439770745927,6.226356901401685e-08,1.445439770745927,8.037379654717576e-08,1.445439770745927,9.838564951521837e-08,1.445439770745927,1.11667466068721e-07,1.445439770745927,1.184752879721764e-07
1.479108388168207,1.227793547884696e-07,1.479108388168207,3.207443845209506e-08,1.479108388168207,3.458559156865086e-08,1.479108388168207,3.98347329200617e-08,1.479108388168207,4.921244864415303e-08,1.479108388168207,6.371387384643257e-08,1.479108388168207,8.224594276972406e-08,1.479108388168207,1.006773456899132e-07,1.479108388168207,1.142685354938709e-07,1.479108388168207,1.212349319403724e-07
1.513561248436208,1.256392533517937e-07,1.513561248436208,3.282154809936849e-08,1.513561248436208,3.539119348608545e-08,1.513561248436208,4.07626030464752e-08,1.513561248436208,5.03587538305384e-08,1.513561248436208,6.519796061811459e-08,1.513561248436208,8.41616968797822e-08,1.513561248436208,1.030224223259154e-07,1.513561248436208,1.169301916090627e-07,1.513561248436208,1.24058856274217e-07
1.548816618912481,1.285657675102763e-07,1.548816618912481,3.358606016588819e-08,1.548816618912481,3.621556028276289e-08,1.548816618912481,4.17120860445801e-08,1.548816618912481,5.153175989478069e-08,1.548816618912481,6.671661621151282e-08,1.548816618912481,8.612207463553845e-08,1.548816618912481,1.054221228138971e-07,1.548816618912481,1.196538456595996e-07,1.548816618912481,1.269485582557715e-07
1.584893192461113,1.315604489404624e-07,1.584893192461113,3.436838000607355e-08,1.584893192461113,3.705912904887215e-08,1.584893192461113,4.268368534283041e-08,1.584893192461113,5.273208878022379e-08,1.584893192461113,6.82706458379257e-08,1.584893192461113,8.812811545522679e-08,1.584893192461113,1.078777195068224e-07,1.584893192461113,1.224409417629112e-07,1.584893192461113,1.299055700432761e-07
1.621810097358929,1.346248854620849e-07,1.621810097358929,3.516892241625696e-08,1.621810097358929,3.79223470557393e-08,1.621810097358929,4.367791609603472e-08,1.621810097358929,5.39603769171294e-08,1.621810097358929,6.986087346443049e-08,1.621810097358929,9.018088296824233e-08,1.621810097358929,1.103905143945596e-07,1.621810097358929,1.252929576742431e-07,1.621810097358929,1.329314594835209e-07
1.65958690743756,1.377607018799505e-07,1.65958690743756,3.598811185462129e-08,1.65958690743756,3.880567199297624e-08,1.65958690743756,4.469530545849927e-08,1.65958690743756,5.521727556012679e-08,1.65958690743756,7.148814225076405e-08,1.65958690743756,9.228146557909337e-08,1.65958690743756,1.129618397942203e-07,1.65958690743756,1.282114055701815e-07,1.65958690743756,1.360278309431402e-07
1.698243652461743,1.409695608454312e-07,1.698243652461743,3.682638266625042e-08,1.698243652461743,3.970957221115787e-08,1.698243652461743,4.573639286353001e-08,1.698243652461743,5.650345113351349e-08,1.698243652461743,7.315331499637658e-08,1.698243652461743,9.443097704448384e-08,1.698243652461743,1.155930590565675e-07,1.698243652461743,1.311978328504324e-07,1.698243652461743,1.39196326159266e-07
1.737800828749374,1.442531637380251e-07,1.737800828749374,3.768417931342317e-08,1.737800828749374,4.063452697014439e-08,1.737800828749374,4.680173030944955e-08,1.737800828749374,5.781958558460206e-08,1.737800828749374,7.485727459789893e-08,1.737800828749374,9.66305570638452e-08,1.737800828749374,1.182855672888806e-07,1.737800828749374,1.342538229582692e-07,1.737800828749374,1.424386251100033e-07
1.778279410038922,1.476132515674493e-07,1.778279410038922,3.85619566112776e-08,1.778279410038922,4.158102669319206e-08,1.778279410038922,4.789188265227362e-08,1.778279410038922,5.916637674530043e-08,1.778279410038922,7.660092451726567e-08,1.778279410038922,9.888137188361854e-08,1.778279410038922,1.21040792094665e-07,1.778279410038922,1.373809962200977e-07,1.778279410038922,1.457564469051715e-07
1.819700858609982,1.510516058967471e-07,1.819700858609982,3.946017996895517e-08,1.819700858609982,4.254957322698292e-08,1.819700858609982,4.900742790520381e-08,1.819700858609982,6.054453870210984e-08,1.819700858609982,7.838518926074511e-08,1.819700858609982,1.01184614915614e-07,1.819700858609982,1.238601943305824e-07,1.819700858609982,1.405810107045753e-07,1.819700858609982,1.491515506978042e-07
1.862087136662866,1.545700497868958e-07,1.862087136662866,4.037932563637008e-08,1.862087136662866,4.35406801077084e-08,1.862087136662866,5.014895754509952e-08,1.862087136662866,6.195480217473957e-08,1.862087136662866,8.021101486912076e-08,1.862087136662866,1.035415073697745e-07,1.862087136662866,1.26745268881017e-07,1.862087136662866,1.438555631017377e-07,1.862087136662866,1.526257366168702e-07
1.905460717963246,1.581704487634174e-07,1.905460717963246,4.131988095672061e-08,1.905460717963246,4.455487283335517e-08,1.905460717963246,5.131707682608506e-08,1.905460717963246,6.339791490355116e-08,1.905460717963246,8.207936941929855e-08,1.905460717963246,1.05953298901676e-07,1.905460717963246,1.296975454506844e-07,1.905460717963246,1.472063896226096e-07,1.905460717963246,1.561808467217315e-07
1.949844599758044,1.618547118055072e-07,1.949844599758044,4.228234462488578e-08,1.949844599758044,4.559268914233309e-08,1.949844599758044,5.251240510046578e-08,1.949844599758044,6.487464204601552e-08,1.949844599758044,8.399124353759145e-08,1.949844599758044,1.084212682751131e-07,1.949844599758044,1.327185893756999e-07,1.949844599758044,1.506352669197667e-07,1.949844599758044,1.59818765978822e-07
1.995262314968878,1.656247923581962e-07,1.995262314968878,4.326722695184532e-08,1.995262314968878,4.66546792985838e-08,1.995262314968878,5.373557614711442e-08,1.995262314968878,6.638576658240976e-08,1.995262314968878,8.594765092496323e-08,1.995262314968878,1.109467240401141e-07,1.995262314968878,1.358100024535405e-07,1.995262314968878,1.541440130293378e-07,1.995262314968878,1.635414232610865e-07
2.041737944669527,1.694826893680966e-07,2.041737944669527,4.42750501352436e-08,2.041737944669527,4.774140638334668e-08,2.041737944669527,5.49872385075114e-08,2.041737944669527,6.793208973096609e-08,2.041737944669527,8.79496288945079e-08,2.041737944669527,1.135310052267561e-07,2.041737944669527,1.3897342379234e-07,2.041737944669527,1.577344883349547e-07,2.041737944669527,1.673507923706905e-07
2.089296130854037,1.734304483432693e-07,2.089296130854037,4.530634853627539e-08,2.089296130854037,4.885344659370734e-08,2.089296130854037,5.626805582960653e-08,2.089296130854037,6.951443137268516e-08,2.089296130854037,8.999823892144275e-08,2.089296130854037,1.161754820551287e-07,2.089296130854037,1.422105306799643e-07,2.089296130854037,1.614085965541492e-07,2.089296130854037,1.712488930855594e-07
2.13796208950223,1.774701624377767e-07,2.13796208950223,4.636166896299978e-08,2.13796208950223,4.999138954810146e-08,2.13796208950223,5.75787072196985e-08,2.13796208950223,7.113363048604979e-08,2.13796208950223,9.209456720592089e-08,2.13796208950223,1.188815566618513e-07,2.13796208950223,1.455230394733353e-07,2.13796208950223,1.651682857477321e-07,2.13796208950223,1.752377922302883e-07
2.18776162394955,1.81603973561504e-07,2.18776162394955,4.744157096027834e-08,2.18776162394955,5.11558385989492e-08,2.18776162394955,5.891988760250238e-08,2.18776162394955,7.279054559186322e-08,2.18776162394955,9.423972524894768e-08,2.18776162394955,1.216506638435001e-07,2.18776162394955,1.489127065084593e-07,2.18776162394955,1.690155493526791e-07,2.18776162394955,1.793196047720049e-07
2.238721138568337,1.858340735158264e-07,2.238721138568337,4.854662710644307e-08,2.238721138568337,5.234741115255073e-08,2.238721138568337,6.029230808961029e-08,2.238721138568337,7.448605520844611e-08,2.238721138568337,9.643485044171156e-08,2.238721138568337,1.244842718173556e-07,2.238721138568337,1.523813290316671e-07,2.238721138568337,1.729524272390789e-07,2.238721138568337,1.834964949417471e-07
2.29086765276777,1.901627051557315e-07,2.29086765276777,4.967742331688933e-08,2.29086765276777,5.356673899644339e-08,2.29086765276777,6.169669635653058e-08,2.29086765276777,7.622105831744054e-08,2.29086765276777,9.868110666864596e-08,2.29086765276777,1.273838829998723e-07,2.29086765276777,1.559307461525328e-07,2.29086765276777,1.769810067916957e-07,2.29086765276777,1.877706773819699e-07
2.344228815319919,1.945921635790112e-07,2.344228815319919,5.083455915473585e-08,2.344228815319919,5.481446863439336e-08,2.344228815319919,6.313379702851168e-08,2.344228815319919,7.799647484045929e-08,2.344228815319919,1.009796849245358e-07,2.344228815319919,1.303510348032804e-07,2.344228815319919,1.595628398189958e-07,2.344228815319919,1.811034240167351e-07,2.344228815319919,1.921444183207799e-07
2.398832919019488,1.991247973431521e-07,2.398832919019488,5.201864814872368e-08,2.398832919019488,5.609126162916803e-08,2.398832919019488,6.46043720753506e-08,2.398832919019488,7.981324612684421e-08,2.398832919019488,1.033318039459961e-07,2.398832919019488,1.33387300450741e-07,2.398832919019488,1.63279535815195e-07,2.398832919019488,1.853218646743742e-07,2.398832919019488,1.966200367735161e-07
2.454708915685027,2.037630097105721e-07,2.454708915685027,5.323031811850709e-08,2.454708915685027,5.739779495331397e-08,2.454708915685027,6.610920121540424e-08,2.454708915685027,8.167233545277858e-08,2.454708915685027,1.057387108576665e-07,2.454708915685027,1.364942898104909e-07,2.454708915685027,1.67082804782543e-07,2.454708915685027,1.896385654376896e-07,2.454708915685027,2.011999057723226e-07
2.511886431509577,2.085092599228637e-07,2.511886431509577,5.447021150754056e-08,2.511886431509577,5.873476134809329e-08,2.511886431509577,6.764908232900212e-08,2.511886431509577,8.357472853203115e-08,2.511886431509577,1.082016818334506e-07,2.511886431509577,1.396736502494134e-07,2.511886431509577,1.709746632645896e-07,2.511886431509577,1.940558150785624e-07,2.511886431509577,2.058864536243658e-07
2.57039578276886,2.133660645047125e-07,2.57039578276886,5.573898572371932e-08,2.57039578276886,6.010286969078683e-08,2.57039578276886,6.92248318814915e-08,2.57039578276886,8.552143403859347e-08,2.57039578276886,1.107220227731609e-07,2.57039578276886,1.429270675064981e-07,2.57039578276886,1.749571747762157e-07,2.57039578276886,1.98575955681223e-07,2.57039578276886,2.106821651993497e-07
2.630267991895378,2.183359985981953e-07,2.630267991895378,5.703731348791824e-08,2.630267991895378,6.150284537054482e-08,2.630267991895378,7.083728535614336e-08,2.630267991895378,8.751348414149305e-08,2.630267991895378,1.133010699949259e-07,2.630267991895378,1.462562665866367e-07,2.630267991895378,1.790324508977406e-07,2.630267991895378,2.032013838840483e-07,2.630267991895378,2.155895832470306e-07
2.691534803926912,2.234216973281535e-07,2.691534803926912,5.836588319070765e-08,2.691534803926912,6.293543067300534e-08,2.691534803926912,7.248729769713395e-08,2.691534803926912,8.955193505206276e-08,2.691534803926912,1.159401909437189e-07,2.691534803926912,1.496630126752516e-07,2.691534803926912,1.832026523945055e-07,2.691534803926912,2.079345521502982e-07,2.691534803926912,2.206113097454149e-07
2.754228703338163,2.286258571993714e-07,2.754228703338163,5.972539925732677e-08,2.754228703338163,6.440138517385823e-08,2.754228703338163,7.417574376284486e-08,2.754228703338163,9.163786758395743e-08,2.754228703338163,1.186407849164002e-07,2.754228703338163,1.531491120742096e-07,2.754228703338163,1.874699903625446e-07,2.754228703338163,2.127779700684367e-07,2.754228703338163,2.257500072803614e-07
2.81838293126445,2.339512375262966e-07,2.81838293126445,6.111658252119562e-08,2.81838293126445,6.59014861415816e-08,2.81838293126445,7.59035187897321e-08,2.81838293126445,9.37723877262158e-08,2.81838293126445,1.214042838036399e-07,2.81838293126445,1.567164131595588e-07,2.81838293126445,1.91836727400932e-07,2.81838293126445,2.177342056827559e-07,2.81838293126445,2.310084004573225e-07
2.884031503126602,2.394006618960693e-07,2.884031503126602,6.254017060608509e-08,2.884031503126602,6.74365289495682e-08,2.884031503126602,7.767153886698358e-08,2.884031503126602,9.595662722966993e-08,2.884031503126602,1.242321528491283e-07,2.884031503126602,1.603668073615518e-07,2.884031503126602,1.963051788114465e-07,2.884031503126602,2.228058868549796e-07,2.884031503126602,2.363892773459641e-07
2.951209226666381,2.449770196656209e-07,2.951209226666381,6.399691831725204e-08,2.951209226666381,6.900732749783108e-08,2.951209226666381,7.948074142224657e-08,2.951209226666381,9.819174420701683e-08,2.951209226666381,1.271258914264646e-07,2.951209226666381,1.641022301675133e-07,2.951209226666381,2.008777138261729e-07,2.951209226666381,2.27995702657599e-07,2.951209226666381,2.418954909584354e-07
3.019951720402012,2.506832674936538e-07,3.019951720402012,6.548759804160669e-08,3.019951720402012,7.06147146445533e-08,3.019951720402012,8.133208571866238e-08,3.019951720402012,1.004789237468637e-07,3.019951720402012,1.300870338341445e-07,3.019951720402012,1.679246621480591e-07,3.019951720402012,2.055567568637008e-07,3.019951720402012,2.333064047996468e-07,3.019951720402012,2.475299607620802e-07
