;Version, 1, 0
;out (VCTRL=0.1),;out (VCTRL=0.01),;out (VCTRL=0.02),;out (VCTRL=0.03),;out (VCTRL=0.04),;out (VCTRL=0.05),;out (VCTRL=0.06),;out (VCTRL=0.07),;out (VCTRL=0.08),;out (VCTRL=0.09)
;X, Y,;X, Y,;X, Y,;X, Y,;X, Y,;X, Y,;X, Y,;X, Y,;X, Y,;X, Y
;Re, Re,;Re, Re,;Re, Re,;Re, Re,;Re, Re,;Re, Re,;Re, Re,;Re, Re,;Re, Re,;Re, Re
;vin, V,;vin, V,;vin, V,;vin, V,;vin, V,;vin, V,;vin, V,;vin, V,;vin, V,;vin, V
;xunit, V,;xunit, V,;xunit, V,;xunit, V,;xunit, V,;xunit, V,;xunit, V,;xunit, V,;xunit, V,;xunit, V
-0.3,-0.7964076323924688,-0.3,-0.09934831864151006,-0.3,-0.2005326784360379,-0.3,-0.3035577247313164,-0.3,-0.4061108320454982,-0.3,-0.5045230507982782,-0.3,-0.5948757931463975,-0.3,-0.6730387301059136,-0.3,-0.7329218368775466,-0.3,-0.771646732779631
-0.299,-0.7964708031087051,-0.299,-0.09936525446707778,-0.299,-0.2005648528825337,-0.299,-0.3036018886254133,-0.299,-0.406163140558897,-0.299,-0.5045802812868584,-0.299,-0.5949358179968034,-0.299,-0.6731003280797748,-0.299,-0.7329843303955582,-0.299,-0.7717096790492198
-0.298,-0.7965304879058731,-0.298,-0.0993812588534575,-0.298,-0.2005952565238966,-0.298,-0.30364361971371,-0.298,-0.4062125654906881,-0.298,-0.5046343553447633,-0.298,-0.5949925314071781,-0.298,-0.6731585273497275,-0.298,-0.7330433755473763,-0.298,-0.7717691518477372
-0.297,-0.796586701156703,-0.297,-0.09939633512276713,-0.297,-0.2006238958865207,-0.297,-0.3036829273159825,-0.297,-0.406259118240178,-0.297,-0.5046852857024735,-0.297,-0.5950459468817779,-0.297,-0.6732133418558007,-0.297,-0.7330989865189779,-0.297,-0.7718251654855594
-0.296,-0.7966394582223035,-0.296,-0.09941048689694143,-0.296,-0.2006507780524669,-0.296,-0.3037198214911112,-0.296,-0.406302811058382,-0.296,-0.5047330860051812,-0.296,-0.5950960788741609,-0.296,-0.6732647865067443,-0.296,-0.7331511784762933,-0.296,-0.7718777352587013
-0.295,-0.7966887755004092,-0.295,-0.09942371810925299,-0.295,-0.2006759106818283,-0.295,-0.3037543130688116,-0.295,-0.4063436570865324,-0.295,-0.5047777708557291,-0.295,-0.5951429428326187,-0.295,-0.6733128772268897,-0.295,-0.7331999676128435,-0.295,-0.7719268774968302
-0.294,-0.7967346704399437,-0.294,-0.09943603300797577,-0.294,-0.2006993020198446,-0.294,-0.303786413659423,-0.294,-0.4063816703678853,-0.294,-0.5048193558275984,-0.294,-0.5951865552138608,-0.294,-0.6733576309702928,-0.294,-0.7332453711641076,-0.294,-0.7719726095777741
-0.293,-0.7967771615536812,-0.293,-0.09944743615958251,-0.293,-0.200720960902943,-0.293,-0.303816135662424,-0.293,-0.4064168658579324,-0.293,-0.5048578574762408,-0.293,-0.5952269334950669,-0.293,-0.6733990657330607,-0.293,-0.7332874074200775,-0.293,-0.7720149499401429
-0.292,-0.7968162684289857,-0.292,-0.09945793245128365,-0.292,-0.2007408967637669,-0.292,-0.3038434922734738,-0.292,-0.4064492594329743,-0.292,-0.5048932933486212,-0.292,-0.5952640961838741,-0.292,-0.6734372005637499,-0.292,-0.7333260957358028,-0.292,-0.7720539180940147
-0.291,-0.7968520117364695,-0.291,-0.09946752709305673,-0.291,-0.2007591196350438,-0.291,-0.3038684974899803,-0.291,-0.4064788678969367,-0.291,-0.5049256819908323,-0.291,-0.5952980628265947,-0.291,-0.6734720555717889,-0.291,-0.7333614565399927,-0.291,-0.7720895346295664
-0.29,-0.7968844132364842,-0.29,-0.09947622561897984,-0.29,-0.2007756401523046,-0.29,-0.3038911661150301,-0.29,-0.4065057089863078,-0.29,-0.5049550429537252,-0.29,-0.5953288540141655,-0.29,-0.6735036519336729,-0.29,-0.7333935113413509,-0.29,-0.7721218212235019
-0.289,-0.7969134957832616,-0.289,-0.09948403388792504,-0.289,-0.2007904695553673,-0.289,-0.3039115137597432,-0.289,-0.4065298013731884,-0.289,-0.5049813967964526,-0.289,-0.5953564913860346,-0.289,-0.6735320118970338,-0.289,-0.7334222827326791,-0.289,-0.7721508006432104
-0.288,-0.7969392833267696,-0.288,-0.09949095808357789,-0.288,-0.2008036196885112,-0.288,-0.3039295568437952,-0.288,-0.406551164666302,-0.288,-0.5050047650878354,-0.288,-0.5953809976317023,-0.288,-0.6735571587823009,-0.288,-0.7334477943926873,-0.288,-0.7721764967485693
-0.287,-0.7969618009120082,-0.287,-0.09949700471373046,-0.287,-0.2008151029993732,-0.287,-0.3039453125942668,-0.287,-0.4065698194099139,-0.287,-0.5050251704054179,-0.287,-0.5954023964899514,-0.287,-0.6735791169819639,-0.287,-0.7334700710852322,-0.287,-0.7721989344912665
-0.286,-0.7969810746758332,-0.286,-0.09950218060887872,-0.286,-0.2008249325364515,-0.286,-0.3039587990425681,-0.286,-0.40658578708064,-0.286,-0.5050426363322855,-0.286,-0.5954207127456034,-0.286,-0.6735979119573793,-0.286,-0.7334891386561654,-0.286,-0.7722181399115758
-0.285,-0.7969971318410889,-0.285,-0.09950649292001845,-0.285,-0.2008331219452091,-0.285,-0.3039700350195598,-0.285,-0.4065990900820264,-0.285,-0.5050571874514063,-0.285,-0.5954359722238283,-0.285,-0.6736135702330075,-0.285,-0.7335050240274993,-0.285,-0.772234140132564
-0.284,-0.7970100007081994,-0.284,-0.09950994911574851,-0.284,-0.2008396854627901,-0.284,-0.3039790401486613,-0.284,-0.4066097517368936,-0.284,-0.5050688493376232,-0.284,-0.5954482017818875,-0.284,-0.6736261193880311,-0.284,-0.733517755188981,-0.284,-0.772246963351602
-0.283,-0.7970197106439244,-0.283,-0.09951255697856909,-0.283,-0.2008446379112743,-0.283,-0.3039858348371087,-0.283,-0.4066177962774185,-0.283,-0.5050776485470758,-0.283,-0.5954574292982813,-0.283,-0.6736355880453692,-0.283,-0.7335273611870147,-0.283,-0.7722566388292491
-0.282,-0.7970262920674746,-0.282,-0.09951432460040688,-0.282,-0.200847994689485,-0.282,-0.3039904402651961,-0.282,-0.4066232488328891,-0.282,-0.505083612604262,-0.282,-0.5954636836593679,-0.282,-0.6736420058579921,-0.282,-0.7335338721108068,-0.282,-0.7722631968753354
-0.281,-0.7970297764338742,-0.281,-0.09951526037739611,-0.281,-0.200849771763344,-0.281,-0.3039928783735739,-0.281,-0.406626135415221,-0.281,-0.5050867699864778,-0.281,-0.5954669947432574,-0.281,-0.673645403492603,-0.281,-0.7335373190759101,-0.281,-0.7722666688323911
-0.28,-0.7970301962145645,-0.28,-0.09951537300384472,-0.28,-0.2008499856548038,-0.28,-0.3039931718485804,-0.28,-0.4066264829020978,-0.28,-0.5050871501058278,-0.28,-0.5954673934012288,-0.28,-0.6736458126105845,-0.28,-0.7335377342049435,-0.28,-0.7722670870562828
-0.279,-0.7970275848756408,-0.279,-0.09951467146449322,-0.279,-0.2008486534278526,-0.279,-0.3039913441043871,-0.279,-0.4066243190171708,-0.279,-0.5050847832884557,-0.279,-0.5954649114364475,-0.279,-0.6736432658465518,-0.279,-0.7335351506059765,-0.279,-0.7722644848945207
-0.278,-0.7970219768514477,-0.278,-0.09951316503192076,-0.278,-0.2008457926818155,-0.278,-0.3039874192707013,-0.278,-0.4066196723123907,-0.278,-0.5050797007530597,-0.278,-0.595459581580136,-0.278,-0.6736377967831598,-0.278,-0.7335296023466417,-0.278,-0.7722588966599914
-0.277,-0.7970134075204269,-0.277,-0.09951086324839764,-0.277,-0.2008414215215875,-0.277,-0.3039814221598918,-0.277,-0.406612572137051,-0.277,-0.5050719345826841,-0.277,-0.595451437465379,-0.277,-0.6736294399260145,-0.277,-0.7335211244295788,-0.277,-0.772250357606716
-0.276,-0.7970019131719036,-0.276,-0.09950777592680149,-0.276,-0.2008355585554176,-0.276,-0.3039733782572271,-0.276,-0.4066030486195154,-0.276,-0.5050615176999459,-0.276,-0.595440513598269,-0.276,-0.6736182306725638,-0.276,-0.733509752760135,-0.276,-0.7722389038968951
-0.275,-0.7969875309752529,-0.275,-0.09950391313599338,-0.275,-0.200828222869694,-0.275,-0.3039633136906403,-0.275,-0.4065911326357405,-0.275,-0.5050484838356607,-0.275,-0.5954268453268633,-0.275,-0.6736042052812056,-0.275,-0.7334955241154787,-0.275,-0.7722245725700666
-0.274,-0.7969702989447472,-0.274,-0.09949928519151352,-0.274,-0.2008194340112179,-0.274,-0.3039512552062762,-0.274,-0.4065768557802276,-0.274,-0.5050328674970639,-0.274,-0.595410468807777,-0.274,-0.6735874008370045,-0.274,-0.7334784761098558,-0.274,-0.7722074015081175
-0.273,-0.7969502559024453,-0.273,-0.09949390264457225,-0.273,-0.2008092119667584,-0.273,-0.3039372301411885,-0.273,-0.4065602503343881,-0.273,-0.5050147039336315,-0.273,-0.5953914209706491,-0.273,-0.6735678552153571,-0.273,-0.7334586471577913,-0.273,-0.7721874293982316
-0.272,-0.7969274414389662,-0.272,-0.09948777627054661,-0.272,-0.2007975771415722,-0.272,-0.3039212663945006,-0.272,-0.4065413492330712,-0.272,-0.5049940291009659,-0.272,-0.5953697394805745,-0.272,-0.6735456070435799,-0.272,-0.7334360764352059,-0.272,-0.7721646956938188
-0.271,-0.796901895872189,-0.271,-0.0994809170568649,-0.271,-0.2007845503368317,-0.271,-0.3039033923971839,-0.271,-0.4065201860294634,-0.271,-0.5049708796229037,-0.271,-0.5953454626985629,-0.271,-0.6735206956605611,-0.271,-0.7334108038385341,-0.271,-0.7721392405733284
-0.27,-0.7968736602041845,-0.27,-0.09947333619039456,-0.27,-0.2007701527261205,-0.27,-0.3038836370804574,-0.27,-0.4064967948583746,-0.27,-0.5049452927518443,-0.27,-0.595318629640341,-0.27,-0.6734931610745252,-0.27,-0.733382869942013,-0.27,-0.7721111048972977
-0.269,-0.7968427760763716,-0.269,-0.09946504504440168,-0.269,-0.2007544058310431,-0.269,-0.3038620298430725,-0.269,-0.4064712103982053,-0.269,-0.5049173063276211,-0.269,-0.5952892799334015,-0.269,-0.6734630439192431,-0.269,-0.7333523159532984,-0.269,-0.7720803301636643
-0.268,-0.7968092857231968,-0.268,-0.09945605516503875,-0.268,-0.2007373314960583,-0.268,-0.3038386005174936,-0.268,-0.4064434678315831,-0.268,-0.504886958734947,-0.268,-0.5952574537727554,-0.268,-0.6734303854086507,-0.268,-0.7333191836675289,-0.268,-0.7720469584615894
-0.267,-0.7967732319244804,-0.267,-0.09944637825754676,-0.267,-0.2007189518626424,-0.267,-0.3038133793351203,-0.267,-0.4064136028049079,-0.267,-0.5048542888596754,-0.267,-0.5952231918752747,-0.267,-0.6733952272902739,-0.267,-0.7332835154201248,-0.267,-0.772011032423902
-0.266,-0.7967346579565249,-0.266,-0.09943602617208525,-0.266,-0.200699289342849,-0.266,-0.3037863968907557,-0.266,-0.4063816513869378,-0.266,-0.504819336043968,-0.266,-0.5951865354330154,-0.266,-0.6733576117973886,-0.266,-0.7332453540384131,-0.266,-0.7719725951784639
-0.265,-0.7966936075423626,-0.265,-0.09942501088936839,-0.265,-0.2006783665924179,-0.265,-0.3037576841063656,-0.265,-0.406347650026609,-0.265,-0.5047821400406574,-0.265,-0.5951475260656303,-0.265,-0.6733175816003848,-0.265,-0.7332047427922694,-0.265,-0.7719316902984644
-0.264,-0.7966501248011757,-0.264,-0.09941334450604367,-0.264,-0.2006562064834514,-0.264,-0.3037272721943378,-0.264,-0.406311635510197,-0.264,-0.5047427409668476,-0.264,-0.5951062057719652,-0.264,-0.6732751797572625,-0.264,-0.7331617253440457,-0.264,-0.771888361752053
-0.263,-0.7966042541971387,-0.263,-0.09940103921999821,-0.263,-0.200632832076922,-0.263,-0.3036951926203668,-0.263,-0.4062736449180246,-0.263,-0.5047011792570658,-0.263,-0.5950626168812311,-0.263,-0.6732304496636388,-0.263,-0.7331163456979075,-0.263,-0.7718426538513368
-0.262,-0.7965560404879141,-0.262,-0.0993881073155336,-0.262,-0.2006082665948801,-0.262,-0.3036614770660837,-0.262,-0.4062337155808948,-0.262,-0.5046574956160351,-0.262,-0.5950168020037506,-0.262,-0.6731834350023546,-0.262,-0.733068648148806,-0.262,-0.7717946112010047
-0.261,-0.7965055286729531,-0.261,-0.0993745611485346,-0.261,-0.2005825333927427,-0.261,-0.3036261573915879,-0.261,-0.406191885036375,-0.261,-0.5046117309713195,-0.261,-0.594968803981559,-0.261,-0.6731341796929767,-0.261,-0.7330186772312783,-0.261,-0.7717442786468723
-0.26,-0.7964527639418307,-0.26,-0.09936041313165722,-0.26,-0.200555655931506,-0.26,-0.3035892655980521,-0.26,-0.4061481909851166,-0.26,-0.5045639264260487,-0.26,-0.5949186658390314,-0.26,-0.6730827278411942,-0.26,-0.7329664776682639,-0.26,-0.7716917012242623
-0.259,-0.7963977916227811,-0.259,-0.09934567571961428,-0.259,-0.2005276577501993,-0.259,-0.3035508337904664,-0.259,-0.4061026712474087,-0.259,-0.5045141232117227,-0.259,-0.5948664307337573,-0.259,-0.6730291236886133,-0.259,-0.7329120943201511,-0.259,-0.7716369241068244
-0.258,-0.7963406571316384,-0.258,-0.09933036139458218,-0.258,-0.2004985624385092,-0.258,-0.3035108941407698,-0.258,-0.406055363720053,-0.258,-0.50446236264153,-0.258,-0.5948121419077135,-0.258,-0.6729734115627333,-0.258,-0.7328555721341881,-0.258,-0.7715799925555459
-0.257,-0.7962814059213673,-0.257,-0.09931448265178333,-0.257,-0.2004683936097951,-0.257,-0.3034694788513126,-0.257,-0.4060063063337445,-0.257,-0.5044086860641266,-0.257,-0.5947558426391052,-0.257,-0.6729156358276813,-0.257,-0.7327969560945056,-0.257,-0.7715209518684825
-0.2559999999999999,-0.7962200834323019,-0.2559999999999999,-0.09929805198533925,-0.2559999999999999,-0.2004371748745097,-0.2559999999999999,-0.3034266201190094,-0.2559999999999999,-0.405955537011139,-0.2559999999999999,-0.5043531348181366,-0.2559999999999999,-0.5946975761948385,-0.2559999999999999,-0.6728558408355501,-0.2559999999999999,-0.7327362911728503,-0.2559999999999999,-0.7714598473311834
-0.2549999999999999,-0.7961567350433799,-0.2549999999999999,-0.09928108187435658,-0.2549999999999999,-0.2004049298141335,-0.2549999999999999,-0.3033823501001167,-0.2549999999999999,-0.4059030936256642,-0.2549999999999999,-0.5042957501874921,-0.2549999999999999,-0.5946373857839106,-0.2549999999999999,-0.6727940708787163,-0.2549999999999999,-0.7326736222802671,-0.2549999999999999,-0.7713967241680192
-0.2539999999999999,-0.7960914060243883,-0.2539999999999999,-0.09926358476937502,-0.2539999999999999,-0.20037168195572,-0.2539999999999999,-0.3033367008757915,-0.2539999999999999,-0.4058490139612916,-0.2539999999999999,-0.5042365733577905,-0.2539999999999999,-0.5945753145118423,-0.2539999999999999,-0.6727303701431304,-0.2539999999999999,-0.7326089942197919,-0.2539999999999999,-0.7713316274945963
-0.2529999999999999,-0.7960241414893926,-0.2529999999999999,-0.0992455730791495,-0.2529999999999999,-0.2003374547471235,-0.2529999999999999,-0.3032897044185925,-0.2529999999999999,-0.405793335673333,-0.2529999999999999,-0.504175645373707,-0.2529999999999999,-0.5945114053362627,-0.2529999999999999,-0.6726647826628974,-0.2529999999999999,-0.7325424516403921,-0.2529999999999999,-0.77126460227141
-0.2519999999999999,-0.7959549863516608,-0.2519999999999999,-0.0992270591578468,-0.2519999999999999,-0.2003022715329357,-0.2519999999999999,-0.3032413925599362,-0.2519999999999999,-0.405736096250358,-0.2519999999999999,-0.5041130070977512,-0.2519999999999999,-0.5944457010237619,-0.2519999999999999,-0.6725973522761101,-0.2519999999999999,-0.732474038992231,-0.2519999999999999,-0.771195693258798
-0.2509999999999999,-0.7958839852798619,-0.2509999999999999,-0.09920805529266863,-0.2509999999999999,-0.2002661555312428,-0.2509999999999999,-0.3031917969586715,-0.2509999999999999,-0.405677332977443,-0.2509999999999999,-0.5040486991702611,-0.2509999999999999,-0.5943782441082028,-0.2509999999999999,-0.6725281225820929,-0.2509999999999999,-0.7324038004833948,-0.2509999999999999,-0.7711249449733695
-0.2499999999999999,-0.7958111826560007,-0.2499999999999999,-0.099188573691944,-0.2499999999999999,-0.2002291298112719,-0.2499999999999999,-0.3031409490707624,-0.2499999999999999,-0.4056170829006482,-0.2499999999999999,-0.5039827619709433,-0.2499999999999999,-0.5943090768504724,-0.2499999999999999,-0.6724571369002824,-0.2499999999999999,-0.7323317800381568,-0.2499999999999999,-0.7710524016460349
-0.2489999999999999,-0.7957366225349543,-0.2489999999999999,-0.09916862647369218,-0.2489999999999999,-0.2001912172718947,-0.2489999999999999,-0.3030888801202394,-0.2489999999999999,-0.4055553827930396,-0.2489999999999999,-0.5039152355818945,-0.2489999999999999,-0.5942382411999347,-0.2489999999999999,-0.6723844382306712,-0.2489999999999999,-0.7322580212569355,-0.2489999999999999,-0.7709781071816729
-0.2479999999999999,-0.7956603486057988,-0.2479999999999999,-0.09914822565471337,-0.2479999999999999,-0.2001524406211337,-0.2479999999999999,-0.3030356210714094,-0.2479999999999999,-0.405492269122117,-0.2479999999999999,-0.5038461597522681,-0.2479999999999999,-0.5941657787574584,-0.2479999999999999,-0.672310069216004,-0.2479999999999999,-0.7321825673779795,-0.2479999999999999,-0.770902105120614
-0.2469999999999999,-0.7955824041549463,-0.2469999999999999,-0.09912738314021885,-0.2469999999999999,-0.2001128223566497,-0.2469999999999999,-0.3029812026024059,-0.2469999999999999,-0.40542777801885,-0.2469999999999999,-0.50377557386463,-0.2469999999999999,-0.594091730740296,-0.2469999999999999,-0.6722340721057677,-0.2469999999999999,-0.7321054612408863,-0.2469999999999999,-0.7708244386018518
-0.2459999999999999,-0.7955028320311872,-0.2459999999999999,-0.09910611071397923,-0.2459999999999999,-0.2000723847472337,-0.2459999999999999,-0.3029256550801278,-0.2459999999999999,-0.4053619452482742,-0.2459999999999999,-0.503703516902993,-0.2459999999999999,-0.5940161379487038,-0.2459999999999999,-0.6721564887220365,-0.2459999999999999,-0.7320267452519758,-0.2459999999999999,-0.7707451503282371
-0.2449999999999999,-0.795421674612706,-0.2449999999999999,-0.09908442002905127,-0.2449999999999999,-0.200031149815352,-0.2449999999999999,-0.3028690085365606,-0.2449999999999999,-0.4052948061817707,-0.2449999999999999,-0.5036300274227073,-0.2449999999999999,-0.5939390407344465,-0.2449999999999999,-0.6720773604271868,-0.2449999999999999,-0.7319464613515922,-0.2449999999999999,-0.770664282533583
-0.2439999999999999,-0.7953389737760103,-0.2439999999999999,-0.09906232259906811,-0.2439999999999999,-0.1999891393207764,-0.2439999999999999,-0.3028112926465638,-0.2439999999999999,-0.4052263957709947,-0.2439999999999999,-0.5035551435221401,-0.2439999999999999,-0.5938604789711776,-0.2439999999999999,-0.6719967280935697,-0.2439999999999999,-0.7318646509833733,-0.2439999999999999,-0.770581876951681
-0.2429999999999999,-0.7952547708668979,-0.2429999999999999,-0.09903982979010295,-0.2429999999999999,-0.1999463747452377,-0.2429999999999999,-0.3027525367070554,-0.2429999999999999,-0.4051567485234888,-0.2429999999999999,-0.5034789028161055,-0.2429999999999999,-0.5937804920267694,-0.2429999999999999,-0.6719146320751411,-0.2429999999999999,-0.7317813550654693,-0.2429999999999999,-0.7704979747874302
-0.2419999999999999,-0.7951691066734584,-0.2419999999999999,-0.09901695281311307,-0.2419999999999999,-0.199902877278219,-0.2419999999999999,-0.3026927696177337,-0.2419999999999999,-0.405085898480027,-0.2419999999999999,-0.5034013424112804,-0.2419999999999999,-0.5936991187374716,-0.2419999999999999,-0.6718311121810403,-0.2419999999999999,-0.7316966139638149,-0.2419999999999999,-0.7704126166898156
-0.2409999999999999,-0.7950820214010257,-0.2409999999999999,-0.0989937027169423,-0.2409999999999999,-0.1998586678037801,-0.2409999999999999,-0.3026320198631525,-0.2409999999999999,-0.4050138791936055,-0.2409999999999999,-0.503322498883336,-0.2409999999999999,-0.5936163973841309,-0.2409999999999999,-0.6717462076511258,-0.2409999999999999,-0.7316104674673085,-0.2409999999999999,-0.770325842727039
-0.2399999999999999,-0.7949935546491762,-0.2399999999999999,-0.0989700903819184,-0.2399999999999999,-0.1998137668884765,-0.2399999999999999,-0.3025703154963399,-0.2399999999999999,-0.4049407237101752,-0.2399999999999999,-0.5032424082559711,-0.2399999999999999,-0.5935323656701679,-0.2399999999999999,-0.6716599571335108,-0.2399999999999999,-0.7315229547650691,-0.2399999999999999,-0.7702376923635663
-0.2389999999999999,-0.7949037453907458,-0.2389999999999999,-0.09894612651400325,-0.2389999999999999,-0.1997681947703283,-0.2389999999999999,-0.302507684123781,-0.2389999999999999,-0.4048664645510378,-0.2389999999999999,-0.5031611059817562,-0.2389999999999999,-0.5934470607015704,-0.2389999999999999,-0.6715723986640042,-0.2389999999999999,-0.7314341144255755,-0.2389999999999999,-0.7701482044391834
-0.2379999999999999,-0.7948126319527343,-0.2379999999999999,-0.09892182163949004,-0.2379999999999999,-0.1997219713488569,-0.2379999999999999,-0.3024441528918724,-0.2379999999999999,-0.4047911336968875,-0.2379999999999999,-0.5030786269247388,-0.2379999999999999,-0.5933605189687329,-0.2379999999999999,-0.6714835696474816,-0.2379999999999999,-0.7313439843778169,-0.2379999999999999,-0.7700574171500016
