;Version, 1, 0
;collector_current (vcc=0.1),;collector_current (vcc=0.2),;collector_current (vcc=0.3),;collector_current (vcc=0.4),;collector_current (vcc=0.5),;collector_current (vcc=0.6),;collector_current (vcc=0.7),;collector_current (vcc=0.8),;collector_current (vcc=0.9),;collector_current (vcc=1),;collector_current (vcc=1.1),;collector_current (vcc=1.2),;collector_current (vcc=1.3),;collector_current (vcc=1.4),;collector_current (vcc=1.5),;collector_current (vcc=1.6),;collector_current (vcc=1.7)
;X, Y,;X, Y,;X, Y,;X, Y,;X, Y,;X, Y,;X, Y,;X, Y,;X, Y,;X, Y,;X, Y,;X, Y,;X, Y,;X, Y,;X, Y,;X, Y,;X, Y
;Re, Re,;Re, Re,;Re, Re,;Re, Re,;Re, Re,;Re, Re,;Re, Re,;Re, Re,;Re, Re,;Re, Re,;Re, Re,;Re, Re,;Re, Re,;Re, Re,;Re, Re,;Re, Re,;Re, Re
;bias, I,;bias, I,;bias, I,;bias, I,;bias, I,;bias, I,;bias, I,;bias, I,;bias, I,;bias, I,;bias, I,;bias, I,;bias, I,;bias, I,;bias, I,;bias, I,;bias, I
;xunit, A,;xunit, A,;xunit, A,;xunit, A,;xunit, A,;xunit, A,;xunit, A,;xunit, A,;xunit, A,;xunit, A,;xunit, A,;xunit, A,;xunit, A,;xunit, A,;xunit, A,;xunit, A,;xunit, A
0,3.512276629904146e-13,0,3.77936071809015e-13,0,3.801339269947446e-13,0,3.801352933442594e-13,0,3.801352981790115e-13,0,3.801353038403259e-13,0,3.801353094809391e-13,0,3.801353156285834e-13,0,3.801353225167664e-13,0,3.80135330417725e-13,0,3.801353396395751e-13,0,3.801353505224584e-13,0,3.801353634340071e-13,0,3.801353787645274e-13,0,3.801353969220975e-13,0,3.801354183278661e-13,0,3.801354434115503e-13
0.001,3.512248894162304e-13,0.001,3.779359578080511e-13,0.001,3.801340862900412e-13,0.001,3.801354841491546e-13,0.001,3.801354895106578e-13,0.001,3.801354950351229e-13,0.001,3.801355008811803e-13,0.001,3.801355072482435e-13,0.001,3.801355143771021e-13,0.001,3.801355225485613e-13,0.001,3.801355320805193e-13,0.001,3.801355433239887e-13,0.001,3.801355566584326e-13,0.001,3.801355724867703e-13,0.001,3.801355912303502e-13,0.001,3.801356133240447e-13,0.001,3.801356392116499e-13
0.002,3.512220548974759e-13,0.002,3.779358441145641e-13,0.002,3.801342521827777e-13,0.002,3.801356822775984e-13,0.002,3.801356878406433e-13,0.002,3.80135693570046e-13,0.002,3.801356996293144e-13,0.002,3.801357062240393e-13,0.002,3.801357136025655e-13,0.002,3.801357220545823e-13,0.002,3.801357319081395e-13,0.002,3.801357435255277e-13,0.002,3.801357572984815e-13,0.002,3.801357736430244e-13,0.002,3.801357929942621e-13,0.002,3.801358158013271e-13,0.002,3.80135842522627e-13
0.003,3.512191581419345e-13,0.003,3.779357308481545e-13,0.003,3.801344249373282e-13,0.003,3.80135888012492e-13,0.003,3.801358937847693e-13,0.003,3.80135899726898e-13,0.003,3.801359060074304e-13,0.003,3.801359128383707e-13,0.003,3.801359204758904e-13,0.003,3.801359292188959e-13,0.003,3.801359394059632e-13,0.003,3.801359514110895e-13,0.003,3.80135965638745e-13,0.003,3.801359825185456e-13,0.003,3.80136002499885e-13,0.003,3.801360260467015e-13,0.003,3.801360536325602e-13
0.004,3.512161978318853e-13,0.004,3.779356181354609e-13,0.004,3.801346048284722e-13,0.004,3.80136101645861e-13,0.004,3.801361076353559e-13,0.004,3.801361137982921e-13,0.004,3.801361203084491e-13,0.004,3.80136127384476e-13,0.004,3.801361352906614e-13,0.004,3.801361443354727e-13,0.004,3.801361548683996e-13,0.004,3.801361672755918e-13,0.004,3.80136181974727e-13,0.004,3.801361994095407e-13,0.004,3.801362200442477e-13,0.004,3.801362443581596e-13,0.004,3.801362728405787e-13
0.005,3.512131726236625e-13,0.005,3.779355061105131e-13,0.005,3.801347921417965e-13,0.005,3.801363234809441e-13,0.005,3.801363296959447e-13,0.005,3.801363360880778e-13,0.005,3.801363428365318e-13,0.005,3.801363501668529e-13,0.005,3.801363583517372e-13,0.005,3.801363677095689e-13,0.005,3.801363786011627e-13,0.005,3.801363914252705e-13,0.005,3.801364066132839e-13,0.005,3.801364246235843e-13,0.005,3.801364459357797e-13,0.005,3.801364710451332e-13,0.005,3.801365004572936e-13
0.006,3.512100811472369e-13,0.006,3.779353949150827e-13,0.006,3.801349871741272e-13,0.006,3.801365538326221e-13,0.006,3.801365602817359e-13,0.006,3.801365669117705e-13,0.006,3.801365739075263e-13,0.006,3.80136581501689e-13,0.006,3.801365899756777e-13,0.006,3.801365996581596e-13,0.006,3.801366109216967e-13,0.006,3.801366241781162e-13,0.006,3.801366398730419e-13,0.006,3.801366584800554e-13,0.006,3.801366804947396e-13,0.006,3.80136706428923e-13,0.006,3.801367368052214e-13
0.007,3.512069220057786e-13,0.007,3.779352846990384e-13,0.007,3.801351902339517e-13,0.007,3.801367930278618e-13,0.007,3.801367997200256e-13,0.007,3.801368065969962e-13,0.007,3.801368138493976e-13,0.007,3.801368217173061e-13,0.007,3.801368304911951e-13,0.007,3.801368405103839e-13,0.007,3.801368521596315e-13,0.007,3.801368658643219e-13,0.007,3.801368820848563e-13,0.007,3.801369013105815e-13,0.007,3.801369240536774e-13,0.007,3.80136950843155e-13,0.007,3.801369822192538e-13
0.008,3.512036937752322e-13,0.008,3.779351756207172e-13,0.008,3.801354016418824e-13,0.008,3.801370414061922e-13,0.008,3.801370483506779e-13,0.008,3.801370554839669e-13,0.008,3.80137063002706e-13,0.008,3.801370711546405e-13,0.008,3.801370802396209e-13,0.008,3.801370906080249e-13,0.008,3.801371026572519e-13,0.008,3.80137116826762e-13,0.008,3.8013713359228e-13,0.008,3.80137153459529e-13,0.008,3.80137176957899e-13,0.008,3.801372046342548e-13,0.008,3.801372370471243e-13
0.009000000000000001,3.512003950038628e-13,0.009000000000000001,3.779350676838493e-13,0.009000000000000001,3.801356217311251e-13,0.009000000000000001,3.801372993201683e-13,0.009000000000000001,3.801373065266046e-13,0.009000000000000001,3.80137313925948e-13,0.009000000000000001,3.801373217210848e-13,0.009000000000000001,3.801373301677076e-13,0.009000000000000001,3.801373395753902e-13,0.009000000000000001,3.801373503059766e-13,0.009000000000000001,3.801373627699801e-13,0.009000000000000001,3.801373774214635e-13,0.009000000000000001,3.801373947520549e-13,0.009000000000000001,3.801374152844686e-13,0.009000000000000001,3.801374395659661e-13,0.009000000000000001,3.801374681619408e-13,0.009000000000000001,3.801375016499085e-13
0.01,3.511970242118255e-13,0.01,3.779349613858062e-13,0.01,3.801358508479769e-13,0.01,3.801375671358837e-13,0.01,3.801375746142651e-13,0.01,3.801375822897703e-13,0.01,3.801375903717411e-13,0.01,3.801375991241178e-13,0.01,3.801376088665416e-13,0.01,3.801376199727608e-13,0.01,3.801376328668789e-13,0.01,3.801376480181196e-13,0.01,3.801376659346061e-13,0.01,3.801376871566969e-13,0.01,3.801377122501934e-13,0.01,3.80137741799728e-13,0.01,3.80137776402534e-13
0.011,3.511935798907169e-13,0.011,3.779348567550517e-13,0.011,3.801360893523227e-13,0.011,3.801378452334885e-13,0.011,3.801378529941945e-13,0.011,3.801378609563485e-13,0.011,3.801378693359886e-13,0.011,3.801378784055931e-13,0.011,3.80137888495251e-13,0.011,3.801378999910448e-13,0.011,3.801379133311861e-13,0.011,3.801379290006171e-13,0.011,3.801379475245853e-13,0.011,3.801379694617577e-13,0.011,3.80137995397181e-13,0.011,3.801380259354646e-13,0.011,3.80138061694304e-13
0.012,3.511900605031344e-13,0.012,3.779347539878331e-13,0.012,3.801363376181723e-13,0.012,3.80138134007726e-13,0.012,3.801381420615307e-13,0.012,3.801381503212201e-13,0.012,3.801381590097714e-13,0.012,3.801381684085105e-13,0.012,3.801381788583583e-13,0.012,3.801381907581859e-13,0.012,3.801382045608407e-13,0.012,3.801382207675747e-13,0.012,3.801382399214022e-13,0.012,3.801382625999893e-13,0.012,3.801382894083685e-13,0.012,3.801383209718771e-13,0.012,3.801383579294595e-13
0.013,3.511864644822202e-13,0.013,3.779346532909726e-13,0.013,3.801365960342072e-13,0.013,3.801384338684933e-13,0.013,3.801384422265839e-13,0.013,3.801384507951089e-13,0.013,3.801384598042385e-13,0.013,3.801384695444615e-13,0.013,3.801384803679385e-13,0.013,3.801384926867932e-13,0.013,3.801385069690609e-13,0.013,3.801385237329079e-13,0.013,3.801385435397933e-13,0.013,3.80138566987097e-13,0.013,3.801385947005927e-13,0.013,3.801386273271414e-13,0.013,3.801386655277477e-13
0.01400000000000001,3.511827902312156e-13,0.01400000000000001,3.779345548823526e-13,0.01400000000000001,3.801368650043514e-13,0.01400000000000001,3.801387452414326e-13,0.01400000000000001,3.801387539154182e-13,0.01400000000000001,3.801387628045088e-13,0.01400000000000001,3.801387721463215e-13,0.01400000000000001,3.801387822408472e-13,0.01400000000000001,3.801387934518874e-13,0.01400000000000001,3.801388062053197e-13,0.01400000000000001,3.801388209849265e-13,0.01400000000000001,3.801388383264239e-13,0.01400000000000001,3.801388588104144e-13,0.01400000000000001,3.801388830547324e-13,0.01400000000000001,3.801389117066888e-13,0.01400000000000001,3.801389454354783e-13,0.01400000000000001,3.801389849250145e-13
0.01500000000000001,3.511790361230055e-13,0.01500000000000001,3.779344589913961e-13,0.01500000000000001,3.80137144948367e-13,0.01500000000000001,3.80139068568519e-13,0.01500000000000001,3.801390775704515e-13,0.01500000000000001,3.801390867922857e-13,0.01500000000000001,3.801390964793443e-13,0.01500000000000001,3.801391069414678e-13,0.01500000000000001,3.80139118554527e-13,0.01500000000000001,3.801391317586617e-13,0.01500000000000001,3.801391470539849e-13,0.01500000000000001,3.801391649944289e-13,0.01500000000000001,3.801391861804502e-13,0.01500000000000001,3.801392112511192e-13,0.01500000000000001,3.801392408760961e-13,0.01500000000000001,3.801392757477624e-13,0.01500000000000001,3.801393165738238e-13
0.01600000000000001,3.511752004996746e-13,0.01600000000000001,3.779343658595938e-13,0.01600000000000001,3.801374363024638e-13,0.01600000000000001,3.801394043086991e-13,0.01600000000000001,3.801394136510966e-13,0.01600000000000001,3.801394232183088e-13,0.01600000000000001,3.801394332636487e-13,0.01600000000000001,3.801394441071658e-13,0.01600000000000001,3.801394561372352e-13,0.01600000000000001,3.801394698087943e-13,0.01600000000000001,3.80139485638891e-13,0.01600000000000001,3.801395042003554e-13,0.01600000000000001,3.801395261142472e-13,0.01600000000000001,3.801395520416766e-13,0.01600000000000001,3.801395826755012e-13,0.01600000000000001,3.801396187321781e-13,0.01600000000000001,3.80139660944103e-13
0.01700000000000001,3.511712816720388e-13,0.01700000000000001,3.779342757410375e-13,0.01700000000000001,3.801377395199429e-13,0.01700000000000001,3.8013975293854e-13,0.01700000000000001,3.801397626343947e-13,0.01700000000000001,3.801397725601027e-13,0.01700000000000001,3.801397829772546e-13,0.01700000000000001,3.801397942164738e-13,0.01700000000000001,3.801398066791073e-13,0.01700000000000001,3.801398208354279e-13,0.01700000000000001,3.801398372200538e-13,0.01700000000000001,3.80139856425423e-13,0.01700000000000001,3.801398790939709e-13,0.01700000000000001,3.80139905909684e-13,0.01700000000000001,3.801399375894979e-13,0.01700000000000001,3.801399748748611e-13,0.01700000000000001,3.801400185238007e-13
0.01800000000000001,3.511672779191986e-13,0.01800000000000001,3.779341839195684e-13,0.01800000000000001,3.801380550718591e-13,0.01800000000000001,3.80140114952903e-13,0.01800000000000001,3.80140125015706e-13,0.01800000000000001,3.801401353135224e-13,0.01800000000000001,3.801401461165277e-13,0.01800000000000001,3.801401577662975e-13,0.01800000000000001,3.801401706776248e-13,0.01800000000000001,3.801401853366866e-13,0.01800000000000001,3.801402022963291e-13,0.01800000000000001,3.801402221693247e-13,0.01800000000000001,3.801402456202941e-13,0.01800000000000001,3.801402733569711e-13,0.01800000000000001,3.80140306121272e-13,0.01800000000000001,3.801403446805992e-13,0.01800000000000001,3.801403898195876e-13
0.01900000000000001,3.511631874880831e-13,0.01900000000000001,3.779341004517132e-13,0.01900000000000001,3.801383834477112e-13,0.01900000000000001,3.801404908656561e-13,0.01900000000000001,3.801405013094085e-13,0.01900000000000001,3.801405119934681e-13,0.01900000000000001,3.801405231968944e-13,0.01900000000000001,3.801405352726162e-13,0.01900000000000001,3.801405486493695e-13,0.01900000000000001,3.801405638298188e-13,0.01900000000000001,3.801405813857147e-13,0.01900000000000001,3.801406019509313e-13,0.01900000000000001,3.801406262131088e-13,0.01900000000000001,3.801406549046204e-13,0.01900000000000001,3.801406887933224e-13,0.01900000000000001,3.801407286735503e-13,0.01900000000000001,3.801407753575651e-13
0.02000000000000001,3.511590085929904e-13,0.02000000000000001,3.779340208333867e-13,0.02000000000000001,3.801387251561559e-13,0.02000000000000001,3.801408812103884e-13,0.02000000000000001,3.80140892049628e-13,0.02000000000000001,3.801409031346003e-13,0.02000000000000001,3.801409147535665e-13,0.02000000000000001,3.801409272712237e-13,0.02000000000000001,3.801409411307552e-13,0.02000000000000001,3.801409568519233e-13,0.02000000000000001,3.80140975026096e-13,0.02000000000000001,3.801409963090298e-13,0.02000000000000001,3.801410214122554e-13,0.02000000000000001,3.801410510937148e-13,0.02000000000000001,3.801410861481904e-13,0.02000000000000001,3.801411273979775e-13,0.02000000000000001,3.801411756840149e-13
0.02100000000000001,3.511547394151438e-13,0.02100000000000001,3.779339453746569e-13,0.02100000000000001,3.801390807257617e-13,0.02100000000000001,3.801412865411779e-13,0.02100000000000001,3.801412977909948e-13,0.02100000000000001,3.801413092921092e-13,0.02100000000000001,3.801413213423051e-13,0.02100000000000001,3.801413343184776e-13,0.02100000000000001,3.801413486787874e-13,0.02100000000000001,3.801413649607274e-13,0.02100000000000001,3.801413837760063e-13,0.02100000000000001,3.80141405803088e-13,0.02100000000000001,3.801414317782932e-13,0.02100000000000001,3.801414624860996e-13,0.02100000000000001,3.80141498749238e-13,0.02100000000000001,3.801415414190268e-13,0.02100000000000001,3.801415913661842e-13
0.02200000000000001,3.51150378102222e-13,0.02200000000000001,3.779338744012285e-13,0.02200000000000001,3.801394507057665e-13,0.02200000000000001,3.801417074333748e-13,0.02200000000000001,3.801417191094403e-13,0.02200000000000001,3.801417310424995e-13,0.02200000000000001,3.801417435402055e-13,0.02200000000000001,3.801417569920978e-13,0.02200000000000001,3.801417718718552e-13,0.02200000000000001,3.801417887353598e-13,0.02200000000000001,3.801418082154151e-13,0.02200000000000001,3.801418310140476e-13,0.02200000000000001,3.801418578932982e-13,0.02200000000000001,3.801418896651763e-13,0.02200000000000001,3.801419271814432e-13,0.02200000000000001,3.801419713235263e-13,0.02200000000000001,3.801420229930684e-13
0.02300000000000001,3.511459227679167e-13,0.02300000000000001,3.779338082551336e-13,0.02300000000000001,3.801398356668904e-13,0.02300000000000001,3.801421444844171e-13,0.02300000000000001,3.801421566030006e-13,0.02300000000000001,3.801421689844099e-13,0.02300000000000001,3.801421819465255e-13,0.02300000000000001,3.801421958919825e-13,0.02300000000000001,3.801422113105483e-13,0.02300000000000001,3.801422287771818e-13,0.02300000000000001,3.801422489465586e-13,0.02300000000000001,3.801422725451486e-13,0.02300000000000001,3.801423003616816e-13,0.02300000000000001,3.801423332367529e-13,0.02300000000000001,3.80142372052229e-13,0.02300000000000001,3.801424177208181e-13,0.02300000000000001,3.801424711762585e-13
0.02400000000000001,3.511413714914769e-13,0.02400000000000001,3.77933747295439e-13,0.02400000000000001,3.801402362021676e-13,0.02400000000000001,3.801425983146853e-13,0.02400000000000001,3.801426108926739e-13,0.02400000000000001,3.801426237394591e-13,0.02400000000000001,3.80142637183523e-13,0.02400000000000001,3.801426516410592e-13,0.02400000000000001,3.801426676185233e-13,0.02400000000000001,3.801426857106423e-13,0.02400000000000001,3.801427065947838e-13,0.02400000000000001,3.801427310227836e-13,0.02400000000000001,3.80142759811058e-13,0.02400000000000001,3.801427938298656e-13,0.02400000000000001,3.801428339923277e-13,0.02400000000000001,3.801428812436211e-13,0.02400000000000001,3.801429365508063e-13
0.02500000000000002,3.511367223172701e-13,0.02500000000000002,3.77933691898995e-13,0.02500000000000002,3.801406529278082e-13,0.02500000000000002,3.801430695683732e-13,0.02500000000000002,3.801430826232995e-13,0.02500000000000002,3.801430959531396e-13,0.02500000000000002,3.801431098973463e-13,0.02500000000000002,3.801431248861732e-13,0.02500000000000002,3.801431414433693e-13,0.02500000000000002,3.801431601841599e-13,0.02500000000000002,3.801431818094528e-13,0.02500000000000002,3.801432070973905e-13,0.02500000000000002,3.801432368931244e-13,0.02500000000000002,3.801432720976986e-13,0.02500000000000002,3.801433136566735e-13,0.02500000000000002,3.8014336254893e-13,0.02500000000000002,3.801434197761258e-13
0.02600000000000002,3.511319732543217e-13,0.02600000000000002,3.779336424612088e-13,0.02600000000000002,3.801410864841102e-13,0.02600000000000002,3.801435589144088e-13,0.02600000000000002,3.801435724644764e-13,0.02600000000000002,3.80143586295718e-13,0.02600000000000002,3.80143600758952e-13,0.02600000000000002,3.801436162989975e-13,0.02600000000000002,3.801436334575374e-13,0.02600000000000002,3.801436528710451e-13,0.02600000000000002,3.801436752648445e-13,0.02600000000000002,3.801437014443714e-13,0.02600000000000002,3.801437322845905e-13,0.02600000000000002,3.801437687185013e-13,0.02600000000000002,3.801438117253306e-13,0.02600000000000002,3.801438623189466e-13,0.02600000000000002,3.801439215369246e-13
0.02700000000000002,3.511271222758827e-13,0.02700000000000002,3.779335993968487e-13,0.02700000000000002,3.801415375363756e-13,0.02700000000000002,3.801440670474019e-13,0.02700000000000002,3.801440811115068e-13,0.02700000000000002,3.801440954631962e-13,0.02700000000000002,3.801441104650557e-13,0.02700000000000002,3.801441265770013e-13,0.02700000000000002,3.801441443592963e-13,0.02700000000000002,3.801441644704557e-13,0.02700000000000002,3.801441876611254e-13,0.02700000000000002,3.801442147650524e-13,0.02700000000000002,3.80144246688143e-13,0.02700000000000002,3.801442843965525e-13,0.02700000000000002,3.801443289044554e-13,0.02700000000000002,3.801443812620405e-13,0.02700000000000002,3.801444425441742e-13
0.02800000000000002,3.511221673189879e-13,0.02800000000000002,3.779335631408946e-13,0.02800000000000002,3.801420067758926e-13,0.02800000000000002,3.801445946886309e-13,0.02800000000000002,3.801446092863943e-13,0.02800000000000002,3.801446241782985e-13,0.02800000000000002,3.801446397391184e-13,0.02800000000000002,3.801446564444203e-13,0.02800000000000002,3.801446748737204e-13,0.02800000000000002,3.801446957083862e-13,0.02800000000000002,3.801447197253345e-13,0.02800000000000002,3.801447477876804e-13,0.02800000000000002,3.801447808334319e-13,0.02800000000000002,3.801448198631567e-13,0.02800000000000002,3.801448659273037e-13,0.02800000000000002,3.801449201137658e-13,0.02800000000000002,3.801449835361211e-13
0.02900000000000002,3.511171062840274e-13,0.02900000000000002,3.779335341493948e-13,0.02900000000000002,3.801424949209411e-13,0.02900000000000002,3.801451425870634e-13,0.02900000000000002,3.801451577388564e-13,0.02900000000000002,3.80145173191495e-13,0.02900000000000002,3.801451893323846e-13,0.02900000000000002,3.80145206653299e-13,0.02900000000000002,3.801452257537185e-13,0.02900000000000002,3.801452473387082e-13,0.02900000000000002,3.801452722124238e-13,0.02900000000000002,3.801453012684527e-13,0.02900000000000002,3.801453354781144e-13,0.02900000000000002,3.80145375877685e-13,0.02900000000000002,3.801454235552672e-13,0.02900000000000002,3.80145479637893e-13,0.02900000000000002,3.801455452793283e-13
0.03000000000000002,3.51111937034311e-13,0.03000000000000002,3.779335129003883e-13,0.03000000000000002,3.801430027178345e-13,0.03000000000000002,3.8014571152043e-13,0.03000000000000002,3.801457272473969e-13,0.03000000000000002,3.801457432820689e-13,0.03000000000000002,3.801457600249319e-13,0.03000000000000002,3.801457779845526e-13,0.03000000000000002,3.801457977811055e-13,0.03000000000000002,3.801458201442258e-13,0.03000000000000002,3.801458459063229e-13,0.03000000000000002,3.801458759925899e-13,0.03000000000000002,3.801459114089231e-13,0.03000000000000002,3.801459532286481e-13,0.03000000000000002,3.801460025789463e-13,0.03000000000000002,3.801460606274928e-13,0.03000000000000002,3.801461285697681e-13
