;Version, 1, 0
;/M2/D (vds=0.1),;/M2/D (vds=0.2),;/M2/D (vds=0.3),;/M2/D (vds=0.4),;/M2/D (vds=0.5),;/M2/D (vds=0.6),;/M2/D (vds=0.7),;/M2/D (vds=0.8),;/M2/D (vds=0.9)
;X, Y,;X, Y,;X, Y,;X, Y,;X, Y,;X, Y,;X, Y,;X, Y,;X, Y
;Re, Re,;Re, Re,;Re, Re,;Re, Re,;Re, Re,;Re, Re,;Re, Re,;Re, Re,;Re, Re
;vtest, I,;vtest, I,;vtest, I,;vtest, I,;vtest, I,;vtest, I,;vtest, I,;vtest, I,;vtest, I
;xunit, A,;xunit, A,;xunit, A,;xunit, A,;xunit, A,;xunit, A,;xunit, A,;xunit, A,;xunit, A
0,1.051453136580383e-12,0,1.183876146683137e-12,0,1.313153213981522e-12,0,1.44142178560471e-12,0,1.569239384267411e-12,0,1.696816457405806e-12,0,1.824250126406178e-12,0,1.951591424137342e-12,0,2.078869735987893e-12
0.0001,1.054562165363972e-12,0.0001,1.187091123406411e-12,0.0001,1.3164638586743e-12,0.0001,1.444824802815072e-12,0.0001,1.572733300355049e-12,0.0001,1.700400486407666e-12,0.0001,1.82792379972135e-12,0.0001,1.955354439925709e-12,0.0001,2.082721888430562e-12
0.0002,1.057681340031847e-12,0.0002,1.190316591759533e-12,0.0002,1.319785307195985e-12,0.0002,1.44823892529804e-12,0.0002,1.576238618350446e-12,0.0002,1.703996211386984e-12,0.0002,1.831609461556146e-12,0.0002,1.959129735789142e-12,0.0002,2.086586611832642e-12
0.0003,1.060810693627162e-12,0.0003,1.193552585912685e-12,0.0003,1.323117594732521e-12,0.0003,1.451664189222887e-12,0.0003,1.579755375388456e-12,0.0003,1.707603670437483e-12,0.0003,1.835307150954796e-12,0.0003,1.962917351722575e-12,0.0003,2.090463947137049e-12
0.0004,1.063950259302257e-12,0.0004,1.196799140146947e-12,0.0004,1.32646075658612e-12,0.0004,1.455100630874149e-12,0.0004,1.583283608723902e-12,0.0004,1.711222901774274e-12,0.0004,1.839016907089394e-12,0.0004,1.966717327850164e-12,0.0004,2.094353935417171e-12
0.0005,1.067100070314623e-12,0.0005,1.200056288854652e-12,0.0005,1.329814828171481e-12,0.0005,1.458548286657314e-12,0.0005,1.586823355733609e-12,0.0005,1.714853943737613e-12,0.0005,1.842738769259733e-12,0.0005,1.970529704426866e-12,0.0005,2.09825661788331e-12
0.0006000000000000001,1.070260160032596e-12,0.0006000000000000001,1.20332406653922e-12,0.0006000000000000001,1.333179845019256e-12,0.0006000000000000001,1.462007193093326e-12,0.0006000000000000001,1.59037465391513e-12,0.0006000000000000001,1.718496834792721e-12,0.0006000000000000001,1.846472776892556e-12,0.0006000000000000001,1.974354521839436e-12,0.0006000000000000001,2.102172035875858e-12
0.0007000000000000001,1.073430561930814e-12,0.0007000000000000001,1.206602507817032e-12,0.0007000000000000001,1.336555842776418e-12,0.0007000000000000001,1.465477386823223e-12,0.0007000000000000001,1.593937540887128e-12,0.0007000000000000001,1.72215161352962e-12,0.0007000000000000001,1.850218969542519e-12,0.0007000000000000001,1.978191820603301e-12,0.0007000000000000001,2.106100230872967e-12
0.0008000000000000001,1.076611309593003e-12,0.0008000000000000001,1.209891647416255e-12,0.0008000000000000001,1.339942857204015e-12,0.0008000000000000001,1.468958904606915e-12,0.0008000000000000001,1.597512054391955e-12,0.0008000000000000001,1.725818318661825e-12,0.0008000000000000001,1.853977386892597e-12,0.0008000000000000001,1.982041641367092e-12,0.0008000000000000001,2.110041244484923e-12
0.0009000000000000002,1.079802436712308e-12,0.0009000000000000002,1.213191520178719e-12,0.0009000000000000002,1.343340924180135e-12,0.0009000000000000002,1.472451783322464e-12,0.0009000000000000002,1.60109823229328e-12,0.0009000000000000002,1.729496989031251e-12,0.0009000000000000002,1.857748068755054e-12,0.0009000000000000002,1.985904024911887e-12,0.0009000000000000002,2.11399511845819e-12
0.001,1.083003977091155e-12,0.001,1.216502161058239e-12,0.001,1.346750079699228e-12,0.001,1.475956059969696e-12,0.001,1.604696112578132e-12,0.001,1.733187663603523e-12,0.001,1.861531055071289e-12,0.001,1.989779012149245e-12,0.001,2.117961894674636e-12
0.0011,1.086215964641583e-12,0.0011,1.219823605121984e-12,0.0011,1.350170359872998e-12,0.0011,1.479471771666808e-12,0.0011,1.608305733357279e-12,0.0011,1.736890381472896e-12,0.0011,1.865326385912218e-12,0.0011,1.993666644125781e-12,0.0011,2.121941615151938e-12
0.0012,1.089438433386584e-12,0.0012,1.223155887552866e-12,0.0012,1.35360180092919e-12,0.0012,1.482998955652891e-12,0.0012,1.611927132863954e-12,0.0012,1.740605181858687e-12,0.0012,1.869134101479272e-12,0.0012,1.997566962019412e-12,0.0012,2.125934322044636e-12
0.0013,1.09267141745748e-12,0.0013,1.226499043645822e-12,0.0013,1.357044439214056e-12,0.0013,1.486537649288852e-12,0.0013,1.61556034945646e-12,0.0013,1.744332104109074e-12,0.0013,1.872954242103643e-12,0.0013,2.001480007143353e-12,0.0013,2.129940057643326e-12
0.0014,1.095914951099201e-12,0.0014,1.229853108811744e-12,0.0014,1.3604983111922e-12,0.0014,1.490087890056171e-12,0.0014,1.619205421618e-12,0.0014,1.748071187698648e-12,0.0014,1.87678684824784e-12,0.0014,2.005405820943548e-12,0.0014,2.133958864376305e-12
0.0015,1.099169068665208e-12,0.0015,1.233218118575787e-12,0.0015,1.363963453446421e-12,0.0015,1.493649715557277e-12,0.0015,1.622862387955963e-12,0.0015,1.751822472231671e-12,0.0015,1.880631960506706e-12,0.0015,2.009344445001484e-12,0.0015,2.137990784810633e-12
0.001600000000000001,1.102433804622779e-12,0.001600000000000001,1.236594108578762e-12,0.001600000000000001,1.367439902677029e-12,0.001600000000000001,1.497223163518643e-12,0.001600000000000001,1.626531287203421e-12,0.001600000000000001,1.755585997439043e-12,0.001600000000000001,1.884489619605477e-12,0.001600000000000001,2.013295921033414e-12,0.001600000000000001,2.142035861649482e-12
0.001700000000000001,1.105709193549395e-12,0.001700000000000001,1.239981114577488e-12,0.001700000000000001,1.370927695705382e-12,0.001700000000000001,1.500808271787366e-12,0.001700000000000001,1.630212158219524e-12,0.001700000000000001,1.759361803182708e-12,0.001700000000000001,1.88835986640195e-12,0.001700000000000001,2.017260290891373e-12,0.001700000000000001,2.146094137736872e-12
0.001800000000000001,1.108995270136076e-12,0.001800000000000001,1.243379172443619e-12,0.001800000000000001,1.374426869471085e-12,0.001800000000000001,1.504405078334813e-12,0.001800000000000001,1.633905039988216e-12,0.001800000000000001,1.763149929452627e-12,0.001800000000000001,1.892242741886901e-12,0.001800000000000001,2.021237596561813e-12,0.001800000000000001,2.150165656054415e-12
0.001900000000000001,1.112292069184732e-12,0.001900000000000001,1.246788318167084e-12,0.001900000000000001,1.377937461033955e-12,0.001900000000000001,1.50801362125373e-12,0.001900000000000001,1.637609971621982e-12,0.001900000000000001,1.766950416368896e-12,0.001900000000000001,1.896138287184498e-12,0.001900000000000001,2.025227880169617e-12,0.001900000000000001,2.154250459723594e-12
0.002,1.115599625612517e-12,0.002,1.250208587853377e-12,0.002,1.381459507574398e-12,0.002,1.511633938763005e-12,0.002,1.641326992358893e-12,0.002,1.770763304182156e-12,0.002,1.90004654355095e-12,0.002,2.029231183974326e-12,0.002,2.1583485920062e-12
0.0021,1.118917974448182e-12,0.0021,1.253640017725451e-12,0.0021,1.38499304639378e-12,0.0021,1.515266069203126e-12,0.0021,1.645056141564677e-12,0.0021,1.774588633273422e-12,0.0021,1.903967552378464e-12,0.0021,2.033247550374784e-12,0.0021,2.162460096304159e-12
0.0022,1.122247150834931e-12,0.0022,1.257082644124099e-12,0.0022,1.388538114913213e-12,0.0022,1.5189100510415e-12,0.0022,1.648797458732558e-12,0.0022,1.778426444155074e-12,0.0022,1.907901355191529e-12,0.0022,2.037277021905941e-12,0.0022,2.166585016159959e-12
0.0023,1.125587190029771e-12,0.0023,1.260536503508317e-12,0.0023,1.392094750677128e-12,0.0023,1.522565922867907e-12,0.0023,1.652550983485342e-12,0.0023,1.782276777470682e-12,0.0023,1.911847993650886e-12,0.0023,2.041319641240491e-12,0.0023,2.170723395258963e-12
0.0024,1.128938127404377e-12,0.0024,1.264001632454113e-12,0.0024,1.395662991349917e-12,0.0024,1.526233723399828e-12,0.0024,1.656316755573007e-12,0.0024,1.786139673996e-12,0.0024,1.915807509552168e-12,0.0024,2.04537545119173e-12,0.0024,2.174875277426739e-12
0.0025,1.132299998444941e-12,0.0025,1.267478067657995e-12,0.0025,1.399242874720058e-12,0.0025,1.529913491478451e-12,0.0025,1.660094814875356e-12,0.0025,1.790015174639377e-12,0.0025,1.919779944826924e-12,0.0025,2.049444494709135e-12,0.0025,2.179040706631367e-12
0.002599999999999999,1.13567283875354e-12,0.002599999999999999,1.270965845934229e-12,0.002599999999999999,1.402834438697291e-12,0.002599999999999999,1.533605266072348e-12,0.002599999999999999,1.663885201400158e-12,0.002599999999999999,1.793903320441015e-12,0.002599999999999999,1.92376534154185e-12,0.002599999999999999,2.053526814884877e-12,0.002599999999999999,2.183219726983888e-12
0.002699999999999999,1.139056684047494e-12,0.002699999999999999,1.274465004217281e-12,0.002699999999999999,1.406437721315674e-12,0.002699999999999999,1.537309086275683e-12,0.002699999999999999,1.667687955287518e-12,0.002699999999999999,1.797804152575114e-12,0.002699999999999999,1.927763741900997e-12,0.002699999999999999,2.057622454947561e-12,0.002699999999999999,2.187412382739378e-12
0.002799999999999999,1.142451570159213e-12,0.002799999999999999,1.277975579562207e-12,0.002799999999999999,1.410052760731283e-12,0.002799999999999999,1.541024991309697e-12,0.002799999999999999,1.671503116806323e-12,0.002799999999999999,1.801717712349142e-12,0.002799999999999999,1.931775188245609e-12,0.002799999999999999,2.061731458268754e-12,0.002799999999999999,2.191618718294889e-12
0.002899999999999999,1.145857533038585e-12,0.002899999999999999,1.281497609141878e-12,0.002899999999999999,1.413679595225291e-12,0.002899999999999999,1.544753020523658e-12,0.002899999999999999,1.675330726355767e-12,0.002899999999999999,1.805644041205984e-12,0.002899999999999999,1.935799723053347e-12,0.002899999999999999,2.065853868359155e-12,0.002899999999999999,2.195838778192398e-12
0.002999999999999999,1.149274608751314e-12,0.002999999999999999,1.285031130253121e-12,0.002999999999999999,1.417318263202743e-12,0.002999999999999999,1.548493213394172e-12,0.002999999999999999,1.679170824466908e-12,0.002999999999999999,1.809583180720295e-12,0.002999999999999999,1.939837388941126e-12,0.002999999999999999,2.069989728872095e-12,0.002999999999999999,2.200072607119268e-12
0.003099999999999999,1.152702833480809e-12,0.003099999999999999,1.288576180310805e-12,0.003099999999999999,1.420968803192391e-12,0.003099999999999999,1.552245609524998e-12,0.003099999999999999,1.683023451803083e-12,0.003099999999999999,1.813535172604747e-12,0.003099999999999999,1.943888228663133e-12,0.003099999999999999,2.074139083601525e-12,0.003099999999999999,2.204320249906816e-12
0.003199999999999998,1.156142243528039e-12,0.003199999999999998,1.292132796853469e-12,0.003199999999999998,1.424631253849799e-12,0.003199999999999998,1.556010248650247e-12,0.003199999999999998,1.686888649158025e-12,0.003199999999999998,1.817500058705196e-12,0.003199999999999998,1.947952285112472e-12,0.003199999999999998,2.078301976483683e-12,0.003199999999999998,2.208581751532015e-12
0.003299999999999998,1.159592875310884e-12,0.003299999999999998,1.295701017540019e-12,0.003299999999999998,1.428305653954482e-12,0.003299999999999998,1.55978717063144e-12,0.003299999999999998,1.690766457458573e-12,0.003299999999999998,1.821477881004027e-12,0.003299999999999998,1.952029601322194e-12,0.003299999999999998,2.082478451598162e-12,0.003299999999999998,2.212857157118585e-12
0.003399999999999998,1.163054765366542e-12,0.003399999999999998,1.299280880152742e-12,0.003399999999999998,1.431992042413008e-12,0.003399999999999998,1.563576415460694e-12,0.003399999999999998,1.694656917765072e-12,0.003399999999999998,1.825468681620584e-12,0.003399999999999998,1.95612022046332e-12,0.003399999999999998,2.086668553165878e-12,0.003399999999999998,2.217146511934923e-12
0.003499999999999998,1.166527950349855e-12,0.003499999999999998,1.302872422595584e-12,0.003499999999999998,1.435690458257217e-12,0.003499999999999998,1.567378023258897e-12,0.003499999999999998,1.698560071270084e-12,0.003499999999999998,1.829472502809831e-12,0.003499999999999998,1.960224185849502e-12,0.003499999999999998,2.090872325553852e-12,0.003499999999999998,2.221449861398983e-12
0.003599999999999998,1.170012467035215e-12,0.003599999999999998,1.30647568289611e-12,0.003599999999999998,1.439400940646258e-12,0.003599999999999998,1.571192034277791e-12,0.003599999999999998,1.702475959300517e-12,0.003599999999999998,1.833489386964546e-12,0.003599999999999998,1.964341540933243e-12,0.003599999999999998,2.095089813271326e-12,0.003599999999999998,2.225767251074318e-12
0.003699999999999998,1.17350835231591e-12,0.003699999999999998,1.310090699204836e-12,0.003699999999999998,1.44312352886588e-12,0.003699999999999998,1.575018488899258e-12,0.003699999999999998,1.706404623316893e-12,0.003699999999999998,1.837519376614567e-12,0.003699999999999998,1.968472329307529e-12,0.003699999999999998,2.099321060971442e-12,0.003699999999999998,2.230098726671785e-12
0.003799999999999997,1.177015643205524e-12,0.003799999999999997,1.313717509796673e-12,0.003799999999999997,1.446858262329382e-12,0.003799999999999997,1.578857427636285e-12,0.003799999999999997,1.710346104914345e-12,0.003799999999999997,1.841562514427813e-12,0.003799999999999997,1.972616594709309e-12,0.003799999999999997,2.103566113454814e-12,0.003799999999999997,2.234444334053205e-12
0.003899999999999997,1.180534376837285e-12,0.003899999999999997,1.317356153070247e-12,0.003899999999999997,1.450605180579111e-12,0.003899999999999997,1.582708891134507e-12,0.003899999999999997,1.714300445824197e-12,0.003899999999999997,1.845618843211909e-12,0.003899999999999997,1.976774381014478e-12,0.003899999999999997,2.107825015664368e-12,0.003899999999999997,2.238804119226088e-12
0.003999999999999997,1.184064590464948e-12,0.003999999999999997,1.321006667548833e-12,0.003999999999999997,1.454364323284665e-12,0.003999999999999997,1.586572920169796e-12,0.003999999999999997,1.718267687911486e-12,0.003999999999999997,1.84968840591164e-12,0.003999999999999997,1.98094573224378e-12,0.003999999999999997,2.112097812691413e-12,0.003999999999999997,2.243178128349834e-12
0.004099999999999998,1.187606321464217e-12,0.004099999999999998,1.324669091881257e-12,0.004099999999999998,1.45813573024384e-12,0.004099999999999998,1.590449555651498e-12,0.004099999999999998,1.722247873178287e-12,0.004099999999999998,1.853771245611767e-12,0.004099999999999998,1.985130692559613e-12,0.004099999999999998,2.116384549771728e-12,0.004099999999999998,2.247566407731739e-12
0.004199999999999998,1.191159607330012e-12,0.004199999999999998,1.328343464841776e-12,0.004199999999999998,1.461919441384687e-12,0.004199999999999998,1.594338838621146e-12,0.004199999999999998,1.726241043762397e-12,0.004199999999999998,1.857867405538062e-12,0.004199999999999998,1.989329306267078e-12,0.004199999999999998,2.120685272289763e-12,0.004199999999999998,2.251969003830653e-12
0.004299999999999998,1.194724485680986e-12,0.004299999999999998,1.332029825328848e-12,0.004299999999999998,1.465715496764809e-12,0.004299999999999998,1.59824081025401e-12,0.004299999999999998,1.730247241938338e-12,0.004299999999999998,1.861976929054762e-12,0.004299999999999998,1.993541617816869e-12,0.004299999999999998,2.125000025775357e-12,0.004299999999999998,2.256385963256173e-12
0.004399999999999999,1.198300994256806e-12,0.004399999999999999,1.335728212369814e-12,0.004399999999999999,1.46952393657067e-12,0.004399999999999999,1.602155511857815e-12,0.004399999999999999,1.734266510118372e-12,0.004399999999999999,1.866099859667989e-12,0.004399999999999999,1.997767671802667e-12,0.004399999999999999,2.129328855906677e-12,0.004399999999999999,2.260817332767827e-12
0.004499999999999999,1.201889170920084e-12,0.004499999999999999,1.339438665116471e-12,0.004499999999999999,1.473344801120754e-12,0.004499999999999999,1.606082984875988e-12,0.004499999999999999,1.738298890852341e-12,0.004499999999999999,1.870236241024995e-12,0.004499999999999999,2.002007512963434e-12,0.004499999999999999,2.13367180851134e-12,0.004499999999999999,2.265263159278765e-12
0.004599999999999999,1.205489053655203e-12,0.004599999999999999,1.343161222849225e-12,0.004599999999999999,1.477178130863214e-12,0.004599999999999999,1.610023270885246e-12,0.004599999999999999,1.74234442682752e-12,0.004599999999999999,1.874386116913409e-12,0.004599999999999999,2.006261186182006e-12,0.004599999999999999,2.138028929564344e-12,0.004599999999999999,2.269723489853014e-12
0.004699999999999999,1.209100680571819e-12,0.004699999999999999,1.346895924974256e-12,0.004699999999999999,1.481023966377943e-12,0.004699999999999999,1.613976411597719e-12,0.004699999999999999,1.746403160869626e-12,0.004699999999999999,1.878549531264676e-12,0.004699999999999999,2.010528736488642e-12,0.004699999999999999,2.142400265190426e-12,0.004699999999999999,2.274198371707233e-12
0.0048,1.212724089901087e-12,0.0048,1.350642811027152e-12,0.0048,1.484882348376427e-12,0.0048,1.617942448860229e-12,0.0048,1.750475135944425e-12,0.0048,1.882726528152095e-12,0.0048,2.014810209058385e-12,0.0048,2.146785861663263e-12,0.0048,2.278687852212495e-12
0.0049,1.216359319999687e-12,0.0049,1.354401920671149e-12,0.0049,1.488753317701591e-12,0.0049,1.621921424656424e-12,0.0049,1.754560395156408e-12,0.0049,1.886917151791874e-12,0.0049,2.019105649214612e-12,0.0049,2.151185765407835e-12,0.0049,2.283191978892822e-12
0.005,1.220006409348133e-12,0.005,1.358173293698078e-12,0.005,1.492636915330458e-12,0.005,1.625913381106071e-12,0.005,1.758658981749812e-12,0.005,1.891121446543573e-12,0.005,2.023415102425157e-12,0.005,2.155600022999635e-12,0.005,2.287710799426306e-12
0.0051,1.223665396552204e-12,0.0051,1.361956970028756e-12,0.0051,1.496533182371202e-12,0.0051,1.629918360464324e-12,0.0051,1.762770939109652e-12,0.0051,1.895339456910543e-12,0.0051,2.027738614307734e-12,0.0051,2.160028681163236e-12,0.0051,2.2922443616456e-12
0.005200000000000001,1.227336320342811e-12,0.005200000000000001,1.365752989715028e-12,0.005200000000000001,1.500442160066923e-12,0.005200000000000001,1.633936405124446e-12,0.005200000000000001,1.766896310760967e-12,0.005200000000000001,1.899571227541602e-12,0.005200000000000001,2.032076230627293e-12,0.005200000000000001,2.164471786778469e-12,0.005200000000000001,2.296792713539696e-12
0.005300000000000001,1.23101921957586e-12,0.005300000000000001,1.369561392936365e-12,0.005300000000000001,1.50436388979382e-12,0.005300000000000001,1.637967557617671e-12,0.005300000000000001,1.771035140371045e-12,0.005300000000000001,1.90381680322905e-12,0.005300000000000001,2.036427997296477e-12,0.005300000000000001,2.168929386873278e-12,0.005300000000000001,2.301355903252458e-12
0.005400000000000001,1.234714133234223e-12,0.005400000000000001,1.373382220004074e-12,0.005400000000000001,1.508298413062176e-12,0.005400000000000001,1.642011860613053e-12,0.005400000000000001,1.775187471748081e-12,0.005400000000000001,1.908076228912166e-12,0.005400000000000001,2.04079396037796e-12,0.005400000000000001,2.173401528631827e-12,0.005400000000000001,2.30593397908311e-12
0.005500000000000001,1.238421100427614e-12,0.005500000000000001,1.377215511359528e-12,0.005500000000000001,1.512245771516769e-12,0.005500000000000001,1.646069356916743e-12,0.005500000000000001,1.779353348842215e-12,0.005500000000000001,1.912349549674004e-12,0.005500000000000001,2.045174166083657e-12,0.005500000000000001,2.177888259388604e-12,0.005500000000000001,2.310526989489332e-12
0.005600000000000002,1.24214016039086e-12,0.005600000000000002,1.381061307576765e-12,0.005600000000000002,1.516206006938421e-12,0.005600000000000002,1.65014008947473e-12,0.005600000000000002,1.783532815747759e-12,0.005600000000000002,1.91663681074551e-12,0.005600000000000002,2.049568660774579e-12,0.005600000000000002,2.182389626633375e-12,0.005600000000000002,2.315134983085138e-12
