;Version, 1, 0
;/M2/D (M=1),;/M2/D (M=2),;/M2/D (M=3),;/M2/D (M=4),;/M2/D (M=5),;/M2/D (M=6),;/M2/D (M=7),;/M2/D (M=8),;/M2/D (M=9),;/M2/D (M=10),;/M2/D (M=11),;/M2/D (M=12),;/M2/D (M=13),;/M2/D (M=14),;/M2/D (M=15),;/M2/D (M=16),;/M2/D (M=17),;/M2/D (M=18),;/M2/D (M=19),;/M2/D (M=20)
;X, Y,;X, Y,;X, Y,;X, Y,;X, Y,;X, Y,;X, Y,;X, Y,;X, Y,;X, Y,;X, Y,;X, Y,;X, Y,;X, Y,;X, Y,;X, Y,;X, Y,;X, Y,;X, Y,;X, Y
;Re, Re,;Re, Re,;Re, Re,;Re, Re,;Re, Re,;Re, Re,;Re, Re,;Re, Re,;Re, Re,;Re, Re,;Re, Re,;Re, Re,;Re, Re,;Re, Re,;Re, Re,;Re, Re,;Re, Re,;Re, Re,;Re, Re,;Re, Re
;vtest, I,;vtest, I,;vtest, I,;vtest, I,;vtest, I,;vtest, I,;vtest, I,;vtest, I,;vtest, I,;vtest, I,;vtest, I,;vtest, I,;vtest, I,;vtest, I,;vtest, I,;vtest, I,;vtest, I,;vtest, I,;vtest, I,;vtest, I
;xunit, A,;xunit, A,;xunit, A,;xunit, A,;xunit, A,;xunit, A,;xunit, A,;xunit, A,;xunit, A,;xunit, A,;xunit, A,;xunit, A,;xunit, A,;xunit, A,;xunit, A,;xunit, A,;xunit, A,;xunit, A,;xunit, A,;xunit, A
0,2.126014184492757e-12,0,2.602028368985513e-12,0,3.07804255347827e-12,0,3.554056737971026e-12,0,4.030070922463783e-12,0,4.50608510695654e-12,0,4.982099291449296e-12,0,5.458113475942053e-12,0,5.93412766043481e-12,0,6.410141844927567e-12,0,6.886156029420322e-12,0,7.362170213913079e-12,0,7.838184398405835e-12,0,8.314198582898592e-12,0,8.790212767391348e-12,0,9.266226951884106e-12,0,9.742241136376862e-12,0,1.021825532086962e-11,0,1.069426950536238e-11,0,1.117028368985513e-11
0.036,3.213660880778511e-12,0.036,4.777321761557022e-12,0.036,6.340982642335531e-12,0.036,7.904643523114044e-12,0.036,9.468304403892553e-12,0.036,1.103196528467106e-11,0.036,1.259562616544958e-11,0.036,1.415928704622809e-11,0.036,1.57229479270066e-11,0.036,1.72866088077851e-11,0.036,1.885026968856362e-11,0.036,2.041393056934213e-11,0.036,2.197759145012064e-11,0.036,2.354125233089915e-11,0.036,2.510491321167766e-11,0.036,2.666857409245617e-11,0.036,2.823223497323468e-11,0.036,2.979589585401319e-11,0.036,3.135955673479171e-11,0.036,3.292321761557021e-11
0.07200000000000001,6.775700075982188e-12,0.07200000000000001,1.190140015196438e-11,0.07200000000000001,1.702710022794656e-11,0.07200000000000001,2.215280030392875e-11,0.07200000000000001,2.727850037991094e-11,0.07200000000000001,3.240420045589312e-11,0.07200000000000001,3.752990053187531e-11,0.07200000000000001,4.26556006078575e-11,0.07200000000000001,4.77813006838397e-11,0.07200000000000001,5.290700075982189e-11,0.07200000000000001,5.803270083580407e-11,0.07200000000000001,6.315840091178625e-11,0.07200000000000001,6.828410098776843e-11,0.07200000000000001,7.340980106375062e-11,0.07200000000000001,7.853550113973282e-11,0.07200000000000001,8.3661201215715e-11,0.07200000000000001,8.87869012916972e-11,0.07200000000000001,9.391260136767939e-11,0.07200000000000001,9.903830144366159e-11,0.07200000000000001,1.041640015196438e-10
0.108,1.838877770128466e-11,0.108,3.512755540256932e-11,0.108,5.186633310385398e-11,0.108,6.860511080513864e-11,0.108,8.53438885064233e-11,0.108,1.02082666207708e-10,0.108,1.188214439089926e-10,0.108,1.355602216102773e-10,0.108,1.522989993115619e-10,0.108,1.690377770128466e-10,0.108,1.857765547141313e-10,0.108,2.025153324154159e-10,0.108,2.192541101167006e-10,0.108,2.359928878179853e-10,0.108,2.527316655192699e-10,0.108,2.694704432205546e-10,0.108,2.862092209218392e-10,0.108,3.029479986231239e-10,0.108,3.196867763244085e-10,0.108,3.364255540256932e-10
0.144,5.59469406428565e-11,0.144,1.10243881285713e-10,0.144,1.645408219285695e-10,0.144,2.18837762571426e-10,0.144,2.731347032142825e-10,0.144,3.27431643857139e-10,0.144,3.817285844999955e-10,0.144,4.36025525142852e-10,0.144,4.903224657857085e-10,0.144,5.44619406428565e-10,0.144,5.989163470714214e-10,0.144,6.53213287714278e-10,0.144,7.075102283571345e-10,0.144,7.618071689999909e-10,0.144,8.161041096428475e-10,0.144,8.70401050285704e-10,0.144,9.246979909285604e-10,0.144,9.789949315714171e-10,0.144,1.033291872214274e-09,0.144,1.08758881285713e-09
0.18,1.757159275146005e-10,0.18,3.497818550292011e-10,0.18,5.238477825438017e-10,0.18,6.979137100584022e-10,0.18,8.719796375730026e-10,0.18,1.046045565087604e-09,0.18,1.220111492602204e-09,0.18,1.394177420116804e-09,0.18,1.568243347631405e-09,0.18,1.742309275146005e-09,0.18,1.916375202660606e-09,0.18,2.090441130175207e-09,0.18,2.264507057689807e-09,0.18,2.438572985204408e-09,0.18,2.612638912719008e-09,0.18,2.786704840233609e-09,0.18,2.960770767748209e-09,0.18,3.13483669526281e-09,0.18,3.30890262277741e-09,0.18,3.48296855029201e-09
0.216,5.485856177218687e-10,0.216,1.095521235443738e-09,0.216,1.642456853165607e-09,0.216,2.189392470887475e-09,0.216,2.736328088609344e-09,0.216,3.283263706331213e-09,0.216,3.830199324053081e-09,0.216,4.37713494177495e-09,0.216,4.924070559496819e-09,0.216,5.471006177218688e-09,0.216,6.017941794940556e-09,0.216,6.564877412662426e-09,0.216,7.111813030384294e-09,0.216,7.658748648106163e-09,0.216,8.20568426582803e-09,0.216,8.752619883549899e-09,0.216,9.29955550127177e-09,0.216,9.846491118993637e-09,0.216,1.039342673671551e-08,0.216,1.094036235443738e-08
0.252,1.664952207699516e-09,0.252,3.328254415399031e-09,0.252,4.991556623098547e-09,0.252,6.654858830798063e-09,0.252,8.318161038497578e-09,0.252,9.981463246197093e-09,0.252,1.164476545389661e-08,0.252,1.330806766159613e-08,0.252,1.497136986929564e-08,0.252,1.663467207699516e-08,0.252,1.829797428469467e-08,0.252,1.996127649239419e-08,0.252,2.16245787000937e-08,0.252,2.328788090779322e-08,0.252,2.495118311549274e-08,0.252,2.661448532319225e-08,0.252,2.827778753089177e-08,0.252,2.994108973859129e-08,0.252,3.16043919462908e-08,0.252,3.326769415399032e-08
0.288,4.816346964587858e-09,0.288,9.631043929175717e-09,0.288,1.444574089376358e-08,0.288,1.926043785835143e-08,0.288,2.407513482293929e-08,0.288,2.888983178752715e-08,0.288,3.370452875211501e-08,0.288,3.851922571670287e-08,0.288,4.333392268129073e-08,0.288,4.814861964587859e-08,0.288,5.296331661046644e-08,0.288,5.777801357505431e-08,0.288,6.259271053964217e-08,0.288,6.740740750423001e-08,0.288,7.222210446881788e-08,0.288,7.703680143340574e-08,0.288,8.18514983979936e-08,0.288,8.666619536258146e-08,0.288,9.148089232716932e-08,0.288,9.629558929175717e-08
0.3240000000000001,1.303920276146842e-08,0.3240000000000001,2.607675552293684e-08,0.3240000000000001,3.911430828440526e-08,0.3240000000000001,5.215186104587368e-08,0.3240000000000001,6.51894138073421e-08,0.3240000000000001,7.822696656881052e-08,0.3240000000000001,9.126451933027893e-08,0.3240000000000001,1.043020720917474e-07,0.3240000000000001,1.173396248532158e-07,0.3240000000000001,1.303771776146842e-07,0.3240000000000001,1.434147303761526e-07,0.3240000000000001,1.56452283137621e-07,0.3240000000000001,1.694898358990894e-07,0.3240000000000001,1.825273886605579e-07,0.3240000000000001,1.955649414220263e-07,0.3240000000000001,2.086024941834947e-07,0.3240000000000001,2.216400469449631e-07,0.3240000000000001,2.346775997064315e-07,0.3240000000000001,2.477151524679e-07,0.3240000000000001,2.607527052293684e-07
0.3600000000000001,3.267088287787468e-08,0.3600000000000001,6.534011575574937e-08,0.3600000000000001,9.800934863362405e-08,0.3600000000000001,1.306785815114987e-07,0.3600000000000001,1.633478143893734e-07,0.3600000000000001,1.960170472672481e-07,0.3600000000000001,2.286862801451228e-07,0.3600000000000001,2.613555130229975e-07,0.3600000000000001,2.940247459008721e-07,0.3600000000000001,3.266939787787468e-07,0.3600000000000001,3.593632116566215e-07,0.3600000000000001,3.920324445344962e-07,0.3600000000000001,4.247016774123709e-07,0.3600000000000001,4.573709102902456e-07,0.3600000000000001,4.900401431681202e-07,0.3600000000000001,5.227093760459949e-07,0.3600000000000001,5.553786089238695e-07,0.3600000000000001,5.880478418017441e-07,0.3600000000000001,6.207170746796189e-07,0.3600000000000001,6.533863075574936e-07
0.3960000000000001,7.588354474597926e-08,0.3960000000000001,1.517654394919585e-07,0.3960000000000001,2.276473342379378e-07,0.3960000000000001,3.03529228983917e-07,0.3960000000000001,3.794111237298963e-07,0.3960000000000001,4.552930184758755e-07,0.3960000000000001,5.311749132218548e-07,0.3960000000000001,6.07056807967834e-07,0.3960000000000001,6.829387027138132e-07,0.3960000000000001,7.588205974597926e-07,0.3960000000000001,8.347024922057718e-07,0.3960000000000001,9.10584386951751e-07,0.3960000000000001,9.864662816977304e-07,0.3960000000000001,1.06234817644371e-06,0.3960000000000001,1.138230071189689e-06,0.3960000000000001,1.214111965935668e-06,0.3960000000000001,1.289993860681647e-06,0.3960000000000001,1.365875755427627e-06,0.3960000000000001,1.441757650173606e-06,0.3960000000000001,1.517639544919585e-06
0.4320000000000002,1.65285893510593e-07,0.4320000000000002,3.30570137021186e-07,0.4320000000000002,4.95854380531779e-07,0.4320000000000002,6.611386240423719e-07,0.4320000000000002,8.264228675529649e-07,0.4320000000000002,9.917071110635582e-07,0.4320000000000002,1.156991354574151e-06,0.4320000000000002,1.322275598084744e-06,0.4320000000000002,1.487559841595337e-06,0.4320000000000002,1.65284408510593e-06,0.4320000000000002,1.818128328616523e-06,0.4320000000000002,1.983412572127116e-06,0.4320000000000002,2.148696815637709e-06,0.4320000000000002,2.313981059148302e-06,0.4320000000000002,2.479265302658895e-06,0.4320000000000002,2.644549546169488e-06,0.4320000000000002,2.809833789680081e-06,0.4320000000000002,2.975118033190674e-06,0.4320000000000002,3.140402276701266e-06,0.4320000000000002,3.30568652021186e-06
0.4680000000000002,3.410677559379908e-07,0.4680000000000002,6.821338618759815e-07,0.4680000000000002,1.023199967813972e-06,0.4680000000000002,1.364266073751963e-06,0.4680000000000002,1.705332179689954e-06,0.4680000000000002,2.046398285627944e-06,0.4680000000000002,2.387464391565935e-06,0.4680000000000002,2.728530497503926e-06,0.4680000000000002,3.069596603441917e-06,0.4680000000000002,3.410662709379908e-06,0.4680000000000002,3.751728815317898e-06,0.4680000000000002,4.092794921255888e-06,0.4680000000000002,4.433861027193879e-06,0.4680000000000002,4.77492713313187e-06,0.4680000000000002,5.115993239069861e-06,0.4680000000000002,5.457059345007852e-06,0.4680000000000002,5.798125450945842e-06,0.4680000000000002,6.139191556883834e-06,0.4680000000000002,6.480257662821824e-06,0.4680000000000002,6.821323768759816e-06
0.5040000000000002,6.663619007985835e-07,0.5040000000000002,1.332722151597167e-06,0.5040000000000002,1.99908240239575e-06,0.5040000000000002,2.665442653194334e-06,0.5040000000000002,3.331802903992917e-06,0.5040000000000002,3.998163154791501e-06,0.5040000000000002,4.664523405590085e-06,0.5040000000000002,5.330883656388668e-06,0.5040000000000002,5.997243907187251e-06,0.5040000000000002,6.663604157985834e-06,0.5040000000000002,7.329964408784419e-06,0.5040000000000002,7.996324659583002e-06,0.5040000000000002,8.662684910381585e-06,0.5040000000000002,9.32904516118017e-06,0.5040000000000002,9.995405411978753e-06,0.5040000000000002,1.066176566277734e-05,0.5040000000000002,1.132812591357592e-05,0.5040000000000002,1.19944861643745e-05,0.5040000000000002,1.266084641517309e-05,0.5040000000000002,1.332720666597167e-05
0.5400000000000003,1.221095988032866e-06,0.5400000000000003,2.442190326065731e-06,0.5400000000000003,3.663284664098596e-06,0.5400000000000003,4.884379002131462e-06,0.5400000000000003,6.105473340164328e-06,0.5400000000000003,7.326567678197193e-06,0.5400000000000003,8.54766201623006e-06,0.5400000000000003,9.768756354262924e-06,0.5400000000000003,1.098985069229579e-05,0.5400000000000003,1.221094503032866e-05,0.5400000000000003,1.343203936836152e-05,0.5400000000000003,1.465313370639439e-05,0.5400000000000003,1.587422804442726e-05,0.5400000000000003,1.709532238246012e-05,0.5400000000000003,1.831641672049299e-05,0.5400000000000003,1.953751105852585e-05,0.5400000000000003,2.075860539655872e-05,0.5400000000000003,2.197969973459158e-05,0.5400000000000003,2.320079407262445e-05,0.5400000000000003,2.442188841065732e-05
0.5760000000000003,2.080995217346593e-06,0.5760000000000003,4.161988784693186e-06,0.5760000000000003,6.24298235203978e-06,0.5760000000000003,8.323975919386373e-06,0.5760000000000003,1.040496948673297e-05,0.5760000000000003,1.248596305407956e-05,0.5760000000000003,1.456695662142615e-05,0.5760000000000003,1.664795018877275e-05,0.5760000000000003,1.872894375611934e-05,0.5760000000000003,2.080993732346593e-05,0.5760000000000003,2.289093089081252e-05,0.5760000000000003,2.497192445815912e-05,0.5760000000000003,2.705291802550572e-05,0.5760000000000003,2.91339115928523e-05,0.5760000000000003,3.12149051601989e-05,0.5760000000000003,3.329589872754549e-05,0.5760000000000003,3.537689229489208e-05,0.5760000000000003,3.745788586223868e-05,0.5760000000000003,3.953887942958527e-05,0.5760000000000003,4.161987299693187e-05
0.6120000000000003,3.295861102111167e-06,0.6120000000000003,6.591720554222334e-06,0.6120000000000003,9.887580006333501e-06,0.6120000000000003,1.318343945844467e-05,0.6120000000000003,1.647929891055584e-05,0.6120000000000003,1.9775158362667e-05,0.6120000000000003,2.307101781477817e-05,0.6120000000000003,2.636687726688934e-05,0.6120000000000003,2.96627367190005e-05,0.6120000000000003,3.295859617111167e-05,0.6120000000000003,3.625445562322284e-05,0.6120000000000003,3.955031507533401e-05,0.6120000000000003,4.284617452744517e-05,0.6120000000000003,4.614203397955634e-05,0.6120000000000003,4.943789343166751e-05,0.6120000000000003,5.273375288377867e-05,0.6120000000000003,5.602961233588984e-05,0.6120000000000003,5.932547178800101e-05,0.6120000000000003,6.262133124011218e-05,0.6120000000000003,6.591719069222334e-05
0.6480000000000004,4.883590977138422e-06,0.6480000000000004,9.767180304276844e-06,0.6480000000000004,1.465076963141526e-05,0.6480000000000004,1.953435895855369e-05,0.6480000000000004,2.441794828569211e-05,0.6480000000000004,2.930153761283053e-05,0.6480000000000004,3.418512693996895e-05,0.6480000000000004,3.906871626710738e-05,0.6480000000000004,4.395230559424579e-05,0.6480000000000004,4.883589492138422e-05,0.6480000000000004,5.371948424852264e-05,0.6480000000000004,5.860307357566106e-05,0.6480000000000004,6.348666290279947e-05,0.6480000000000004,6.83702522299379e-05,0.6480000000000004,7.325384155707633e-05,0.6480000000000004,7.813743088421476e-05,0.6480000000000004,8.302102021135318e-05,0.6480000000000004,8.790460953849158e-05,0.6480000000000004,9.278819886563001e-05,0.6480000000000004,9.767178819276844e-05
0.6840000000000004,6.838823264097816e-06,0.6840000000000004,1.367764487819563e-05,0.6840000000000004,2.051646649229345e-05,0.6840000000000004,2.735528810639126e-05,0.6840000000000004,3.419410972048907e-05,0.6840000000000004,4.103293133458689e-05,0.6840000000000004,4.78717529486847e-05,0.6840000000000004,5.471057456278253e-05,0.6840000000000004,6.154939617688034e-05,0.6840000000000004,6.838821779097815e-05,0.6840000000000004,7.522703940507595e-05,0.6840000000000004,8.206586101917379e-05,0.6840000000000004,8.890468263327159e-05,0.6840000000000004,9.57435042473694e-05,0.6840000000000004,0.0001025823258614672,0.6840000000000004,0.0001094211474755651,0.6840000000000004,0.0001162599690896629,0.6840000000000004,0.0001230987907037607,0.6840000000000004,0.0001299376123178585,0.6840000000000004,0.0001367764339319563
0.7200000000000004,9.144753105949226e-06,0.7200000000000004,1.828950456189845e-05,0.7200000000000004,2.743425601784768e-05,0.7200000000000004,3.657900747379691e-05,0.7200000000000004,4.572375892974613e-05,0.7200000000000004,5.486851038569537e-05,0.7200000000000004,6.40132618416446e-05,0.7200000000000004,7.315801329759381e-05,0.7200000000000004,8.230276475354304e-05,0.7200000000000004,9.144751620949226e-05,0.7200000000000004,0.0001005922676654415,0.7200000000000004,0.0001097370191213907,0.7200000000000004,0.0001188817705773399,0.7200000000000004,0.0001280265220332892,0.7200000000000004,0.0001371712734892384,0.7200000000000004,0.0001463160249451876,0.7200000000000004,0.0001554607764011369,0.7200000000000004,0.0001646055278570861,0.7200000000000004,0.0001737502793130353,0.7200000000000004,0.0001828950307689845
0.7560000000000004,1.178113559659844e-05,0.7560000000000004,2.356226954319688e-05,0.7560000000000004,3.534340348979532e-05,0.7560000000000004,4.712453743639376e-05,0.7560000000000004,5.89056713829922e-05,0.7560000000000004,7.068680532959065e-05,0.7560000000000004,8.246793927618909e-05,0.7560000000000004,9.424907322278752e-05,0.7560000000000004,0.000106030207169386,0.7560000000000004,0.0001178113411159844,0.7560000000000004,0.0001295924750625828,0.7560000000000004,0.0001413736090091813,0.7560000000000004,0.0001531547429557797,0.7560000000000004,0.0001649358769023782,0.7560000000000004,0.0001767170108489766,0.7560000000000004,0.000188498144795575,0.7560000000000004,0.0002002792787421735,0.7560000000000004,0.0002120604126887719,0.7560000000000004,0.0002238415466353704,0.7560000000000004,0.0002356226805819688
0.7920000000000005,1.472794767314845e-05,0.7920000000000005,2.94558936962969e-05,0.7920000000000005,4.418383971944536e-05,0.7920000000000005,5.89117857425938e-05,0.7920000000000005,7.363973176574226e-05,0.7920000000000005,8.836767778889072e-05,0.7920000000000005,0.0001030956238120392,0.7920000000000005,0.0001178235698351876,0.7920000000000005,0.0001325515158583361,0.7920000000000005,0.0001472794618814845,0.7920000000000005,0.000162007407904633,0.7920000000000005,0.0001767353539277814,0.7920000000000005,0.0001914632999509299,0.7920000000000005,0.0002061912459740783,0.7920000000000005,0.0002209191919972268,0.7920000000000005,0.0002356471380203752,0.7920000000000005,0.0002503750840435237,0.7920000000000005,0.0002651030300666722,0.7920000000000005,0.0002798309760898206,0.7920000000000005,0.000294558922112969
0.8280000000000005,1.796646187245788e-05,0.8280000000000005,3.593292209491576e-05,0.8280000000000005,5.389938231737363e-05,0.8280000000000005,7.186584253983151e-05,0.8280000000000005,8.983230276228938e-05,0.8280000000000005,0.0001077987629847473,0.8280000000000005,0.0001257652232072051,0.8280000000000005,0.000143731683429663,0.8280000000000005,0.0001616981436521209,0.8280000000000005,0.0001796646038745787,0.8280000000000005,0.0001976310640970367,0.8280000000000005,0.0002155975243194945,0.8280000000000005,0.0002335639845419524,0.8280000000000005,0.0002515304447644103,0.8280000000000005,0.0002694969049868682,0.8280000000000005,0.0002874633652093261,0.8280000000000005,0.0003054298254317839,0.8280000000000005,0.0003233962856542418,0.8280000000000005,0.0003413627458766997,0.8280000000000005,0.0003593292060991575
0.8640000000000005,2.147923410636368e-05,0.8640000000000005,4.295846656272735e-05,0.8640000000000005,6.443769901909103e-05,0.8640000000000005,8.591693147545471e-05,0.8640000000000005,0.0001073961639318184,0.8640000000000005,0.000128875396388182,0.8640000000000005,0.0001503546288445457,0.8640000000000005,0.0001718338613009094,0.8640000000000005,0.0001933130937572731,0.8640000000000005,0.0002147923262136368,0.8640000000000005,0.0002362715586700005,0.8640000000000005,0.0002577507911263641,0.8640000000000005,0.0002792300235827278,0.8640000000000005,0.0003007092560390915,0.8640000000000005,0.0003221884884954552,0.8640000000000005,0.0003436677209518188,0.8640000000000005,0.0003651469534081825,0.8640000000000005,0.0003866261858645462,0.8640000000000005,0.0004081054183209099,0.8640000000000005,0.0004295846507772736
