;Version, 1, 0
;/Vout+ (VCTRL=0),;/Vout+ (VCTRL=0.04),;/Vout+ (VCTRL=0.08),;/Vout+ (VCTRL=0.12),;/Vout+ (VCTRL=0.16),;/Vout+ (VCTRL=0.2),;/Vout- (VCTRL=0),;/Vout- (VCTRL=0.04),;/Vout- (VCTRL=0.08),;/Vout- (VCTRL=0.12),;/Vout- (VCTRL=0.16),;/Vout- (VCTRL=0.2)
;X, Y,;X, Y,;X, Y,;X, Y,;X, Y,;X, Y,;X, Y,;X, Y,;X, Y,;X, Y,;X, Y,;X, Y
;Re, Re,;Re, Re,;Re, Re,;Re, Re,;Re, Re,;Re, Re,;Re, Re,;Re, Re,;Re, Re,;Re, Re,;Re, Re,;Re, Re
;vin, V,;vin, V,;vin, V,;vin, V,;vin, V,;vin, V,;vin, V,;vin, V,;vin, V,;vin, V,;vin, V,;vin, V
;xunit, V,;xunit, V,;xunit, V,;xunit, V,;xunit, V,;xunit, V,;xunit, V,;xunit, V,;xunit, V,;xunit, V,;xunit, V,;xunit, V
-0.2,1.501477967112415,-0.2,1.528129632224377,-0.2,1.557921310027531,-0.2,1.591660902358007,-0.2,1.626617745699716,-0.2,1.660294786683592,-0.2,1.501477967112415,-0.2,1.474802291853287,-0.2,1.444938742328579,-0.2,1.411081199899097,-0.2,1.375963333761159,-0.2,1.342077291958512
-0.192,1.501548504041387,-0.192,1.527120504675442,-0.192,1.55574326755189,-0.192,1.588605742393211,-0.192,1.623133399871344,-0.192,1.656453724123676,-0.192,1.501548504041387,-0.192,1.475953550507078,-0.192,1.447262079961944,-0.192,1.414286632115484,-0.192,1.37960501738837,-0.192,1.346092187626542
-0.184,1.501616861629212,-0.184,1.526092329563473,-0.184,1.553516423641347,-0.184,1.585392420419124,-0.184,1.619410870959004,-0.184,1.652411612059013,-0.184,1.501616861629212,-0.184,1.477119568309702,-0.184,1.449630092355535,-0.184,1.417646446536604,-0.184,1.383481540219635,-0.184,1.350298675481787
-0.176,1.501683612546898,-0.176,1.52505903970018,-0.176,1.551254513231392,-0.176,1.582036550467623,-0.176,1.615453000441865,-0.176,1.648083251036752,-0.176,1.501683612546898,-0.176,1.478287551548019,-0.176,1.452030236655098,-0.176,1.421146262027827,-0.176,1.387591356095978,-0.176,1.354790028106301
-0.168,1.501749385417025,-0.168,1.524023261297483,-0.168,1.548968843138444,-0.168,1.578555271446073,-0.168,1.611263476258099,-0.168,1.643464635665877,-0.168,1.501749385417025,-0.168,1.479456136216755,-0.168,1.45445248279361,-0.168,1.424770255406149,-0.168,1.391932156621971,-0.168,1.359571679337743
-0.16,1.501814840498906,-0.16,1.522986810092643,-0.16,1.546668488396754,-0.16,1.574966795078856,-0.16,1.606847345273344,-0.16,1.638552097941857,-0.16,1.501814840498906,-0.16,1.480624831529484,-0.16,1.456889091694981,-0.16,1.42850157469984,-0.16,1.396500281681203,-0.16,1.364648605851733
-0.152,1.501880643890931,-0.152,1.521950834313648,-0.152,1.544360394828224,-0.152,1.571289979310678,-0.152,1.602212284879645,-0.152,1.633344631225465,-0.152,1.501880643890931,-0.152,1.481793820915582,-0.152,1.459334440783242,-0.152,1.432322654176625,-0.152,1.401289238137631,-0.152,1.37002256501388
-0.144,1.501947398220123,-0.144,1.520916009050233,-0.144,1.542049846117438,-0.144,1.56754440993583,-0.144,1.597371356592667,-0.144,1.62784803415564,-0.144,1.501947398220123,-0.144,1.482963616329712,-0.144,1.461784360735067,-0.144,1.436214835182102,-0.144,1.40628645353412,-0.144,1.37568728421021
-0.136,1.502015463409958,-0.136,1.519882847761368,-0.136,1.539741483415989,-0.136,1.56375142027527,-0.136,1.592346596139075,-0.136,1.622076701959154,-0.136,1.502015463409958,-0.136,1.484134362129699,-0.136,1.464234649058043,-0.136,1.440156751776546,-0.136,1.411469060356044,-0.136,1.381626597340721
-0.1279999999999999,1.502084644858718,-0.1279999999999999,1.518852115189838,-0.1279999999999999,1.537440548343201,-0.1279999999999999,1.559934536276297,-0.1279999999999999,1.58716888164331,-0.1279999999999999,1.616049979731951,-0.1279999999999999,1.502084644858718,-0.1279999999999999,1.485304791452662,-0.1279999999999999,1.466679210885665,-0.1279999999999999,1.444123450206246,-0.1279999999999999,1.416804178244542,-0.1279999999999999,1.387818991406126
-0.1199999999999999,1.502154071381701,-0.1199999999999999,1.517824921662903,-0.1199999999999999,1.535152728976082,-0.1199999999999999,1.556116569928047,-0.1199999999999999,1.581873028581727,-0.1199999999999999,1.609788633324521,-0.1199999999999999,1.502154071381701,-0.1199999999999999,1.486471967870893,-0.1199999999999999,1.469110321260787,-0.1199999999999999,1.448089880698438,-0.1199999999999999,1.42225478502694,-0.1199999999999999,1.394241814060333
-0.1119999999999999,1.50222259020965,-0.1119999999999999,1.516802246043735,-0.1119999999999999,1.532882546275582,-0.1119999999999999,1.552315950113817,-0.1119999999999999,1.576493757054195,-0.1119999999999999,1.603314090178703,-0.1119999999999999,1.50222259020965,-0.1119999999999999,1.487632611159802,-0.1119999999999999,1.471521200079974,-0.1119999999999999,1.45203549230234,-0.1119999999999999,1.427784301256309,-0.1119999999999999,1.400872119156514
-0.1039999999999999,1.502289176845808,-0.1039999999999999,1.515784566854038,-0.1039999999999999,1.530632583707286,-0.1039999999999999,1.548545712447992,-0.1039999999999999,1.571063755284002,-0.1039999999999999,1.59664864699046,-0.1039999999999999,1.502289176845808,-0.1039999999999999,1.488784232718551,-0.1039999999999999,1.473907370101763,-0.1039999999999999,1.455945535498872,-0.1039999999999999,1.433358548450779,-0.1039999999999999,1.407686379400931
-0.09599999999999992,1.502353017097539,-0.09599999999999992,1.514771883893119,-0.09599999999999992,1.528403769798557,-0.09599999999999992,1.54481408245786,-0.09599999999999992,1.565612317322006,-0.09599999999999992,1.589815669257241,-0.09599999999999992,1.502353017097539,-0.09599999999999992,1.489925237776487,-0.09599999999999992,1.476266401939336,-0.09599999999999992,1.459810418763666,-0.09599999999999992,1.438947024389443,-0.09599999999999992,1.414660216343009
-0.08799999999999991,1.50241346317516,-0.08799999999999991,1.51376385009298,-0.08799999999999991,1.526195839023334,-0.08799999999999991,1.541125368637975,-0.08799999999999991,1.560164200081478,-0.08799999999999991,1.582839575334152,-0.08799999999999991,1.50241346317516,-0.08799999999999991,1.491054701883411,-0.08799999999999991,1.47859735747307,-0.08799999999999991,1.463624727692398,-0.08799999999999991,1.444523978868393,-0.08799999999999991,1.421768367683805
-0.0799999999999999,1.502469990807269,-0.0799999999999999,1.512759880490212,-0.0799999999999999,1.524007695102972,-0.0799999999999999,1.537480828738911,-0.0799999999999999,1.554738867904627,-0.0799999999999999,1.575745523106287,-0.0799999999999999,1.502469990807269,-0.0799999999999999,1.492172179203648,-0.0799999999999999,1.480900352688849,-0.0799999999999999,1.467386297940035,-0.0799999999999999,1.450069123856922,-0.0799999999999999,1.42898496622625
-0.0719999999999999,1.502522170794525,-0.0719999999999999,1.511759230159893,-0.0719999999999999,1.521837675721965,-0.0719999999999999,1.533879435162461,-0.0719999999999999,1.5493502380889,-0.0719999999999999,1.568558755500131,-0.0719999999999999,1.502522170794525,-0.0719999999999999,1.493277569826513,-0.0719999999999999,1.483176243937759,-0.0719999999999999,1.471095408456813,-0.0719999999999999,1.455567855977715,-0.0719999999999999,1.436284169267751
-0.06399999999999989,1.50256964973365,-0.06399999999999989,1.510761049991304,-0.06399999999999989,1.519683744260356,-0.06399999999999989,1.530318512710787,-0.06399999999999989,1.544006901383328,-0.06399999999999989,1.561303633358005,-0.06399999999999989,1.50256964973365,-0.06399999999999989,1.494371026646794,-0.06399999999999989,1.485426402119826,-0.06399999999999989,1.474754114068117,-0.06399999999999989,1.461011012267439,-0.06399999999999989,1.443641107190435
-0.05599999999999989,1.502612136212976,-0.05599999999999989,1.509764426770085,-0.05599999999999989,1.517543627369821,-0.05599999999999989,1.526794244147048,-0.05599999999999989,1.538712693324413,-0.05599999999999989,1.554002478449663,-0.05599999999999989,1.502612136212976,-0.05599999999999989,1.495452888409656,-0.05599999999999989,1.487652550255289,-0.05599999999999989,1.478365717852023,-0.05599999999999989,1.466394280689524,-0.05599999999999989,1.451033026782949
-0.04799999999999989,1.502649390577519,-0.04799999999999989,1.508768411796224,-0.04799999999999989,1.515414911933098,-0.04799999999999989,1.52330205387692,-0.04799999999999989,1.533467457623647,-0.04799999999999989,1.546674425691595,-0.04799999999999989,1.502649390577519,-0.04799999999999989,1.496523631114189,-0.04799999999999989,1.489856647913538,-0.04799999999999989,1.48193437075415,-0.04799999999999989,1.471717422660882,-0.04799999999999989,1.458440428997847
-0.03999999999999989,1.502681217214223,-0.03999999999999989,1.507772041033051,-0.03999999999999989,1.513295111665745,-0.03999999999999989,1.519836887730638,-0.03999999999999989,1.52826785911093,-0.03999999999999989,1.539334504016964,-0.03999999999999989,1.502681217214223,-0.03999999999999989,1.49758383278306,-0.03999999999999989,1.492040810506325,-0.03999999999999989,1.485464779068601,-0.03999999999999989,1.476983449124803,-0.03999999999999989,1.465847980735556
-0.03199999999999989,1.502707458708912,-0.03199999999999989,1.506774349025148,-0.03199999999999989,1.511181711276953,-0.03199999999999989,1.516393409003885,-0.03199999999999989,1.523108145911303,-0.03199999999999989,1.531993117513948,-0.03199999999999989,1.502707458708912,-0.03199999999999989,1.498634148112675,-0.03199999999999989,1.494207254411416,-0.03199999999999989,1.488961998686689,-0.03199999999999989,1.48219784983515,-0.03199999999999989,1.473245028273957
-0.02399999999999989,1.502727991440344,-0.02399999999999989,1.505774378296172,-0.02399999999999989,1.509072194291233,-0.02399999999999989,1.512966129848621,-0.02399999999999989,1.517980806490033,-0.02399999999999989,1.524656004477154,-0.02399999999999989,1.502727991440344,-0.02399999999999989,1.499675290450844,-0.02399999999999989,1.49635826105628,-0.02399999999999989,1.492431296355804,-0.02399999999999989,1.487367929742457,-0.02399999999999989,1.480625634135624
-0.01599999999999989,1.502742722307626,-0.01599999999999989,1.504771185549566,-0.01599999999999989,1.506964059210758,-0.01599999999999989,1.509549494572221,-0.01599999999999989,1.512877104469145,-0.01599999999999989,1.517324653488617,-0.01599999999999989,1.502742722307626,-0.01599999999999989,1.50070801918807,-0.01599999999999989,1.498496154736605,-0.01599999999999989,1.495878060908239,-0.01599999999999989,1.492502269225492,-0.01599999999999989,1.48798815790628
-0.007999999999999889,1.502751586376248,-0.007999999999999889,1.503763845708499,-0.007999999999999889,1.504854827607286,-0.007999999999999889,1.50613792853396,-0.007999999999999889,1.507787499076882,-0.007999999999999889,1.509997087872771,-0.007999999999999889,1.502751586376248,-0.007999999999999889,1.501733131107413,-0.007999999999999889,1.500623290191754,-0.007999999999999889,1.499307750423358,-0.007999999999999889,1.497610300042406,-0.007999999999999889,1.495334469453532
0,1.502754545293395,0,1.502751454626283,0,1.502742046927414,0,1.50272586373532,0,1.502701973293796,0,1.502668905181066,0,1.502754545293395,0,1.5027514545701,0,1.50274204688147,0,1.502725863981911,0,1.502701974744585,0,1.502668907798925
0.008,1.502751586374266,0.008,1.501733131162263,0.008,1.500623290236131,0.008,1.499307750169998,0.008,1.497610298580362,0.008,1.495334466963182,0.008,1.502751586374266,0.008,1.503763845649812,0.008,1.504854827559438,0.008,1.506137928784376,0.008,1.507787500536289,0.008,1.509997090360297
0.016,1.502742722303539,0.016,1.50070801924267,0.016,1.498496154779696,0.016,1.49587806063754,0.016,1.492502267736637,0.016,1.4879881557908,0.016,1.502742722303539,0.016,1.504771185487047,0.016,1.506964059160491,0.016,1.5095494948368,0.016,1.512877105952506,0.016,1.517324655598362
0.024,1.502727991433906,0.024,1.499675290506261,0.024,1.496358261098444,0.024,1.492431296057591,0.024,1.487367928224883,0.024,1.480625632606851,0.024,1.502727991433906,0.024,1.505774378228266,0.024,1.509072194237705,0.024,1.512966130137069,0.024,1.517980807998808,0.024,1.524656005997088
0.032,1.502707458699748,0.032,1.498634148170035,0.032,1.494207254453275,0.032,1.488961998351889,0.032,1.482197848311042,0.032,1.473245027475039,0.032,1.502707458699748,0.032,1.506774348949986,0.032,1.511181711218818,0.032,1.516393409324559,0.032,1.52310814742264,0.032,1.531993118300592
0.04,1.502681217201833,0.04,1.497583832843644,0.04,1.492040810549018,0.04,1.485464778690568,0.04,1.476983447651533,0.04,1.465847980706616,0.04,1.502681217201833,0.04,1.507772040948359,0.04,1.513295111600886,0.04,1.519836888089216,0.04,1.528267860566566,0.04,1.539334504029673
0.048,1.502649390561285,0.048,1.49652363117955,0.048,1.489856647959116,0.048,1.481934370330966,0.048,1.471717421340327,0.048,1.45844042965818,0.048,1.502649390561285,0.048,1.508768411699215,0.048,1.515414911858238,0.048,1.523302054274097,0.048,1.533467458920613,0.048,1.546674425010323
0.056,1.502612136192177,0.056,1.495452888481778,0.056,1.48765255030731,0.056,1.478365717390236,0.056,1.466394279670329,0.056,1.451033027947777,0.056,1.502612136192177,0.056,1.509764426657332,0.056,1.517543627279952,0.056,1.526794244574811,0.056,1.538712694312774,0.056,1.554002477258191
0.064,1.502569649707507,0.064,1.494371026728309,0.064,1.485426402184265,0.064,1.474754113588335,0.064,1.461011011732546,0.064,1.443641108624402,0.064,1.502569649707507,0.064,1.510761049858606,0.064,1.519683744147895,0.064,1.530318513146866,0.064,1.544006901878692,0.064,1.561303631890447
0.07200000000000001,1.502522170762296,0.07200000000000001,1.493277569921007,0.07200000000000001,1.483176244024373,0.07200000000000001,1.471095408001337,0.07200000000000001,1.455567856110046,0.07200000000000001,1.436284170753949,0.07200000000000001,1.502522170762296,0.07200000000000001,1.511759230002139,0.07200000000000001,1.521837675575527,0.07200000000000001,1.533879435562809,0.07200000000000001,1.549350237906787,0.07200000000000001,1.568558753971933
0.08000000000000002,1.502469990768411,0.08000000000000002,1.4921721793161,0.08000000000000002,1.480900352813191,0.08000000000000002,1.467386297581951,0.08000000000000002,1.450069124783616,0.08000000000000002,1.428984967618358,0.08000000000000002,1.502469990768411,0.08000000000000002,1.512759880301265,0.08000000000000002,1.524007694905632,0.08000000000000002,1.537480829028834,0.08000000000000002,1.55473886691635,0.08000000000000002,1.575745521662153
0.08800000000000002,1.502413463129648,0.08800000000000002,1.491054702020877,0.08800000000000002,1.47859735765946,0.08800000000000002,1.46362472754401,0.08800000000000002,1.444523980599262,0.08800000000000002,1.421768368921217,0.08800000000000002,1.502413463129648,0.08800000000000002,1.513763849865581,0.08800000000000002,1.526195838750168,0.08800000000000002,1.54112536870411,0.08800000000000002,1.560164198275919,0.08800000000000002,1.582839574033041
0.09600000000000003,1.502353017046443,0.09600000000000003,1.489925237949259,0.09600000000000003,1.476266402225301,0.09600000000000003,1.45981041897991,0.09600000000000003,1.438947026781154,0.09600000000000003,1.41466021743343,0.09600000000000003,1.502353017046443,0.09600000000000003,1.514771883618836,0.09600000000000003,1.528403769413131,0.09600000000000003,1.544814082145506,0.09600000000000003,1.565612314841907,0.09600000000000003,1.589815668090049
0.104,1.502289176792552,0.104,1.48878423294231,0.104,1.473907370544882,0.104,1.455945536269209,0.104,1.433358551228561,0.104,1.407686380390723,0.104,1.502289176792552,0.104,1.51578456652343,0.104,1.5306325831567,0.104,1.548545711570606,0.104,1.571063752405183,0.104,1.596648645910216
0.112,1.502222590163318,0.112,1.487632611458239,0.112,1.471521200765706,0.112,1.452035493823039,0.112,1.42778430409866,0.112,1.400872120108033,0.112,1.502222590163318,0.112,1.51680224564979,0.112,1.532882545487271,0.112,1.552315948483759,0.112,1.576493754102668,0.112,1.603314089124257
0.1200000000000001,1.502154071363274,0.1200000000000001,1.486471968263882,0.1200000000000001,1.469110322278248,0.1200000000000001,1.448089883098252,0.1200000000000001,1.422254787677717,0.1200000000000001,1.394241815046162,0.1200000000000001,1.502154071363274,0.1200000000000001,1.517824921225306,0.1200000000000001,1.535152727893264,0.1200000000000001,1.556116567438766,0.1200000000000001,1.581873025825875,0.1200000000000001,1.609788632228353
0.1280000000000001,1.502084644885956,0.1280000000000001,1.485304791874043,0.1280000000000001,1.466679212124567,0.1280000000000001,1.444123453291181,0.1280000000000001,1.416804180577842,0.1280000000000001,1.387818992521256,0.1280000000000001,1.502084644885956,0.1280000000000001,1.518852114815018,0.1280000000000001,1.537440547124316,0.1280000000000001,1.559934533167686,0.1280000000000001,1.587168879239125,0.1280000000000001,1.616049978512814
0.1360000000000001,1.502015463439257,0.1360000000000001,1.484134362355099,0.1360000000000001,1.464234649918562,0.1360000000000001,1.440156754572274,0.1360000000000001,1.411469062248016,0.1360000000000001,1.381626598692196,0.1360000000000001,1.502015463439257,0.1360000000000001,1.519882847598338,0.1360000000000001,1.53974148262319,0.1360000000000001,1.563751417537707,0.1360000000000001,1.592346594256222,0.1360000000000001,1.62207670054265
0.1440000000000001,1.501947398202426,0.1440000000000001,1.482963616242022,0.1440000000000001,1.461784360708708,0.1440000000000001,1.436214836522824,0.1440000000000001,1.406286454525017,0.1440000000000001,1.375687285637244,0.1440000000000001,1.501947398202426,0.1440000000000001,1.520916009108875,0.1440000000000001,1.542049846135421,0.1440000000000001,1.56754440862435,0.1440000000000001,1.597371355657192,0.1440000000000001,1.627848032740961
0.1520000000000001,1.50188064384943,0.1520000000000001,1.481793820647253,0.1520000000000001,1.459334440139397,0.1520000000000001,1.432322654214226,0.1520000000000001,1.401289237866771,0.1520000000000001,1.370022565591595,0.1520000000000001,1.50188064384943,0.1520000000000001,1.521950834499457,0.1520000000000001,1.544360395393211,0.1520000000000001,1.571289979211601,0.1520000000000001,1.602212285129508,0.1520000000000001,1.633344630677158
0.1600000000000001,1.501814840464594,0.1600000000000001,1.480624831216246,0.1600000000000001,1.456889090905687,0.1600000000000001,1.428501574286815,0.1600000000000001,1.396500280700244,0.1600000000000001,1.364648604984751,0.1600000000000001,1.501814840464594,0.1600000000000001,1.522986810334831,0.1600000000000001,1.546668489108002,0.1600000000000001,1.57496679540544,0.1600000000000001,1.606847346163396,0.1600000000000001,1.638552098749569
0.1680000000000001,1.501749385400752,0.1680000000000001,1.479456135916842,0.1680000000000001,1.454452482127149,0.1680000000000001,1.424770255013684,0.1680000000000001,1.391932155616925,0.1680000000000001,1.359571677800512,0.1680000000000001,1.501749385400752,0.1680000000000001,1.524023261562072,0.1680000000000001,1.548968843760894,0.1680000000000001,1.578555271778904,0.1680000000000001,1.611263477178065,0.1680000000000001,1.643464637095865
0.1760000000000001,1.501683612549469,0.1760000000000001,1.478287551282517,0.1760000000000001,1.452030236231044,0.1760000000000001,1.42114626178821,0.1760000000000001,1.387591355346468,0.1760000000000001,1.354790026694896,0.1760000000000001,1.501683612549469,0.1760000000000001,1.525059039968438,0.1760000000000001,1.551254513650741,0.1760000000000001,1.58203655068764,0.1760000000000001,1.615453001145924,0.1760000000000001,1.648083252364907
0.1840000000000001,1.501616861648309,0.1840000000000001,1.477119568090002,0.1840000000000001,1.449630092217322,0.1840000000000001,1.417646446465635,0.1840000000000001,1.38348153977157,0.1840000000000001,1.350298674460942,0.1840000000000001,1.501616861648309,0.1840000000000001,1.526092329819444,0.1840000000000001,1.553516423809974,0.1840000000000001,1.585392420508088,0.1840000000000001,1.619410871404463,0.1840000000000001,1.652411613043455
