;Version, 1, 0
;out (VCTRL=0.1),;out (VCTRL=0.01),;out (VCTRL=0.02),;out (VCTRL=0.03),;out (VCTRL=0.04),;out (VCTRL=0.05),;out (VCTRL=0.06),;out (VCTRL=0.07),;out (VCTRL=0.08),;out (VCTRL=0.09),;out (VCTRL=-0.1),;out (VCTRL=-0.01),;out (VCTRL=-0.02),;out (VCTRL=-0.03),;out (VCTRL=-0.04),;out (VCTRL=-0.05),;out (VCTRL=-0.06),;out (VCTRL=-0.07),;out (VCTRL=-0.08),;out (VCTRL=-0.09),;out (VCTRL=-1.040834e-17)
;X, Y,;X, Y,;X, Y,;X, Y,;X, Y,;X, Y,;X, Y,;X, Y,;X, Y,;X, Y,;X, Y,;X, Y,;X, Y,;X, Y,;X, Y,;X, Y,;X, Y,;X, Y,;X, Y,;X, Y,;X, Y
;Re, Re,;Re, Re,;Re, Re,;Re, Re,;Re, Re,;Re, Re,;Re, Re,;Re, Re,;Re, Re,;Re, Re,;Re, Re,;Re, Re,;Re, Re,;Re, Re,;Re, Re,;Re, Re,;Re, Re,;Re, Re,;Re, Re,;Re, Re,;Re, Re
;vin, V,;vin, V,;vin, V,;vin, V,;vin, V,;vin, V,;vin, V,;vin, V,;vin, V,;vin, V,;vin, V,;vin, V,;vin, V,;vin, V,;vin, V,;vin, V,;vin, V,;vin, V,;vin, V,;vin, V,;vin, V
;xunit, V,;xunit, V,;xunit, V,;xunit, V,;xunit, V,;xunit, V,;xunit, V,;xunit, V,;xunit, V,;xunit, V,;xunit, V,;xunit, V,;xunit, V,;xunit, V,;xunit, V,;xunit, V,;xunit, V,;xunit, V,;xunit, V,;xunit, V,;xunit, V
-0.1,-0.7620264452771487,-0.1,-0.09108527520078979,-0.1,-0.1846085373757855,-0.1,-0.2812217744803367,-0.1,-0.3789478248606173,-0.1,-0.4738882419890664,-0.1,-0.5616118627252709,-0.1,-0.6378038440773964,-0.1,-0.6974452948667884,-0.1,-0.7371885968750254,-0.1,0.7620264452771489,-0.1,0.09108527520079091,-0.1,0.1846085373757853,-0.1,0.281221774480336,-0.1,0.3789478248606162,-0.1,0.4738882419890663,-0.1,0.5616118627252703,-0.1,0.6378038440773955,-0.1,0.6974452948667889,-0.1,0.7371885968750254,-0.1,2.220446049250313e-16
-0.09000000000000001,-0.755828028668452,-0.09000000000000001,-0.08969397097636977,-0.09000000000000001,-0.1819012609533028,-0.09000000000000001,-0.2773760228985032,-0.09000000000000001,-0.3742169298541671,-0.09000000000000001,-0.468509632795455,-0.09000000000000001,-0.5557424666129536,-0.09000000000000001,-0.6315541432438614,-0.09000000000000001,-0.691070726409311,-0.09000000000000001,-0.7309582696649211,-0.09000000000000001,0.755828028668452,-0.09000000000000001,0.08969397097637022,-0.09000000000000001,0.1819012609533035,-0.09000000000000001,0.2773760228985029,-0.09000000000000001,0.3742169298541675,-0.09000000000000001,0.468509632795455,-0.09000000000000001,0.5557424666129538,-0.09000000000000001,0.6315541432438604,-0.09000000000000001,0.6910707264093109,-0.09000000000000001,0.7309582696649211,-0.09000000000000001,-2.220446049250313e-16
-0.08000000000000002,-0.7446627004871352,-0.08000000000000002,-0.08728483532788545,-0.08000000000000002,-0.1771944556378133,-0.08000000000000002,-0.2706499382623866,-0.08000000000000002,-0.3658883870131637,-0.08000000000000002,-0.4589817570954334,-0.08000000000000002,-0.5452841607853052,-0.08000000000000002,-0.6203517565281312,-0.08000000000000002,-0.6795730211002756,-0.08000000000000002,-0.719711820300012,-0.08000000000000002,0.7446627004871348,-0.08000000000000002,0.08728483532788589,-0.08000000000000002,0.1771944556378129,-0.08000000000000002,0.2706499382623866,-0.08000000000000002,0.365888387013164,-0.08000000000000002,0.4589817570954334,-0.08000000000000002,0.5452841607853048,-0.08000000000000002,0.6203517565281308,-0.08000000000000002,0.6795730211002756,-0.08000000000000002,0.719711820300012,-0.08000000000000002,0
-0.07000000000000002,-0.7244711571687845,-0.07000000000000002,-0.08319624530468417,-0.07000000000000002,-0.1691589024178006,-0.07000000000000002,-0.2590663844271965,-0.07000000000000002,-0.3514113280664191,-0.07000000000000002,-0.4422860513706562,-0.07000000000000002,-0.5268359756067238,-0.07000000000000002,-0.6004567883057904,-0.07000000000000002,-0.6589170821378659,-0.07000000000000002,-0.6993375334825966,-0.07000000000000002,0.7244711571687845,-0.07000000000000002,0.08319624530468439,-0.07000000000000002,0.1691589024178002,-0.07000000000000002,0.2590663844271972,-0.07000000000000002,0.3514113280664195,-0.07000000000000002,0.4422860513706562,-0.07000000000000002,0.5268359756067236,-0.07000000000000002,0.600456788305791,-0.07000000000000002,0.6589170821378659,-0.07000000000000002,0.6993375334825965,-0.07000000000000002,0
-0.06000000000000002,-0.6889850093544919,-0.06000000000000002,-0.07677878991109988,-0.06000000000000002,-0.1564406072966866,-0.06000000000000002,-0.240496648951678,-0.06000000000000002,-0.3278752107965832,-0.06000000000000002,-0.414811883921928,-0.06000000000000002,-0.4961895904081477,-0.06000000000000002,-0.5671045512775348,-0.06000000000000002,-0.6236685535032138,-0.06000000000000002,-0.6636773671740543,-0.06000000000000002,0.6889850093544919,-0.06000000000000002,0.07677878991110076,-0.06000000000000002,0.1564406072966873,-0.06000000000000002,0.240496648951678,-0.06000000000000002,0.3278752107965823,-0.06000000000000002,0.414811883921928,-0.06000000000000002,0.4961895904081483,-0.06000000000000002,0.5671045512775357,-0.06000000000000002,0.6236685535032138,-0.06000000000000002,0.6636773671740543,-0.06000000000000002,-2.220446049250313e-16
-0.05000000000000002,-0.6302439607355252,-0.05000000000000002,-0.06777888980846747,-0.05000000000000002,-0.138424343750382,-0.05000000000000002,-0.2137549235744878,-0.05000000000000002,-0.2933123004333045,-0.05000000000000002,-0.3737369233253078,-0.05000000000000002,-0.4497246316363191,-0.05000000000000002,-0.5159243895100523,-0.05000000000000002,-0.5684888154128516,-0.05000000000000002,-0.6059723606434111,-0.05000000000000002,0.630243960735525,-0.05000000000000002,0.0677788898084688,-0.05000000000000002,0.1384243437503825,-0.05000000000000002,0.213754923574488,-0.05000000000000002,0.293312300433304,-0.05000000000000002,0.3737369233253078,-0.05000000000000002,0.4497246316363203,-0.05000000000000002,0.5159243895100527,-0.05000000000000002,0.5684888154128517,-0.05000000000000002,0.6059723606434114,-0.05000000000000002,2.220446049250313e-16
-0.04000000000000001,-0.5427951708179547,-0.04000000000000001,-0.05650051773896658,-0.04000000000000001,-0.1156260157463047,-0.04000000000000001,-0.1793179659091482,-0.04000000000000001,-0.2477591214092549,-0.04000000000000001,-0.3183216275835317,-0.04000000000000001,-0.3858388781658374,-0.04000000000000001,-0.4444612810390437,-0.04000000000000001,-0.4903257456465681,-0.04000000000000001,-0.5224142649198774,-0.04000000000000001,0.5427951708179545,-0.04000000000000001,0.05650051773896636,-0.04000000000000001,0.1156260157463052,-0.04000000000000001,0.1793179659091477,-0.04000000000000001,0.247759121409254,-0.04000000000000001,0.3183216275835317,-0.04000000000000001,0.3858388781658366,-0.04000000000000001,0.4444612810390428,-0.04000000000000001,0.4903257456465676,-0.04000000000000001,0.522414264919877,-0.04000000000000001,2.220446049250313e-16
-0.03000000000000001,-0.4297481532427256,-0.03000000000000001,-0.0435472358383393,-0.03000000000000001,-0.08924509485674648,-0.03000000000000001,-0.1388695599486192,-0.03000000000000001,-0.193034991472179,-0.03000000000000001,-0.2500292260715675,-0.03000000000000001,-0.3053728352216476,-0.03000000000000001,-0.3533052488771805,-0.03000000000000001,-0.3900392977468896,-0.03000000000000001,-0.4147173937590877,-0.03000000000000001,0.4297481532427255,-0.03000000000000001,0.04354723583833864,-0.03000000000000001,0.08924509485674648,-0.03000000000000001,0.1388695599486196,-0.03000000000000001,0.1930349914721785,-0.03000000000000001,0.2500292260715675,-0.03000000000000001,0.3053728352216478,-0.03000000000000001,0.3533052488771805,-0.03000000000000001,0.3900392977468903,-0.03000000000000001,0.4147173937590874,-0.03000000000000001,0
-0.02000000000000001,-0.2971691780776127,-0.02000000000000001,-0.02951515775241553,-0.02000000000000001,-0.06053869836153924,-0.02000000000000001,-0.09440537948524996,-0.02000000000000001,-0.1318062818821293,-0.02000000000000001,-0.1718528709384033,-0.02000000000000001,-0.2113038410052377,-0.02000000000000001,-0.2454717183357815,-0.02000000000000001,-0.2709466231088116,-0.02000000000000001,-0.2874751117353054,-0.02000000000000001,0.2971691780776127,-0.02000000000000001,0.02951515775241664,-0.02000000000000001,0.06053869836154036,-0.02000000000000001,0.09440537948525063,-0.02000000000000001,0.1318062818821299,-0.02000000000000001,0.1718528709384031,-0.02000000000000001,0.2113038410052339,-0.02000000000000001,0.2454717183357815,-0.02000000000000001,0.2709466231088098,-0.02000000000000001,0.2874751117353058,-0.02000000000000001,-2.220446049250313e-16
-0.01000000000000001,-0.1517435311468533,-0.01000000000000001,-0.01488396565006367,-0.01000000000000001,-0.03054178434281996,-0.01000000000000001,-0.04768240163388482,-0.01000000000000001,-0.06674455257515532,-0.01000000000000001,-0.08739335602335663,-0.01000000000000001,-0.107954870262587,-0.01000000000000001,-0.1257498566062938,-0.01000000000000001,-0.1387907386238705,-0.01000000000000001,-0.147030080171044,-0.01000000000000001,0.1517435311468533,-0.01000000000000001,0.01488396565006234,-0.01000000000000001,0.03054178434282084,-0.01000000000000001,0.04768240163388349,-0.01000000000000001,0.06674455257515599,-0.01000000000000001,0.08739335602335685,-0.01000000000000001,0.1079548702625845,-0.01000000000000001,0.1257498566062938,-0.01000000000000001,0.1387907386238694,-0.01000000000000001,0.147030080171044,-0.01000000000000001,8.881784197001252e-16
0,-7.62913577490032e-06,0,-1.150996410848037e-06,0,-2.334829638739322e-06,0,-3.654240675610154e-06,0,-5.367906035003145e-06,0,-7.630151324100609e-06,0,-9.5442499330467e-06,0,-9.754365765113349e-06,0,-8.840396864551181e-06,0,-8.047711629544096e-06,0,7.62913577490032e-06,0,1.150996408849636e-06,0,2.334829638961367e-06,0,3.65424067538811e-06,0,5.367906036113368e-06,0,7.630151323212431e-06,0,9.544249934601012e-06,0,9.754365761560635e-06,0,8.840396864329136e-06,0,8.047711629544096e-06,0,1.110223024625157e-15
0.01,0.1517263413320546,0.01,0.0148821223642237,0.01,0.03053612728422261,0.01,0.0476734111794308,0.01,0.06673161493573487,0.01,0.08737591857928662,0.01,0.1079339379188753,0.01,0.1257281164519615,0.01,0.1387704641448764,0.01,0.1470116560890335,0.01,-0.1517263413320546,0.01,-0.01488212236422148,0.01,-0.03053612728422261,0.01,-0.04767341117943058,0.01,-0.06673161493573487,0.01,-0.08737591857928662,0.01,-0.1079339379188766,0.01,-0.1257281164519626,0.01,-0.1387704641448759,0.01,-0.1470116560890335,0.01,-4.440892098500626e-16
0.02,0.2971464300186952,0.02,0.02951170207454057,0.02,0.06053051996122183,0.02,0.09439265135872632,0.02,0.131788777770371,0.02,0.171831101073552,0.02,0.2112786955640529,0.02,0.2454442249876434,0.02,0.2709192175670794,0.02,0.2874499491881615,0.02,-0.2971464300186952,0.02,-0.02951170207454101,0.02,-0.06053051996122205,0.02,-0.09439265135872699,0.02,-0.131788777770371,0.02,-0.1718311010735525,0.02,-0.2112786955640527,0.02,-0.2454442249876438,0.02,-0.2709192175670794,0.02,-0.2874499491881615,0.02,1.110223024625157e-15
0.03,0.4297222627045638,0.03,0.0435434613170409,0.03,0.08923736462856957,0.03,0.1388577753982516,0.03,0.1930195265642465,0.03,0.2500104626293862,0.03,0.3053499430900231,0.03,0.353362731526275,0.03,0.3900077271499297,0.03,0.414686986965707,0.03,-0.4297222627045636,0.03,-0.0435434613170409,0.03,-0.08923736462856935,0.03,-0.1388577753982501,0.03,-0.1930195265642467,0.03,-0.2500104626293849,0.03,-0.3053499430900213,0.03,-0.3533627315262745,0.03,-0.3900077271499297,0.03,-0.4146869869657072,0.03,2.220446049250313e-16
0.04,0.5427951715479133,0.04,0.05650160748105271,0.04,0.1156278393945509,0.04,0.1793208610582384,0.04,0.2477629529832079,0.04,0.3183253067479661,0.04,0.3857560051968871,0.04,0.4444612800252308,0.04,0.4903257439448008,0.04,0.5224142642439967,0.04,-0.5427951715479133,0.04,-0.05650160748105426,0.04,-0.1156278393945511,0.04,-0.1793208610582393,0.04,-0.2477629529832064,0.04,-0.3183253067479654,0.04,-0.3857560051968858,0.04,-0.4444612800252308,0.04,-0.4903257439448002,0.04,-0.5224142642439967,0.04,0
0.05,0.630244066911742,0.05,0.06778587764208188,0.05,0.1384386668813118,0.05,0.2137754477534204,0.05,0.2933375933982645,0.05,0.3737660381085547,0.05,0.4496627157278027,0.05,0.5158470169037431,0.05,0.568392196937478,0.05,0.6059723729349498,0.05,-0.630244066911742,0.05,-0.06778587764208233,0.05,-0.1384386668813122,0.05,-0.2137754477534195,0.05,-0.2933375933982636,0.05,-0.3737660381085542,0.05,-0.4496627157278025,0.05,-0.5158470169037431,0.05,-0.5683921969374779,0.05,-0.6059723729349511,0.05,-4.440892098500626e-16
0.06,0.6889881969470927,0.06,0.07678683151197863,0.06,0.1564560577651632,0.06,0.2405182718623597,0.06,0.3279020308110459,0.06,0.4148444901375514,0.06,0.4962299364012287,0.06,0.5671557688927,0.06,0.6236046072629402,0.06,0.6636776680433975,0.06,-0.6889881969470927,0.06,-0.07678683151197863,0.06,-0.1564560577651646,0.06,-0.2405182718623604,0.06,-0.3279020308110463,0.06,-0.4148444901375511,0.06,-0.4962299364012294,0.06,-0.5671557688926997,0.06,-0.6236046072629394,0.06,-0.6636776680433982,0.06,0
0.07000000000000001,0.7244260758034616,0.07000000000000001,0.08319913788783939,0.07000000000000001,0.1691648787388529,0.07000000000000001,0.2590758162002749,0.07000000000000001,0.3514251104665411,0.07000000000000001,0.442305319011799,0.07000000000000001,0.5268619013668225,0.07000000000000001,0.6004929044058784,0.07000000000000001,0.6588885176783146,0.07000000000000001,0.6992935116509225,0.07000000000000001,-0.7244260758034616,0.07000000000000001,-0.08319913788783939,0.07000000000000001,-0.1691648787388533,0.07000000000000001,-0.2590758162002762,0.07000000000000001,-0.351425110466542,0.07000000000000001,-0.4423053190117986,0.07000000000000001,-0.5268619013668224,0.07000000000000001,-0.6004929044058784,0.07000000000000001,-0.6588885176783146,0.07000000000000001,-0.699293511650922,0.07000000000000001,-2.220446049250313e-16
0.08,0.7447243711324248,0.08,0.08728416890689128,0.08,0.1771939333144026,0.08,0.2706509485344493,0.08,0.3658922347032498,0.08,0.4589891053952435,0.08,0.5452953106637488,0.08,0.6203685901463867,0.08,0.6796074078715763,0.08,0.7196991102915965,0.08,-0.7447243711324248,0.08,-0.08728416890689128,0.08,-0.1771939333144021,0.08,-0.270650948534449,0.08,-0.3658922347032492,0.08,-0.4589891053952446,0.08,-0.5452953106637487,0.08,-0.6203685901463867,0.08,-0.6796074078715763,0.08,-0.7196991102915957,0.08,-8.881784197001252e-16
0.09,0.7558438027713619,0.09,0.08969302828910264,0.09,0.1818999712139737,0.09,0.2773753098338017,0.09,0.3742175213723777,0.09,0.4685117592389929,0.09,0.5557461300877889,0.09,0.6315600126888092,0.09,0.6910825954980804,0.09,0.7309752185796978,0.09,-0.7558438027713619,0.09,-0.08969302828910286,0.09,-0.1818999712139742,0.09,-0.2773753098338008,0.09,-0.3742175213723762,0.09,-0.4685117592389928,0.09,-0.5557461300877888,0.09,-0.6315600126888091,0.09,-0.6910825954980804,0.09,-0.7309752185796979,0.09,-4.440892098500626e-16
0.1,0.7620311009789441,0.1,0.09108475102791069,0.1,0.1846077737665357,0.1,0.2812212544973383,0.1,0.3789478504459292,0.1,0.4738888841903529,0.1,0.5616130890072213,0.1,0.6378058730423898,0.1,0.6974492913868424,0.1,0.7371937084565101,0.1,-0.7620311009789444,0.1,-0.09108475102791114,0.1,-0.1846077737665353,0.1,-0.2812212544973367,0.1,-0.3789478504459287,0.1,-0.4738888841903545,0.1,-0.5616130890072225,0.1,-0.6378058730423898,0.1,-0.6974492913868424,0.1,-0.73719370845651,0.1,0
