;Version, 1, 0
;/M0/D,;/M1/S
;X, Y,;X, Y
;Re, Re,;Re, Re
;vgs, I,;vgs, I
;xunit, A,;xunit, A
0,3.207733516736008e-11,0,3.561061792157975e-12
0.0001,3.217930965045163e-11,0.0001,3.569056705859926e-12
0.0002,3.228161831036052e-11,0.0002,3.57707656772175e-12
0.0003,3.238426224002313e-11,0.0003,3.585121455548399e-12
0.0004,3.248724253600689e-11,0.0004,3.593191447387782e-12
0.0005,3.259056029836641e-11,0.0005,3.601286621531035e-12
0.0006000000000000001,3.269421663079431e-11,0.0006000000000000001,3.609407056512983e-12
0.0007000000000000001,3.279821264058619e-11,0.0007000000000000001,3.617552831113511e-12
0.0008000000000000001,3.290254943863604e-11,0.0008000000000000001,3.625724024357651e-12
0.0009000000000000002,3.300722813943197e-11,0.0009000000000000002,3.633920715516661e-12
0.001,3.311224986114593e-11,0.001,3.642142984109466e-12
0.0011,3.321761572556675e-11,0.0011,3.650390909901623e-12
0.0012,3.332332685812723e-11,0.0012,3.658664572907868e-12
0.0013,3.342938438797846e-11,0.0013,3.666964053392499e-12
0.0014,3.35357894479071e-11,0.0014,3.675289431869399e-12
0.0015,3.364254317442562e-11,0.0015,3.683640789103931e-12
0.001600000000000001,3.374964670770489e-11,0.001600000000000001,3.692018206112145e-12
0.001700000000000001,3.385710119168075e-11,0.001700000000000001,3.700421764163426e-12
0.001800000000000001,3.396490777400248e-11,0.001800000000000001,3.708851544779781e-12
0.001900000000000001,3.407306760606002e-11,0.001900000000000001,3.717307629737711e-12
0.002,3.418158184299629e-11,0.002,3.725790101068206e-12
0.0021,3.429045164370235e-11,0.0021,3.734299041057558e-12
0.0022,3.439967817089361e-11,0.0022,3.742834532249587e-12
0.0023,3.450926259104159e-11,0.0023,3.751396657443805e-12
0.0024,3.461920607441776e-11,0.0024,3.759985499698452e-12
0.0025,3.47295097951055e-11,0.0025,3.768601142330884e-12
0.002599999999999999,3.484017493104418e-11,0.002599999999999999,3.777243668917229e-12
0.002699999999999999,3.495120266399317e-11,0.002699999999999999,3.785913163294682e-12
0.002799999999999999,3.506259417957584e-11,0.002799999999999999,3.794609709561154e-12
0.002899999999999999,3.517435066725946e-11,0.002899999999999999,3.803333392077178e-12
0.002999999999999999,3.528647332039968e-11,0.002999999999999999,3.812084295465221e-12
0.003099999999999999,3.539896333623638e-11,0.003099999999999999,3.820862504612706e-12
0.003199999999999998,3.551182191593857e-11,0.003199999999999998,3.829668104670184e-12
0.003299999999999998,3.56250502645515e-11,0.003299999999999998,3.838501181054398e-12
0.003399999999999998,3.573864959107404e-11,0.003399999999999998,3.847361819447556e-12
0.003499999999999998,3.585262110843838e-11,0.003499999999999998,3.856250105799279e-12
0.003599999999999998,3.596696603352245e-11,0.003599999999999998,3.86516612632705e-12
0.003699999999999998,3.608168558717879e-11,0.003699999999999998,3.874109967516566e-12
0.003799999999999997,3.619678099426316e-11,0.003799999999999997,3.883081716123021e-12
0.003899999999999997,3.63122534835653e-11,0.003899999999999997,3.892081459172258e-12
0.003999999999999997,3.642810428791952e-11,0.003999999999999997,3.901109283960792e-12
0.004099999999999998,3.654433464418504e-11,0.004099999999999998,3.910165278057824e-12
0.004199999999999998,3.666094579322502e-11,0.004199999999999998,3.919249529304486e-12
0.004299999999999998,3.677793897996923e-11,0.004299999999999998,3.928362125815868e-12
0.004399999999999999,3.689531545337668e-11,0.004399999999999999,3.937503155982179e-12
0.004499999999999999,3.701307646651499e-11,0.004499999999999999,3.946672708467622e-12
0.004599999999999999,3.713122327652327e-11,0.004599999999999999,3.955870872214433e-12
0.004699999999999999,3.724975714459158e-11,0.004699999999999999,3.965097736440854e-12
0.0048,3.736867933609033e-11,0.0048,3.974353390642457e-12
0.0049,3.748799112046659e-11,0.0049,3.983637924595291e-12
0.005,3.760769377130704e-11,0.005,3.992951428353975e-12
0.0051,3.772778856638438e-11,0.0051,4.002293992253361e-12
0.005200000000000001,3.784827678760353e-11,0.005200000000000001,4.011665706910856e-12
0.005300000000000001,3.796915972104806e-11,0.005300000000000001,4.021066663225453e-12
0.005400000000000001,3.809043865697634e-11,0.005400000000000001,4.03049695237961e-12
0.005500000000000001,3.821211488991927e-11,0.005500000000000001,4.039956665839045e-12
0.005600000000000002,3.833418971852453e-11,0.005600000000000002,4.049445895355483e-12
0.005700000000000002,3.845666444575569e-11,0.005700000000000002,4.058964732966346e-12
0.005800000000000002,3.85795403787872e-11,0.005800000000000002,4.068513270994858e-12
0.005900000000000002,3.870281882905127e-11,0.005900000000000002,4.078091602052447e-12
0.006000000000000003,3.882650111226858e-11,0.006000000000000003,4.08769981903966e-12
0.006100000000000003,3.895058854841047e-11,0.006100000000000003,4.097338015145392e-12
0.006200000000000003,3.907508246179748e-11,0.006200000000000003,4.107006283849787e-12
0.006300000000000004,3.919998418102783e-11,0.006300000000000004,4.116704718923089e-12
0.006400000000000004,3.932529503904169e-11,0.006400000000000004,4.126433414428169e-12
0.006500000000000004,3.945101637311823e-11,0.006500000000000004,4.136192464721712e-12
0.006600000000000004,3.957714952490605e-11,0.006600000000000004,4.145981964453204e-12
0.006700000000000005,3.97036958404026e-11,0.006700000000000005,4.155802008567743e-12
0.006800000000000005,3.983065667001949e-11,0.006800000000000005,4.165652692304957e-12
0.006900000000000005,3.99580333685445e-11,0.006900000000000005,4.175534111203104e-12
0.007000000000000005,4.008582729515533e-11,0.007000000000000005,4.185446361096766e-12
0.007100000000000006,4.021403981353731e-11,0.007100000000000006,4.195389538118475e-12
0.007200000000000006,4.034267229172419e-11,0.007200000000000006,4.205363738702147e-12
0.007300000000000006,4.047172610225044e-11,0.007300000000000006,4.215369059580261e-12
0.007400000000000006,4.060120262214808e-11,0.007400000000000006,4.225405597787626e-12
0.007500000000000007,4.07311032328914e-11,0.007500000000000007,4.235473450660693e-12
0.007600000000000007,4.086142932046287e-11,0.007600000000000007,4.245572715840014e-12
0.007700000000000007,4.099218227536733e-11,0.007700000000000007,4.255703491269221e-12
0.007800000000000007,4.112336349264641e-11,0.007800000000000007,4.265865875197487e-12
0.007900000000000008,4.125497437185726e-11,0.007900000000000008,4.276059966180504e-12
0.008000000000000007,4.138701631715743e-11,0.008000000000000007,4.286285863080144e-12
0.008100000000000007,4.151949073724864e-11,0.008100000000000007,4.296543665067033e-12
0.008200000000000006,4.165239904540868e-11,0.008200000000000006,4.306833471619433e-12
0.008300000000000005,4.178574265954112e-11,0.008300000000000005,4.317155382527451e-12
0.008400000000000005,4.191952300218964e-11,0.008400000000000005,4.327509497889866e-12
0.008500000000000004,4.205374150046444e-11,0.008500000000000004,4.337895918119161e-12
0.008600000000000003,4.218839958619801e-11,0.008600000000000003,4.348314743938809e-12
0.008700000000000003,4.23234986958357e-11,0.008700000000000003,4.35876607638743e-12
0.008800000000000002,4.24590402705038e-11,0.008800000000000002,4.369250016817752e-12
0.008900000000000002,4.259502575604163e-11,0.008900000000000002,4.37976666689833e-12
0.009000000000000001,4.27314566029988e-11,0.009000000000000001,4.390316128614564e-12
0.0091,4.286833426661407e-11,0.0091,4.400898504268729e-12
0.0092,4.300566020691944e-11,0.0092,4.411513896482658e-12
0.009299999999999999,4.314343588866602e-11,0.009299999999999999,4.42216240819745e-12
0.009399999999999999,4.328166278135611e-11,0.009399999999999999,4.432844142674846e-12
0.009499999999999998,4.342034235931241e-11,0.009499999999999998,4.443559203498157e-12
0.009599999999999997,4.355947610165713e-11,0.009599999999999997,4.454307694573725e-12
0.009699999999999997,4.369906549230888e-11,0.009699999999999997,4.465089720130561e-12
0.009799999999999996,4.38391120200339e-11,0.009799999999999996,4.475905384723873e-12
0.009899999999999996,4.397961717842498e-11,0.009899999999999996,4.486754793232711e-12
0.009999999999999995,4.412058246597101e-11,0.009999999999999995,4.497638050864691e-12
0.01009999999999999,4.426200938599968e-11,0.01009999999999999,4.508555263152764e-12
0.01019999999999999,4.440389944676546e-11,0.01019999999999999,4.519506535961293e-12
0.01029999999999999,4.454625416142848e-11,0.01029999999999999,4.530491975481968e-12
0.01039999999999999,4.468907504807007e-11,0.01039999999999999,4.541511688239013e-12
0.01049999999999999,4.483236362970804e-11,0.01049999999999999,4.552565781087258e-12
0.01059999999999999,4.497612143431204e-11,0.01059999999999999,4.563654361214329e-12
0.01069999999999999,4.512034999485614e-11,0.01069999999999999,4.574777536143029e-12
0.01079999999999999,4.526505084927887e-11,0.01079999999999999,4.585935413729264e-12
0.01089999999999999,4.541022554051766e-11,0.01089999999999999,4.597128102166135e-12
0.01099999999999999,4.55558756165796e-11,0.01099999999999999,4.608355709983573e-12
0.01109999999999999,4.570200263046484e-11,0.01109999999999999,4.619618346048592e-12
0.01119999999999999,4.584860814023796e-11,0.01119999999999999,4.630916119567913e-12
0.01129999999999999,4.599569370904378e-11,0.01129999999999999,4.642249140089105e-12
0.01139999999999999,4.614326090512312e-11,0.01139999999999999,4.653617517499356e-12
0.01149999999999999,4.629131130179187e-11,0.01149999999999999,4.665021362029581e-12
0.01159999999999999,4.643984647753102e-11,0.01159999999999999,4.676460784252854e-12
0.01169999999999998,4.658886801592849e-11,0.01169999999999998,4.687935895087118e-12
0.01179999999999998,4.673837750571373e-11,0.01179999999999998,4.699446805795888e-12
0.01189999999999998,4.688837654082994e-11,0.01189999999999998,4.710993627989169e-12
0.01199999999999998,4.703886672037543e-11,0.01199999999999998,4.722576473624188e-12
0.01209999999999998,4.718984964867616e-11,0.01209999999999998,4.734195455007215e-12
0.01219999999999998,4.734132693524548e-11,0.01219999999999998,4.745850684794232e-12
0.01229999999999998,4.749330019487604e-11,0.01229999999999998,4.757542275991534e-12
0.01239999999999998,4.764577104758056e-11,0.01239999999999998,4.769270341958109e-12
0.01249999999999998,4.779874111866497e-11,0.01249999999999998,4.781034996405771e-12
0.01259999999999998,4.795221203872622e-11,0.01259999999999998,4.792836353399861e-12
0.01269999999999998,4.810618544364959e-11,0.01269999999999998,4.804674527361568e-12
0.01279999999999998,4.826066297466337e-11,0.01279999999999998,4.816549633069058e-12
0.01289999999999998,4.841564627833674e-11,0.01289999999999998,4.828461785655836e-12
0.01299999999999998,4.857113700659627e-11,0.01299999999999998,4.840411100616291e-12
0.01309999999999998,4.872713681670452e-11,0.01309999999999998,4.852397693803203e-12
0.01319999999999998,4.888364737137235e-11,0.01319999999999998,4.864421681430178e-12
0.01329999999999998,4.904067033871861e-11,0.01329999999999998,4.876483180073156e-12
0.01339999999999997,4.919820739222965e-11,0.01339999999999997,4.888582306670654e-12
0.01349999999999997,4.935626021091016e-11,0.01349999999999997,4.900719178525702e-12
0.01359999999999997,4.95148304791855e-11,0.01359999999999997,4.912893913306522e-12
0.01369999999999997,4.967391988695678e-11,0.01369999999999997,4.925106629048051e-12
0.01379999999999997,4.983353012967621e-11,0.01379999999999997,4.937357444151718e-12
0.01389999999999997,4.999366290824849e-11,0.01389999999999997,4.949646477389285e-12
0.01399999999999997,5.01543199291443e-11,0.01399999999999997,4.961973847901133e-12
0.01409999999999997,5.03155029043989e-11,0.01409999999999997,4.974339675198865e-12
0.01419999999999997,5.047721355159033e-11,0.01419999999999997,4.986744079166815e-12
0.01429999999999997,5.063945359387604e-11,0.01429999999999997,4.999187180061809e-12
0.01439999999999997,5.080222476006934e-11,0.01439999999999997,5.011669098515652e-12
0.01449999999999997,5.096552878455905e-11,0.01449999999999997,5.024189955536263e-12
0.01459999999999997,5.112936740740546e-11,0.01459999999999997,5.036749872506986e-12
0.01469999999999997,5.129374237431867e-11,0.01469999999999997,5.049348971190445e-12
0.01479999999999997,5.145865543669599e-11,0.01479999999999997,5.061987373727839e-12
0.01489999999999997,5.162410835160052e-11,0.01489999999999997,5.0746652026411e-12
0.01499999999999996,5.179010288185738e-11,0.01499999999999996,5.087382580832979e-12
0.01509999999999996,5.195664079599316e-11,0.01509999999999996,5.100139631589661e-12
0.01519999999999996,5.212372386831272e-11,0.01519999999999996,5.11293647858095e-12
0.01529999999999996,5.229135387885826e-11,0.01529999999999996,5.125773245861065e-12
0.01539999999999996,5.245953261350611e-11,0.01539999999999996,5.138650057871464e-12
0.01549999999999996,5.262826186390592e-11,0.01549999999999996,5.15156703944127e-12
0.01559999999999996,5.279754342755839e-11,0.01559999999999996,5.164524315786924e-12
0.01569999999999996,5.296737910777346e-11,0.01569999999999996,5.177522012516659e-12
0.01579999999999996,5.313777071376868e-11,0.01579999999999996,5.190560255627463e-12
0.01589999999999996,5.330872006062734e-11,0.01589999999999996,5.203639171511402e-12
0.01599999999999996,5.348022896935739e-11,0.01599999999999996,5.216758886951201e-12
0.01609999999999996,5.36522992668293e-11,0.01609999999999996,5.229919529127008e-12
0.01619999999999996,5.38249327859552e-11,0.01619999999999996,5.243121225612911e-12
0.01629999999999996,5.399813136548672e-11,0.01629999999999996,5.256364104381914e-12
0.01639999999999996,5.417189685027456e-11,0.01639999999999996,5.269648293803835e-12
0.01649999999999996,5.434623109108625e-11,0.01649999999999996,5.282973922649257e-12
0.01659999999999996,5.452113594472548e-11,0.01659999999999996,5.296341120089423e-12
0.01669999999999995,5.469661327407117e-11,0.01669999999999995,5.309750015697855e-12
0.01679999999999995,5.487266494799518e-11,0.01679999999999995,5.323200739451566e-12
0.01689999999999995,5.504929284154353e-11,0.01689999999999995,5.336693421731823e-12
0.01699999999999995,5.522649883575234e-11,0.01699999999999995,5.35022819332629e-12
0.01709999999999995,5.540428481782934e-11,0.01709999999999995,5.363805185429792e-12
0.01719999999999995,5.558265268113255e-11,0.01719999999999995,5.377424529645034e-12
0.01729999999999995,5.57616043251282e-11,0.01729999999999995,5.391086357985804e-12
0.01739999999999995,5.594114165553251e-11,0.01739999999999995,5.404790802875749e-12
0.01749999999999995,5.612126658416737e-11,0.01749999999999995,5.418537997150596e-12
0.01759999999999995,5.630198102914344e-11,0.01759999999999995,5.432328074061294e-12
0.01769999999999995,5.648328691475681e-11,0.01769999999999995,5.446161167271484e-12
0.01779999999999995,5.666518617161098e-11,0.01779999999999995,5.460037410862474e-12
0.01789999999999995,5.684768073655436e-11,0.01789999999999995,5.473956939332221e-12
0.01799999999999995,5.703077255274072e-11,0.01799999999999995,5.487919887598873e-12
0.01809999999999995,5.721446356960792e-11,0.01809999999999995,5.501926390998256e-12
0.01819999999999995,5.739875574300087e-11,0.01819999999999995,5.515976585289446e-12
0.01829999999999994,5.758365103506729e-11,0.01829999999999994,5.530070606653611e-12
0.01839999999999994,5.776915141436028e-11,0.01839999999999994,5.544208591695812e-12
0.01849999999999994,5.795525885581705e-11,0.01849999999999994,5.558390677446266e-12
0.01859999999999994,5.814197534077825e-11,0.01859999999999994,5.572617001362002e-12
0.01869999999999994,5.832930285709237e-11,0.01869999999999994,5.586887701327886e-12
0.01879999999999994,5.851724339901003e-11,0.01879999999999994,5.601202915658641e-12
0.01889999999999994,5.870579896724575e-11,0.01889999999999994,5.615562783098357e-12
0.01899999999999994,5.889497156910376e-11,0.01899999999999994,5.62996744282413e-12
0.01909999999999994,5.908476321835067e-11,0.01909999999999994,5.644417034446446e-12
0.01919999999999994,5.927517593527833e-11,0.01919999999999994,5.658911698008992e-12
0.01929999999999994,5.946621174678696e-11,0.01929999999999994,5.673451573993372e-12
0.01939999999999994,5.965787268638547e-11,0.01939999999999994,5.688036803317026e-12
0.01949999999999994,5.98501607941267e-11,0.01949999999999994,5.702667527336487e-12
0.01959999999999994,6.004307811675542e-11,0.01959999999999994,5.717343887849198e-12
0.01969999999999994,6.023662670762297e-11,0.01969999999999994,5.732066027092888e-12
0.01979999999999994,6.043080862677171e-11,0.01979999999999994,5.746834087748787e-12
0.01989999999999994,6.062562594095609e-11,0.01989999999999994,5.761648212941621e-12
0.01999999999999993,6.082108072359929e-11,0.01999999999999993,5.776508546242311e-12
0.02009999999999993,6.101717505494243e-11,0.02009999999999993,5.791415231668348e-12
0.02019999999999993,6.121391102191627e-11,0.02019999999999993,5.806368413686171e-12
0.02029999999999993,6.14112907182475e-11,0.02029999999999993,5.821368237211015e-12
0.02039999999999993,6.160931624450164e-11,0.02039999999999993,5.836414847609733e-12
0.02049999999999993,6.180798970801828e-11,0.02049999999999993,5.851508390701621e-12
0.02059999999999993,6.200731322304013e-11,0.02059999999999993,5.866649012760381e-12
0.02069999999999993,6.220728891062636e-11,0.02069999999999993,5.881836860514415e-12
0.02079999999999993,6.240791889876055e-11,0.02079999999999993,5.897072081148705e-12
0.02089999999999993,6.260920532235084e-11,0.02089999999999993,5.912354822307191e-12
0.02099999999999993,6.281115032318613e-11,0.02099999999999993,5.927685232092664e-12
0.02109999999999993,6.301375605010999e-11,0.02109999999999993,5.9430634590696e-12
0.02119999999999993,6.321702465884656e-11,0.02119999999999993,5.958489652264149e-12
0.02129999999999993,6.342095831219642e-11,0.02129999999999993,5.973963961166885e-12
0.02139999999999993,6.362555917992801e-11,0.02139999999999993,5.989486535734356e-12
0.02149999999999993,6.383082943893028e-11,0.02149999999999993,6.005057526388348e-12
0.02159999999999992,6.403677127310354e-11,0.02159999999999992,6.020677084019891e-12
0.02169999999999992,6.424338687346936e-11,0.02169999999999992,6.036345359989595e-12
0.02179999999999992,6.445067843814828e-11,0.02179999999999992,6.052062506129092e-12
0.02189999999999992,6.465864817244889e-11,0.02189999999999992,6.067828674742528e-12
0.02199999999999992,6.486729828880124e-11,0.02199999999999992,6.083644018608323e-12
0.02209999999999992,6.507663100682366e-11,0.02209999999999992,6.099508690980284e-12
0.02219999999999992,6.528664855336749e-11,0.02219999999999992,6.115422845589861e-12
0.02229999999999992,6.549735316249461e-11,0.02229999999999992,6.131386636645715e-12
0.02239999999999992,6.570874707552297e-11,0.02239999999999992,6.147400218838155e-12
0.02249999999999992,6.592083254109333e-11,0.02249999999999992,6.163463747336872e-12
0.02259999999999992,6.613361181508058e-11,0.02259999999999992,6.179577377796782e-12
0.02269999999999992,6.634708716077307e-11,0.02269999999999992,6.195741266356085e-12
0.02279999999999992,6.656126084873871e-11,0.02279999999999992,6.211955569638983e-12
0.02289999999999992,6.67761351569375e-11,0.02289999999999992,6.228220444757005e-12
0.02299999999999992,6.699171237074455e-11,0.02299999999999992,6.244536049311569e-12
0.02309999999999992,6.720799478292824e-11,0.02309999999999992,6.260902541393874e-12
0.02319999999999992,6.742498469376357e-11,0.02319999999999992,6.277320079587455e-12
0.02329999999999991,6.764268441094258e-11,0.02329999999999991,6.293788822969584e-12
0.02339999999999991,6.786109624966534e-11,0.02339999999999991,6.310308931111803e-12
0.02349999999999991,6.808022253264075e-11,0.02349999999999991,6.326880564083451e-12
0.02359999999999991,6.83000655901327e-11,0.02359999999999991,6.343503882451064e-12
0.02369999999999991,6.852062775996065e-11,0.02369999999999991,6.360179047282503e-12
0.02379999999999991,6.874191138759185e-11,0.02379999999999991,6.376906220144274e-12
0.02389999999999991,6.896391882600549e-11,0.02389999999999991,6.393685563108795e-12
0.02399999999999991,6.918665243592152e-11,0.02399999999999991,6.410517238750664e-12
0.02409999999999991,6.94101145856877e-11,0.02409999999999991,6.427401410151307e-12
0.02419999999999991,6.963430765130353e-11,0.02419999999999991,6.444338240899519e-12
