;Version, 1, 0
;/M0/D,;/M1/S
;X, Y,;X, Y
;Re, Re,;Re, Re
;vgs, I,;vgs, I
;xunit, A,;xunit, A
0,2.206103181259435e-12,0,1.413100620002282e-12
0.0001,2.210044323746986e-12,0.0001,1.414389042043491e-12
0.0002,2.213998327599851e-12,0.0002,1.415681479183508e-12
0.0003,2.217965234706165e-12,0.0003,1.41697794391881e-12
0.0004,2.221945087089392e-12,0.0004,1.41827844878474e-12
0.0005,2.225937926910606e-12,0.0005,1.419583006355569e-12
0.0006000000000000001,2.229943796466452e-12,0.0006000000000000001,1.420891629244557e-12
0.0007000000000000001,2.23396273819204e-12,0.0007000000000000001,1.422204330104292e-12
0.0008000000000000001,2.237994794660145e-12,0.0008000000000000001,1.423521121626502e-12
0.0009000000000000002,2.242040008580382e-12,0.0009000000000000002,1.424842016542451e-12
0.001,2.246098422803385e-12,0.001,1.426167027622945e-12
0.0011,2.250170080316247e-12,0.0011,1.427496167678395e-12
0.0012,2.254255024247952e-12,0.0012,1.428829449559049e-12
0.0013,2.258353297866056e-12,0.0013,1.430166886155055e-12
0.0014,2.262464944579635e-12,0.0014,1.43150849039666e-12
0.0015,2.266590007937842e-12,0.0015,1.432854275254198e-12
0.001600000000000001,2.270728531631603e-12,0.001600000000000001,1.434204253738316e-12
0.001700000000000001,2.274880559493426e-12,0.001700000000000001,1.435558438900069e-12
0.001800000000000001,2.279046135498483e-12,0.001800000000000001,1.436916843831069e-12
0.001900000000000001,2.283225303765043e-12,0.001900000000000001,1.438279481663609e-12
0.002,2.28741810855304e-12,0.002,1.439646365570697e-12
0.0021,2.291624594267663e-12,0.0021,1.441017508766346e-12
0.0022,2.295844805457922e-12,0.0022,1.442392924505533e-12
0.0023,2.300078786817096e-12,0.0023,1.443772626084487e-12
0.0024,2.304326583183808e-12,0.0024,1.445156626840644e-12
0.0025,2.308588239541859e-12,0.0025,1.446544940152942e-12
0.002599999999999999,2.312863801021306e-12,0.002599999999999999,1.447937579441856e-12
0.002699999999999999,2.317153312899569e-12,0.002699999999999999,1.44933455816947e-12
0.002799999999999999,2.32145682059933e-12,0.002799999999999999,1.450735889839801e-12
0.002899999999999999,2.325774369692178e-12,0.002899999999999999,1.452141587998722e-12
0.002999999999999999,2.330106005896527e-12,0.002999999999999999,1.453551666234204e-12
0.003099999999999999,2.33445177507999e-12,0.003099999999999999,1.454966138176382e-12
0.003199999999999998,2.338811723258565e-12,0.003199999999999998,1.456385017497829e-12
0.003299999999999998,2.343185896598384e-12,0.003299999999999998,1.457808317913423e-12
0.003399999999999998,2.347574341413598e-12,0.003399999999999998,1.45923605318076e-12
0.003499999999999998,2.351977104171374e-12,0.003499999999999998,1.460668237100139e-12
0.003599999999999998,2.356394231487833e-12,0.003599999999999998,1.46210488351466e-12
0.003699999999999998,2.360825770129812e-12,0.003699999999999998,1.4635460063105e-12
0.003799999999999997,2.365271767018591e-12,0.003799999999999997,1.464991619416865e-12
0.003899999999999997,2.369732269224512e-12,0.003899999999999997,1.466441736806322e-12
0.003999999999999997,2.374207323972657e-12,0.003999999999999997,1.46789637249473e-12
0.004099999999999998,2.378696978641385e-12,0.004099999999999998,1.469355540541566e-12
0.004199999999999998,2.383201280762803e-12,0.004199999999999998,1.470819255049888e-12
0.004299999999999998,2.387720278021277e-12,0.004299999999999998,1.472287530166578e-12
0.004399999999999999,2.392254018258508e-12,0.004399999999999999,1.473760380082504e-12
0.004499999999999999,2.396802549470735e-12,0.004499999999999999,1.475237819032506e-12
0.004599999999999999,2.401365919808561e-12,0.004599999999999999,1.476719861295701e-12
0.004699999999999999,2.40594417758139e-12,0.004699999999999999,1.478206521195499e-12
0.0048,2.41053737125198e-12,0.0048,1.479697813099831e-12
0.0049,2.415145549444196e-12,0.0049,1.481193751421238e-12
0.005,2.419768760936893e-12,0.005,1.482694350616964e-12
0.0051,2.424407054667712e-12,0.0051,1.484199625189221e-12
0.005200000000000001,2.42906047973358e-12,0.005200000000000001,1.485709589685186e-12
0.005300000000000001,2.433729085391213e-12,0.005300000000000001,1.487224258697251e-12
0.005400000000000001,2.438412921056269e-12,0.005400000000000001,1.488743646863097e-12
0.005500000000000001,2.443112036305191e-12,0.005500000000000001,1.490267768865866e-12
0.005600000000000002,2.447826480874365e-12,0.005600000000000002,1.491796639434291e-12
0.005700000000000002,2.452556304662631e-12,0.005700000000000002,1.493330273342801e-12
0.005800000000000002,2.457301557731129e-12,0.005800000000000002,1.494868685411786e-12
0.005900000000000002,2.462062290301772e-12,0.005900000000000002,1.496411890507577e-12
0.006000000000000003,2.466838552760449e-12,0.006000000000000003,1.497959903542679e-12
0.006100000000000003,2.471630395656875e-12,0.006100000000000003,1.499512739475903e-12
0.006200000000000003,2.476437869703731e-12,0.006200000000000003,1.501070413312514e-12
0.006300000000000004,2.481261025779221e-12,0.006300000000000004,1.502632940104359e-12
0.006400000000000004,2.486099914925536e-12,0.006400000000000004,1.504200334950046e-12
0.006500000000000004,2.490954588351424e-12,0.006500000000000004,1.505772612995019e-12
0.006600000000000004,2.495825097431337e-12,0.006600000000000004,1.50734978943173e-12
0.006700000000000005,2.500711493706634e-12,0.006700000000000005,1.508931879499869e-12
0.006800000000000005,2.505613828885422e-12,0.006800000000000005,1.510518898486386e-12
0.006900000000000005,2.510532154843749e-12,0.006900000000000005,1.512110861725692e-12
0.007000000000000005,2.515466523626143e-12,0.007000000000000005,1.513707784599834e-12
0.007100000000000006,2.520416987446132e-12,0.007100000000000006,1.515309682538604e-12
0.007200000000000006,2.525383598685397e-12,0.007200000000000006,1.516916571019684e-12
0.007300000000000006,2.530366409897741e-12,0.007300000000000006,1.518528465568818e-12
0.007400000000000006,2.53536547380479e-12,0.007400000000000006,1.520145381759961e-12
0.007500000000000007,2.540380843301366e-12,0.007500000000000007,1.521767335215384e-12
0.007600000000000007,2.545412571452564e-12,0.007600000000000007,1.523394341605888e-12
0.007700000000000007,2.550460711496359e-12,0.007700000000000007,1.525026416650915e-12
0.007800000000000007,2.555525316842757e-12,0.007800000000000007,1.526663576118665e-12
0.007900000000000008,2.560606441075727e-12,0.007900000000000008,1.528305835826392e-12
0.008000000000000007,2.565704137951651e-12,0.008000000000000007,1.52995321164031e-12
0.008100000000000007,2.570818461403358e-12,0.008100000000000007,1.53160571947601e-12
0.008200000000000006,2.575949465537168e-12,0.008200000000000006,1.533263375298432e-12
0.008300000000000005,2.581097204634142e-12,0.008300000000000005,1.534926195122064e-12
0.008400000000000005,2.586261733154134e-12,0.008400000000000005,1.536594195011164e-12
0.008500000000000004,2.591443105730026e-12,0.008500000000000004,1.538267391079804e-12
0.008600000000000003,2.596641377175298e-12,0.008600000000000003,1.53994579949206e-12
0.008700000000000003,2.601856602478262e-12,0.008700000000000003,1.541629436462214e-12
0.008800000000000002,2.607088836808242e-12,0.008800000000000002,1.543318318254918e-12
0.008900000000000002,2.612338135511198e-12,0.008900000000000002,1.545012461185238e-12
0.009000000000000001,2.617604554113811e-12,0.009000000000000001,1.546711881618938e-12
0.0091,2.622888148321924e-12,0.0091,1.548416595972533e-12
0.0092,2.628188974023949e-12,0.0092,1.550126620713541e-12
0.009299999999999999,2.633507087286436e-12,0.009299999999999999,1.551841972360535e-12
0.009399999999999999,2.638842544361071e-12,0.009399999999999999,1.553562667483425e-12
0.009499999999999998,2.644195401679516e-12,0.009499999999999998,1.555288722703516e-12
0.009599999999999997,2.649565715857563e-12,0.009599999999999997,1.557020154693729e-12
0.009699999999999997,2.654953543693555e-12,0.009699999999999997,1.558756980178687e-12
0.009799999999999996,2.660358942171823e-12,0.009799999999999996,1.560499215934932e-12
0.009899999999999996,2.665781968459679e-12,0.009899999999999996,1.56224687879115e-12
0.009999999999999995,2.671222679909415e-12,0.009999999999999995,1.563999985628137e-12
0.01009999999999999,2.676681134062497e-12,0.01009999999999999,1.5657585533792e-12
0.01019999999999999,2.682157388642935e-12,0.01019999999999999,1.567522599030134e-12
0.01029999999999999,2.687651501564346e-12,0.01029999999999999,1.569292139619433e-12
0.01039999999999999,2.693163530927671e-12,0.01039999999999999,1.571067192238552e-12
0.01049999999999999,2.698693535021008e-12,0.01049999999999999,1.572847774031903e-12
0.01059999999999999,2.704241572323853e-12,0.01059999999999999,1.574633902197172e-12
0.01069999999999999,2.709807701502584e-12,0.01069999999999999,1.576425593985382e-12
0.01079999999999999,2.715391981415436e-12,0.01079999999999999,1.578222866701086e-12
0.01089999999999999,2.720994471110888e-12,0.01089999999999999,1.580025737702563e-12
0.01099999999999999,2.726615229829736e-12,0.01099999999999999,1.581834224401935e-12
0.01109999999999999,2.732254317002756e-12,0.01109999999999999,1.583648344265445e-12
0.01119999999999999,2.737911792255698e-12,0.01119999999999999,1.58546811481337e-12
0.01129999999999999,2.743587715406225e-12,0.01129999999999999,1.587293553620554e-12
0.01139999999999999,2.749282146465973e-12,0.01139999999999999,1.589124678316277e-12
0.01149999999999999,2.754995145641912e-12,0.01149999999999999,1.590961506584475e-12
0.01159999999999999,2.760726773335452e-12,0.01159999999999999,1.59280405616408e-12
0.01169999999999998,2.766477090143074e-12,0.01169999999999998,1.594652344848975e-12
0.01179999999999998,2.772246156859889e-12,0.01179999999999998,1.596506390488332e-12
0.01189999999999998,2.778034034475065e-12,0.01189999999999998,1.598366210986639e-12
0.01199999999999998,2.783840784179119e-12,0.01199999999999998,1.600231824304037e-12
0.01209999999999998,2.789666467357115e-12,0.01209999999999998,1.602103248456283e-12
0.01219999999999998,2.795511145595209e-12,0.01219999999999998,1.60398050151515e-12
0.01229999999999998,2.801374880679061e-12,0.01229999999999998,1.605863601608364e-12
0.01239999999999998,2.807257734594443e-12,0.01239999999999998,1.607752566920033e-12
0.01249999999999998,2.813159769527119e-12,0.01249999999999998,1.609647415690589e-12
0.01259999999999998,2.81908104786572e-12,0.01259999999999998,1.611548166217118e-12
0.01269999999999998,2.825021632200118e-12,0.01269999999999998,1.613454836853428e-12
0.01279999999999998,2.830981585322805e-12,0.01279999999999998,1.615367446010328e-12
0.01289999999999998,2.836960970231796e-12,0.01289999999999998,1.617286012155719e-12
0.01299999999999998,2.842959850125976e-12,0.01299999999999998,1.619210553814843e-12
0.01309999999999998,2.84897828841178e-12,0.01309999999999998,1.621141089570347e-12
0.01319999999999998,2.855016348700043e-12,0.01319999999999998,1.62307763806259e-12
0.01329999999999998,2.861074094808172e-12,0.01329999999999998,1.625020217989755e-12
0.01339999999999997,2.867151590759258e-12,0.01339999999999997,1.626968848108078e-12
0.01349999999999997,2.87324890078424e-12,0.01349999999999997,1.628923547231863e-12
0.01359999999999997,2.879366089323316e-12,0.01359999999999997,1.63088433423392e-12
0.01369999999999997,2.885503221025074e-12,0.01369999999999997,1.632851228045539e-12
0.01379999999999997,2.891660360745606e-12,0.01379999999999997,1.634824247656802e-12
0.01389999999999997,2.897837573554512e-12,0.01389999999999997,1.636803412116622e-12
0.01399999999999997,2.904034924728675e-12,0.01399999999999997,1.638788740533084e-12
0.01409999999999997,2.91025247975981e-12,0.01409999999999997,1.640780252073495e-12
0.01419999999999997,2.916490304348985e-12,0.01419999999999997,1.642777965964724e-12
0.01429999999999997,2.922748464411889e-12,0.01429999999999997,1.64478190149315e-12
0.01439999999999997,2.929027026077189e-12,0.01439999999999997,1.646792078005099e-12
0.01449999999999997,2.935326055687201e-12,0.01449999999999997,1.648808514906866e-12
0.01459999999999997,2.941645619800869e-12,0.01459999999999997,1.650831231664889e-12
0.01469999999999997,2.947985785191346e-12,0.01469999999999997,1.652860247806168e-12
0.01479999999999997,2.954346618847422e-12,0.01479999999999997,1.65489558291807e-12
0.01489999999999997,2.960728187977334e-12,0.01489999999999997,1.656937256648854e-12
0.01499999999999996,2.967130560004753e-12,0.01499999999999996,1.658985288707711e-12
0.01509999999999996,2.973553802572583e-12,0.01509999999999996,1.661039698864953e-12
0.01519999999999996,2.979997983542862e-12,0.01519999999999996,1.66310050695219e-12
0.01529999999999996,2.986463170997453e-12,0.01529999999999996,1.665167732862622e-12
0.01539999999999996,2.992949433239501e-12,0.01539999999999996,1.667241396551081e-12
0.01549999999999996,2.999456838790986e-12,0.01549999999999996,1.669321518034354e-12
0.01559999999999996,3.005985456398912e-12,0.01559999999999996,1.671408117391301e-12
0.01569999999999996,3.012535355031286e-12,0.01569999999999996,1.67350121476304e-12
0.01579999999999996,3.019106603878576e-12,0.01579999999999996,1.675600830353205e-12
0.01589999999999996,3.025699272357586e-12,0.01589999999999996,1.677706984428052e-12
0.01599999999999996,3.032313430108995e-12,0.01599999999999996,1.679819697316703e-12
0.01609999999999996,3.038949146998035e-12,0.01609999999999996,1.681938989411377e-12
0.01619999999999996,3.045606493117591e-12,0.01619999999999996,1.684064881167535e-12
0.01629999999999996,3.052285538786514e-12,0.01629999999999996,1.686197393103977e-12
0.01639999999999996,3.058986354551921e-12,0.01639999999999996,1.688336545803329e-12
0.01649999999999996,3.065709011190714e-12,0.01649999999999996,1.690482359911903e-12
0.01659999999999996,3.072453579705476e-12,0.01659999999999996,1.692634856140113e-12
0.01669999999999995,3.079220131332406e-12,0.01669999999999995,1.694794055262585e-12
0.01679999999999995,3.086008737535608e-12,0.01679999999999995,1.696959978118389e-12
0.01689999999999995,3.092819470013447e-12,0.01689999999999995,1.699132645611198e-12
0.01699999999999995,3.09965240069362e-12,0.01699999999999995,1.701312078709582e-12
0.01709999999999995,3.10650760173792e-12,0.01709999999999995,1.703498298447101e-12
0.01719999999999995,3.113385145542962e-12,0.01719999999999995,1.705691325922462e-12
0.01729999999999995,3.120285104737673e-12,0.01729999999999995,1.707891182299993e-12
0.01739999999999995,3.127207552187254e-12,0.01739999999999995,1.710097888809461e-12
0.01749999999999995,3.134152560993113e-12,0.01749999999999995,1.712311466746609e-12
0.01759999999999995,3.141120204491963e-12,0.01759999999999995,1.714531937473183e-12
0.01769999999999995,3.148110556260647e-12,0.01769999999999995,1.716759322417131e-12
0.01779999999999995,3.155123690111151e-12,0.01779999999999995,1.718993643072863e-12
0.01789999999999995,3.162159680096251e-12,0.01789999999999995,1.721234921001535e-12
0.01799999999999995,3.169218600508628e-12,0.01799999999999995,1.723483177831093e-12
0.01809999999999995,3.176300525879146e-12,0.01809999999999995,1.725738435256479e-12
0.01819999999999995,3.183405530983347e-12,0.01819999999999995,1.728000715040044e-12
0.01829999999999994,3.190533690837286e-12,0.01829999999999994,1.730270039011573e-12
0.01839999999999994,3.197685080698262e-12,0.01839999999999994,1.732546429068485e-12
0.01849999999999994,3.204859776070529e-12,0.01849999999999994,1.73482990717621e-12
0.01859999999999994,3.21205785269946e-12,0.01859999999999994,1.737120495368189e-12
0.01869999999999994,3.219279386577245e-12,0.01869999999999994,1.739418215746211e-12
0.01879999999999994,3.226524453942852e-12,0.01879999999999994,1.741723090480615e-12
0.01889999999999994,3.233793131281123e-12,0.01889999999999994,1.744035141810508e-12
0.01899999999999994,3.241085495323536e-12,0.01899999999999994,1.746354392043885e-12
0.01909999999999994,3.248401623050638e-12,0.01909999999999994,1.748680863557987e-12
0.01919999999999994,3.255741591693671e-12,0.01919999999999994,1.751014578799362e-12
0.01929999999999994,3.263105478731988e-12,0.01929999999999994,1.753355560284217e-12
0.01939999999999994,3.270493361895516e-12,0.01939999999999994,1.755703830598513e-12
0.01949999999999994,3.277905319167195e-12,0.01949999999999994,1.758059412398291e-12
0.01959999999999994,3.285341428782102e-12,0.01959999999999994,1.760422328409805e-12
0.01969999999999994,3.292801769227387e-12,0.01969999999999994,1.762792601429797e-12
0.01979999999999994,3.300286419245588e-12,0.01979999999999994,1.765170254325652e-12
0.01989999999999994,3.307795457832041e-12,0.01989999999999994,1.767555310035702e-12
0.01999999999999993,3.315328964240747e-12,0.01999999999999993,1.769947791569299e-12
0.02009999999999993,3.322887017980102e-12,0.02009999999999993,1.772347722007288e-12
0.02019999999999993,3.330469698815361e-12,0.02019999999999993,1.774755124501917e-12
0.02029999999999993,3.338077086772017e-12,0.02029999999999993,1.777170022277243e-12
0.02039999999999993,3.345709262132331e-12,0.02039999999999993,1.779592438629416e-12
0.02049999999999993,3.353366305439549e-12,0.02049999999999993,1.78202239692671e-12
0.02059999999999993,3.361048297497867e-12,0.02059999999999993,1.784459920609893e-12
0.02069999999999993,3.368755319371513e-12,0.02069999999999993,1.786905033192321e-12
0.02079999999999993,3.37648745238901e-12,0.02079999999999993,1.789357758260388e-12
0.02089999999999993,3.384244778139677e-12,0.02089999999999993,1.791818119473439e-12
0.02099999999999993,3.392027378478762e-12,0.02099999999999993,1.794286140564256e-12
0.02109999999999993,3.399835335526542e-12,0.02109999999999993,1.796761845339236e-12
0.02119999999999993,3.407668731666538e-12,0.02119999999999993,1.799245257678425e-12
0.02129999999999993,3.415527649550689e-12,0.02129999999999993,1.801736401536075e-12
0.02139999999999993,3.423412172098422e-12,0.02139999999999993,1.804235300940489e-12
0.02149999999999993,3.431322382497514e-12,0.02149999999999993,1.80674197999466e-12
0.02159999999999992,3.439258364204034e-12,0.02159999999999992,1.809256462876112e-12
0.02169999999999992,3.447220200944059e-12,0.02169999999999992,1.811778773837432e-12
0.02179999999999992,3.455207976714505e-12,0.02179999999999992,1.814308937206335e-12
0.02189999999999992,3.463221775785724e-12,0.02189999999999992,1.816846977385933e-12
0.02199999999999992,3.471261682698858e-12,0.02199999999999992,1.81939291885503e-12
0.02209999999999992,3.479327782268422e-12,0.02209999999999992,1.821946786168242e-12
0.02219999999999992,3.487420159584917e-12,0.02219999999999992,1.824508603956326e-12
0.02229999999999992,3.495538900012159e-12,0.02229999999999992,1.827078396926349e-12
0.02239999999999992,3.503684089191676e-12,0.02239999999999992,1.829656189861972e-12
0.02249999999999992,3.511855813040899e-12,0.02249999999999992,1.832242007623693e-12
0.02259999999999992,3.520054157755798e-12,0.02259999999999992,1.834835875149035e-12
0.02269999999999992,3.528279209810865e-12,0.02269999999999992,1.83743781745285e-12
0.02279999999999992,3.536531055959975e-12,0.02279999999999992,1.840047859627439e-12
0.02289999999999992,3.544809783238138e-12,0.02289999999999992,1.84266602684293e-12
0.02299999999999992,3.553115478963278e-12,0.02299999999999992,1.845292344347444e-12
0.02309999999999992,3.561448230731748e-12,0.02309999999999992,1.847926837467355e-12
0.02319999999999992,3.569808126427242e-12,0.02319999999999992,1.8505695316075e-12
0.02329999999999991,3.578195254214519e-12,0.02329999999999991,1.853220452251512e-12
0.02339999999999991,3.586609702546563e-12,0.02339999999999991,1.855879624961912e-12
0.02349999999999991,3.595051560160985e-12,0.02349999999999991,1.8585470753805e-12
0.02359999999999991,3.603520916080009e-12,0.02359999999999991,1.861222829228505e-12
0.02369999999999991,3.612017859618552e-12,0.02369999999999991,1.863906912306911e-12
0.02379999999999991,3.620542480376134e-12,0.02379999999999991,1.866599350496571e-12
0.02389999999999991,3.629094868244057e-12,0.02389999999999991,1.869300169758644e-12
0.02399999999999991,3.637675113403624e-12,0.02399999999999991,1.872009396134679e-12
0.02409999999999991,3.646283306327927e-12,0.02409999999999991,1.874727055746891e-12
0.02419999999999991,3.654919537782769e-12,0.02419999999999991,1.877453174798521e-12
