;Version, 1, 0
;/vout,;/vin
;X, Y,;X, Y
;Re, Re,;Re, Re
;time, V,;time, V
;s, V,;s, V
0,0.1170447554378598,0,0.9
1e-12,0.1175932428969444,1e-12,0.9009424715948339
2e-12,0.1181222955516646,2e-12,0.9018849059825029
3e-12,0.118642058740361,3e-12,0.9028272659573112
4e-12,0.1191443721002935,4e-12,0.9037695143165007
5e-12,0.1196309738613276,5e-12,0.9047116138617193
5.999999999999999e-12,0.1201035125729605,5.999999999999999e-12,0.9056535274004902
6.999999999999999e-12,0.1205637275531768,6.999999999999999e-12,0.9065952177476797
8e-12,0.1210126088341286,8e-12,0.9075366477269654
9e-12,0.1214514046298598,9e-12,0.9084777801723037
9.999999999999999e-12,0.1218814283893299,9.999999999999999e-12,0.9094185779293971
1.1e-11,0.1223032968789872,1.1e-11,0.9103590038571608
1.2e-11,0.1227180328422397,1.2e-11,0.9112990208291899
1.3e-11,0.1231262766847243,1.3e-11,0.9122385917352237
1.4e-11,0.1235288056440111,1.4e-11,0.9131776794826115
1.5e-11,0.1239261073413299,1.5e-11,0.9141162469977772
1.6e-11,0.1243188216345854,1.6e-11,0.9150542572276823
1.7e-11,0.124707313883942,1.7e-11,0.915991673141289
1.8e-11,0.1250921139821106,1.8e-11,0.9169284577310223
1.9e-11,0.12547348952824,1.9e-11,0.9178645740142305
2e-11,0.1258518823517627,2e-11,0.9187999850346457
2.1e-11,0.1262274819476377,2.1e-11,0.9197346538638423
2.2e-11,0.1266006595815734,2.2e-11,0.9206685436026957
2.3e-11,0.1269715424079384,2.3e-11,0.9216016173828379
2.4e-11,0.1273404451147326,2.4e-11,0.9225338383681135
2.5e-11,0.1277074451525431,2.5e-11,0.9234651697560347
2.6e-11,0.1280728118105724,2.6e-11,0.9243955747792325
2.7e-11,0.1284365829627265,2.7e-11,0.9253250167069101
2.8e-11,0.1287989914345503,2.8e-11,0.9262534588462914
2.9e-11,0.129160043637055,2.9e-11,0.9271808645440707
3e-11,0.1295199430731989,3e-11,0.9281071971878587
3.1e-11,0.1298786711905264,3.1e-11,0.9290324202076291
3.200000000000001e-11,0.1302364078756994,3.200000000000001e-11,0.9299564970771611
3.300000000000001e-11,0.130593114818319,3.300000000000001e-11,0.9308793913154823
3.400000000000001e-11,0.1309489528474781,3.400000000000001e-11,0.9318010664883082
3.500000000000001e-11,0.131303868063677,3.500000000000001e-11,0.9327214862094815
3.600000000000002e-11,0.1316580058793092,3.600000000000002e-11,0.9336406141424072
3.700000000000002e-11,0.1320113001443122,3.700000000000002e-11,0.9345584140014886
3.800000000000002e-11,0.1323638837611525,3.800000000000002e-11,0.9354748495535588
3.900000000000003e-11,0.1327156810029296,3.900000000000003e-11,0.9363898846193112
4.000000000000003e-11,0.133066814581894,4.000000000000003e-11,0.9373034830747282
4.100000000000003e-11,0.1334172013358706,4.100000000000003e-11,0.9382156088525073
4.200000000000004e-11,0.133766955637197,4.200000000000004e-11,0.9391262259434846
4.300000000000004e-11,0.1341159886041247,4.300000000000004e-11,0.9400352983980564
4.400000000000004e-11,0.1344644077441256,4.400000000000004e-11,0.9409427903275989
4.500000000000004e-11,0.1348121198308447,4.500000000000004e-11,0.9418486659058845
4.600000000000005e-11,0.1351592266820209,4.600000000000005e-11,0.9427528893704965
4.700000000000005e-11,0.1355056318290944,4.700000000000005e-11,0.9436554250242408
4.800000000000005e-11,0.1358514323355673,4.800000000000005e-11,0.9445562372365554
4.900000000000006e-11,0.1361965293750825,4.900000000000006e-11,0.9454552904449162
5.000000000000006e-11,0.13654101600099,5.000000000000006e-11,0.9463525491562422
5.100000000000006e-11,0.1368847917392041,5.100000000000006e-11,0.9472479779482958
5.200000000000007e-11,0.1372279462241779,5.200000000000007e-11,0.9481415414710815
5.300000000000007e-11,0.137570377904754,5.300000000000007e-11,0.9490332044482415
5.400000000000007e-11,0.1379121734657657,5.400000000000007e-11,0.9499229316784481
5.500000000000008e-11,0.1382532307381652,5.500000000000008e-11,0.9508106880367938
5.600000000000008e-11,0.1385936338291368,5.600000000000008e-11,0.9516964384761777
5.700000000000008e-11,0.1389332803217765,5.700000000000008e-11,0.952580148028689
5.800000000000008e-11,0.1392722520400105,5.800000000000008e-11,0.9534617818069877
5.900000000000008e-11,0.1396104466178136,5.900000000000008e-11,0.9543413050056819
6.000000000000008e-11,0.1399479438284321,6.000000000000008e-11,0.9552186829027017
6.100000000000007e-11,0.1402846415984187,6.100000000000007e-11,0.9560938808606702
6.200000000000007e-11,0.1406206178337037,6.200000000000007e-11,0.9569668643282703
6.300000000000007e-11,0.1409557709494756,6.300000000000007e-11,0.9578375988416096
6.400000000000006e-11,0.1412901771285681,6.400000000000006e-11,0.9587060500255804
6.500000000000006e-11,0.1416237354343136,6.500000000000006e-11,0.9595721835952171
6.600000000000006e-11,0.1419565204395656,6.600000000000006e-11,0.9604359653570494
6.700000000000005e-11,0.1422884319860313,6.700000000000005e-11,0.9612973612104524
6.800000000000005e-11,0.1426195431250189,6.800000000000005e-11,0.9621563371489926
6.900000000000005e-11,0.1429497545833558,6.900000000000005e-11,0.963012859261771
7.000000000000004e-11,0.1432791379596881,7.000000000000004e-11,0.963866893734761
7.100000000000004e-11,0.1436075949538515,7.100000000000004e-11,0.9647184068521439
7.200000000000004e-11,0.1439351957652556,7.200000000000004e-11,0.96556736499764
7.300000000000003e-11,0.144261843139466,7.300000000000003e-11,0.9664137346558352
7.400000000000003e-11,0.1445876059178879,7.400000000000003e-11,0.9672574824135048
7.500000000000003e-11,0.1449123879523184,7.500000000000003e-11,0.9680985749609321
7.600000000000002e-11,0.1452362567578067,7.600000000000002e-11,0.9689369790932232
7.700000000000002e-11,0.1455591173430026,7.700000000000002e-11,0.9697726617116188
7.800000000000001e-11,0.1458810359207436,7.800000000000001e-11,0.9706055898247999
7.900000000000001e-11,0.1462019186991499,7.900000000000001e-11,0.9714357305501908
8.000000000000001e-11,0.1465218306071455,8.000000000000001e-11,0.9722630511152573
8.1e-11,0.1468406790884211,8.1e-11,0.9730875188587998
8.2e-11,0.1471585278017601,8.2e-11,0.9739091012322437
8.3e-11,0.1474752854571994,8.3e-11,0.9747277658009237
8.399999999999999e-11,0.1477910144536848,8.399999999999999e-11,0.9755434802453642
8.499999999999999e-11,0.1481056247939909,8.499999999999999e-11,0.9763562123625558
8.599999999999999e-11,0.1484190912038411,8.599999999999999e-11,0.977165930067226
8.699999999999998e-11,0.1487315833964482,8.699999999999998e-11,0.9779726013931064
8.799999999999998e-11,0.1490428692223011,8.799999999999998e-11,0.9787761944941944
8.899999999999998e-11,0.1493529700256861,8.899999999999998e-11,0.9795766776460101
8.999999999999997e-11,0.149662050784918,8.999999999999997e-11,0.9803740192468495
9.099999999999997e-11,0.1499698851173297,9.099999999999997e-11,0.9811681878190314
9.199999999999997e-11,0.1502764936530756,9.199999999999997e-11,0.9819591520101404
9.299999999999996e-11,0.1505820366279901,9.299999999999996e-11,0.9827468805942645
9.399999999999996e-11,0.1508862934788381,9.399999999999996e-11,0.9835313424732282
9.499999999999996e-11,0.1511892841181137,9.499999999999996e-11,0.9843125066778196
9.599999999999995e-11,0.1514911640247381,9.599999999999995e-11,0.9850903423690135
9.699999999999995e-11,0.1517917185022185,9.699999999999995e-11,0.9858648188391886
9.799999999999995e-11,0.1520909667446207,9.799999999999995e-11,0.9866359055133401
9.899999999999994e-11,0.1523890594637383,9.899999999999994e-11,0.9874035719502864
9.999999999999994e-11,0.1526857878692469,9.999999999999994e-11,0.9881677878438709
1.009999999999999e-10,0.1529811704359507,1.009999999999999e-10,0.9889285230241589
1.019999999999999e-10,0.1532753531028724,1.019999999999999e-10,0.9896857474586278
1.029999999999999e-10,0.1535681330177308,1.029999999999999e-10,0.9904394312533537
1.039999999999999e-10,0.15385952793549,1.039999999999999e-10,0.9911895446541907
1.049999999999999e-10,0.1541496790215756,1.049999999999999e-10,0.9919360580479464
1.059999999999999e-10,0.1544383893863027,1.059999999999999e-10,0.9926789419635501
1.069999999999999e-10,0.1547256760647026,1.069999999999999e-10,0.9934181670732168
1.079999999999999e-10,0.1550116754527518,1.079999999999999e-10,0.994153704193605
1.089999999999999e-10,0.1552961966407773,1.089999999999999e-10,0.9948855242869686
1.099999999999999e-10,0.1555792559444317,1.099999999999999e-10,0.9956135984623034
1.109999999999999e-10,0.1558609849994712,1.109999999999999e-10,0.9963378979764876
1.119999999999999e-10,0.1561411988866337,1.119999999999999e-10,0.9970583942354165
1.129999999999999e-10,0.1564199132035169,1.129999999999999e-10,0.9977750587951317
1.139999999999999e-10,0.1566972548400228,1.139999999999999e-10,0.9984878633629434
1.149999999999999e-10,0.1569730448707917,1.149999999999999e-10,0.9991967797985477
1.159999999999999e-10,0.1572472981775419,1.159999999999999e-10,0.9999017801151376
1.169999999999999e-10,0.1575201369238542,1.169999999999999e-10,1.000602836480508
1.179999999999999e-10,0.1577913881749341,1.179999999999999e-10,1.001299921218154
1.189999999999999e-10,0.1580610660997127,1.189999999999999e-10,1.001993006808363
1.199999999999999e-10,0.1583292881601532,1.199999999999999e-10,1.002682065889303
1.209999999999999e-10,0.158595887401932,1.209999999999999e-10,1.003367071258102
1.219999999999999e-10,0.1588608772852459,1.219999999999999e-10,1.004047995871921
1.229999999999999e-10,0.1591243706003006,1.229999999999999e-10,1.004724812849021
1.239999999999999e-10,0.1593862063564562,1.239999999999999e-10,1.005397495469827
1.249999999999999e-10,0.1596463973102227,1.249999999999999e-10,1.006066017177982
1.259999999999998e-10,0.1599050516150327,1.259999999999998e-10,1.006730351581393
1.269999999999998e-10,0.1601620142205204,1.269999999999998e-10,1.007390472453275
1.279999999999998e-10,0.1604172971855678,1.279999999999998e-10,1.008046353733186
1.289999999999998e-10,0.1606710040669099,1.289999999999998e-10,1.008697969528057
1.299999999999998e-10,0.1609229857244744,1.299999999999998e-10,1.009345294113212
1.309999999999998e-10,0.1611732535266083,1.309999999999998e-10,1.009988301933384
1.319999999999998e-10,0.1614219064784609,1.319999999999998e-10,1.010626967603726
1.329999999999998e-10,0.1616688013137756,1.329999999999998e-10,1.011261265910811
1.339999999999998e-10,0.1619139487184965,1.339999999999998e-10,1.011891171813627
1.349999999999998e-10,0.1621574431962799,1.349999999999998e-10,1.012516660444569
1.359999999999998e-10,0.162399147311776,1.359999999999998e-10,1.013137707110416
1.369999999999998e-10,0.1626390710777028,1.369999999999998e-10,1.013754287293308
1.379999999999998e-10,0.1628773045512362,1.379999999999998e-10,1.014366376651717
1.389999999999998e-10,0.1631137160786607,1.389999999999998e-10,1.014973951021402
1.399999999999998e-10,0.1633483150096944,1.399999999999998e-10,1.015576986416368
1.409999999999998e-10,0.1635811870148924,1.409999999999998e-10,1.01617545902981
1.419999999999998e-10,0.1638122061666202,1.419999999999998e-10,1.016769345235053
1.429999999999998e-10,0.164041381162867,1.429999999999998e-10,1.017358621586488
1.439999999999998e-10,0.1642687933522016,1.439999999999998e-10,1.017943264820493
1.449999999999998e-10,0.164494322471312,1.449999999999998e-10,1.018523251856353
1.459999999999998e-10,0.1647179765787729,1.459999999999998e-10,1.019098559797175
1.469999999999998e-10,0.1649398327704945,1.469999999999998e-10,1.019669165930785
1.479999999999998e-10,0.1651597763796158,1.479999999999998e-10,1.020235047730631
1.489999999999998e-10,0.1653778148386455,1.489999999999998e-10,1.020796182856668
1.499999999999998e-10,0.1655940210647739,1.499999999999998e-10,1.021352549156242
1.509999999999998e-10,0.1658082859136941,1.509999999999998e-10,1.021904124664964
1.519999999999998e-10,0.1660206162062262,1.519999999999998e-10,1.022450887607578
1.529999999999998e-10,0.1662309981995856,1.529999999999998e-10,1.022992816398818
1.539999999999998e-10,0.1664395642811963,1.539999999999998e-10,1.023529889644264
1.549999999999997e-10,0.1666461181760884,1.549999999999997e-10,1.024062086141184
1.559999999999997e-10,0.166850699263497,1.559999999999997e-10,1.024589384879372
1.569999999999997e-10,0.1670532944642499,1.569999999999997e-10,1.025111765041976
1.579999999999997e-10,0.1672540261917093,1.579999999999997e-10,1.025629206006321
1.589999999999997e-10,0.167452712080959,1.589999999999997e-10,1.026141687344725
1.599999999999997e-10,0.1676493883618493,1.599999999999997e-10,1.026649188825302
1.609999999999997e-10,0.1678440426063414,1.609999999999997e-10,1.027151690412762
1.619999999999997e-10,0.1680367875345201,1.619999999999997e-10,1.027649172269204
1.629999999999997e-10,0.16822745433856,1.629999999999997e-10,1.028141614754894
1.639999999999997e-10,0.1684160761804721,1.639999999999997e-10,1.028628998429048
1.649999999999997e-10,0.1686026412740538,1.649999999999997e-10,1.029111304050591
1.659999999999997e-10,0.1687872529437066,1.659999999999997e-10,1.029588512578925
1.669999999999997e-10,0.1689697555639061,1.669999999999997e-10,1.030060605174673
1.679999999999997e-10,0.1691501793228066,1.679999999999997e-10,1.030527563200429
1.689999999999997e-10,0.1693285130686359,1.689999999999997e-10,1.030989368221488
1.699999999999997e-10,0.1695048050398461,1.699999999999997e-10,1.031446002006579
1.709999999999997e-10,0.1696789965038123,1.709999999999997e-10,1.031897446528583
1.719999999999997e-10,0.1698511660153151,1.719999999999997e-10,1.032343683965243
1.729999999999997e-10,0.1700211620366059,1.729999999999997e-10,1.032784696699868
1.739999999999997e-10,0.1701890312749271,1.739999999999997e-10,1.033220467322032
1.749999999999997e-10,0.1703547634994013,1.749999999999997e-10,1.033650978628255
1.759999999999997e-10,0.1705184399564593,1.759999999999997e-10,1.03407621362269
1.769999999999997e-10,0.1706799361701087,1.769999999999997e-10,1.034496155517785
1.779999999999997e-10,0.1708392753466682,1.779999999999997e-10,1.034910787734955
1.789999999999997e-10,0.170996447881393,1.789999999999997e-10,1.03532009390523
1.799999999999997e-10,0.1711514911820143,1.799999999999997e-10,1.035724057869903
1.809999999999997e-10,0.171304357681813,1.809999999999997e-10,1.036122663681167
1.819999999999997e-10,0.1714550448241208,1.819999999999997e-10,1.036515895602749
1.829999999999997e-10,0.1716036326941376,1.829999999999997e-10,1.036903738110525
1.839999999999996e-10,0.1717499579161463,1.839999999999996e-10,1.037286175893138
1.849999999999996e-10,0.1718940771215404,1.849999999999996e-10,1.037663193852597
1.859999999999996e-10,0.1720359817529758,1.859999999999996e-10,1.03803477710488
1.869999999999996e-10,0.1721756636652012,1.869999999999996e-10,1.038400910980517
1.879999999999996e-10,0.1723132193655736,1.879999999999996e-10,1.038761581025168
1.889999999999996e-10,0.1724484990681571,1.889999999999996e-10,1.039116773000199
1.899999999999996e-10,0.1725815402474307,1.899999999999996e-10,1.039466472883238
1.909999999999996e-10,0.172712335130992,1.909999999999996e-10,1.039810666868731
1.919999999999996e-10,0.1728409098571595,1.919999999999996e-10,1.040149341368492
1.929999999999996e-10,0.1729672289109103,1.929999999999996e-10,1.040482483012229
1.939999999999996e-10,0.1730912898930221,1.939999999999996e-10,1.040810078648081
1.949999999999996e-10,0.1732130850607987,1.949999999999996e-10,1.041132115343134
1.959999999999996e-10,0.1733326933977602,1.959999999999996e-10,1.04144858038393
1.969999999999996e-10,0.1734499600641651,1.969999999999996e-10,1.041759461276971
1.979999999999996e-10,0.1735649420746815,1.979999999999996e-10,1.042064745749212
1.989999999999996e-10,0.1736776328079014,1.989999999999996e-10,1.042364421748544
1.999999999999996e-10,0.1737880259690173,1.999999999999996e-10,1.042658477444273
2.009999999999996e-10,0.1738961339098467,2.009999999999996e-10,1.042946901227583
2.019999999999996e-10,0.1740019510010833,2.019999999999996e-10,1.043229681711996
2.029999999999996e-10,0.1741054643189997,2.029999999999996e-10,1.043506807733825
2.039999999999996e-10,0.1742066671046365,2.039999999999996e-10,1.043778268352606
2.049999999999996e-10,0.1743056379412756,2.049999999999996e-10,1.044044052851541
2.059999999999996e-10,0.174402210490766,2.059999999999996e-10,1.044304150737913
2.069999999999996e-10,0.1744964538655894,2.069999999999996e-10,1.044558551743501
2.079999999999996e-10,0.1745883627430668,2.079999999999996e-10,1.044807245824991
2.089999999999996e-10,0.1746779320745734,2.089999999999996e-10,1.045050223164365
2.099999999999996e-10,0.1747651570650867,2.099999999999996e-10,1.045287474169295
2.109999999999996e-10,0.1748500341951275,2.109999999999996e-10,1.045518989473516
2.119999999999996e-10,0.1749325856984205,2.119999999999996e-10,1.045744759937201
2.129999999999995e-10,0.1750127899353008,2.129999999999995e-10,1.045964776647319
2.139999999999995e-10,0.175090641495683,2.139999999999995e-10,1.046179030917986
2.149999999999995e-10,0.1751661353173468,2.149999999999995e-10,1.046387514290812
2.159999999999995e-10,0.1752392666571592,2.159999999999995e-10,1.046590218535229
2.169999999999995e-10,0.1753100310655784,2.169999999999995e-10,1.046787135648821
2.179999999999995e-10,0.1753785411786352,2.179999999999995e-10,1.046978257857637
2.189999999999995e-10,0.175444564397392,2.189999999999995e-10,1.0471635776165
2.199999999999995e-10,0.1755082091429791,2.199999999999995e-10,1.047343087609303
2.209999999999995e-10,0.1755694718692207,2.209999999999995e-10,1.047516780749299
2.219999999999995e-10,0.1756283492414637,2.219999999999995e-10,1.047684650179381
2.229999999999995e-10,0.1756848381233549,2.229999999999995e-10,1.04784668927235
2.239999999999995e-10,0.1757389355651288,2.239999999999995e-10,1.04800289163118
2.249999999999995e-10,0.1757906025086819,2.249999999999995e-10,1.048153251089271
2.259999999999995e-10,0.1758399184813838,2.259999999999995e-10,1.048297761710687
2.269999999999995e-10,0.1758868428371224,2.269999999999995e-10,1.048436417790398
2.279999999999995e-10,0.1759313720918939,2.279999999999995e-10,1.048569213854498
2.289999999999995e-10,0.1759735030418693,2.289999999999995e-10,1.048696144660426
2.299999999999995e-10,0.1760133110268125,2.299999999999995e-10,1.048817205197172
2.309999999999995e-10,0.1760506380467992,2.309999999999995e-10,1.048932390685472
2.319999999999995e-10,0.1760855562908312,2.319999999999995e-10,1.049041696578001
2.329999999999995e-10,0.176118063835911,2.329999999999995e-10,1.04914511855955
2.339999999999995e-10,0.1761481589161482,2.339999999999995e-10,1.049242652547195
2.349999999999995e-10,0.1761758399157834,2.349999999999995e-10,1.049334294690462
2.359999999999995e-10,0.1762011053630083,2.359999999999995e-10,1.049420041371476
2.369999999999995e-10,0.1762239539244899,2.369999999999995e-10,1.049499889205104
2.379999999999995e-10,0.1762443844005188,2.379999999999995e-10,1.049573835039092
2.389999999999995e-10,0.1762623957207102,2.389999999999995e-10,1.049641875954184
2.399999999999995e-10,0.1762779869401944,2.399999999999995e-10,1.049704009264241
2.409999999999995e-10,0.1762911572362399,2.409999999999995e-10,1.049760232516346
2.419999999999995e-10,0.1763019059052607,2.419999999999995e-10,1.049810543490903
2.429999999999995e-10,0.1763102487387358,2.429999999999995e-10,1.049854940201719
2.439999999999995e-10,0.1763161651773218,2.439999999999995e-10,1.049893420896088
2.449999999999995e-10,0.1763196592695354,2.449999999999995e-10,1.04992598405486
2.459999999999995e-10,0.17632073044543,2.459999999999995e-10,1.049952628392495
2.469999999999995e-10,0.176319378279888,2.469999999999995e-10,1.049973352857121
2.479999999999995e-10,0.17631560248704,2.479999999999995e-10,1.049988156630572
2.489999999999995e-10,0.1763094029153154,2.489999999999995e-10,1.049997039128421
2.499999999999994e-10,0.1763007795430519,2.499999999999994e-10,1.05
2.509999999999994e-10,0.1762897324746014,2.509999999999994e-10,1.049997039128421
2.519999999999994e-10,0.1762762619368734,2.519999999999994e-10,1.049988156630572
2.529999999999994e-10,0.1762603682762666,2.529999999999994e-10,1.049973352857121
2.539999999999994e-10,0.1762420519559448,2.539999999999994e-10,1.049952628392495
2.549999999999994e-10,0.1762213135534158,2.549999999999994e-10,1.04992598405486
2.559999999999994e-10,0.1761981537583802,2.559999999999994e-10,1.049893420896088
