;Version, 1, 0
;gain (VCTRL=0.02),;gain (VCTRL=0.04),;gain (VCTRL=0.06),;gain (VCTRL=0.08),;gain (VCTRL=0.1),;gain (VCTRL=0.12),;gain (VCTRL=0.14),;gain (VCTRL=0.16),;gain (VCTRL=0.18),;gain (VCTRL=0.2)
;X, Y,;X, Y,;X, Y,;X, Y,;X, Y,;X, Y,;X, Y,;X, Y,;X, Y,;X, Y
;Re, Re,;Re, Re,;Re, Re,;Re, Re,;Re, Re,;Re, Re,;Re, Re,;Re, Re,;Re, Re,;Re, Re
;freq, V,;freq, V,;freq, V,;freq, V,;freq, V,;freq, V,;freq, V,;freq, V,;freq, V,;freq, V
;Hz, dB,;Hz, dB,;Hz, dB,;Hz, dB,;Hz, dB,;Hz, dB,;Hz, dB,;Hz, dB,;Hz, dB,;Hz, dB
1000000,-2.647511712267159,1000000,3.775030057665439,1000000,7.909707131258327,1000000,11.11334538539445,1000000,13.69458749830009,1000000,15.62974209396606,1000000,16.91971766917301,1000000,17.69765339088633,1000000,18.12308634690516,1000000,18.34355100127958
1002305.2380779,-2.647511712584618,1002305.2380779,3.775030057336591,1002305.2380779,7.909707130909013,1002305.2380779,11.11334538501442,1002305.2380779,13.69458749787866,1002305.2380779,15.62974209349756,1002305.2380779,16.91971766866116,1002305.2380779,17.69765339034113,1002305.2380779,18.12308634633807,1002305.2380779,18.3435510006987
1004615.790278395,-2.647511712903555,1004615.790278395,3.77503005700622,1004615.790278395,7.909707130558081,1004615.790278395,11.11334538463263,1004615.790278395,13.69458749745529,1004615.790278395,15.62974209302691,1004615.790278395,16.91971766814694,1004615.790278395,17.69765338979342,1004615.790278395,18.12308634576836,1004615.790278395,18.34355100011513
1006931.668851804,-2.647511713223954,1006931.668851804,3.775030056674332,1006931.668851804,7.909707130205537,1006931.668851804,11.11334538424907,1006931.668851804,13.69458749702996,1006931.668851804,15.62974209255408,1006931.668851804,16.91971766763035,1006931.668851804,17.69765338924317,1006931.668851804,18.12308634519602,1006931.668851804,18.34355099952886
1009252.886076684,-2.647511713545829,1009252.886076684,3.775030056340906,1009252.886076684,7.909707129851361,1009252.886076684,11.11334538386375,1009252.886076684,13.69458749660267,1009252.886076684,15.62974209207907,1009252.886076684,16.91971766711138,1009252.886076684,17.69765338869039,1009252.886076684,18.12308634462104,1009252.886076684,18.3435509989399
1011579.454259898,-2.647511713869191,1011579.454259898,3.775030056005937,1011579.454259898,7.909707129495551,1011579.454259898,11.11334538347665,1011579.454259898,13.69458749617341,1011579.454259898,15.62974209160187,1011579.454259898,16.91971766659001,1011579.454259898,17.69765338813505,1011579.454259898,18.1230863440434,1011579.454259898,18.34355099834821
1013911.385736679,-2.647511714194039,1013911.385736679,3.775030055669432,1013911.385736679,7.909707129138101,1013911.385736679,11.11334538308776,1013911.385736679,13.69458749574217,1013911.385736679,15.62974209112247,1013911.385736679,16.91971766606623,1013911.385736679,17.69765338757715,1013911.385736679,18.1230863434631,1013911.385736679,18.34355099775379
1016248.692870695,-2.647511714520388,1016248.692870695,3.775030055331368,1016248.692870695,7.909707128778998,1016248.692870695,11.11334538269708,1016248.692870695,13.69458749530894,1016248.692870695,15.62974209064084,1016248.692870695,16.91971766554004,1016248.692870695,17.69765338701668,1016248.692870695,18.12308634288012,1016248.692870695,18.34355099715663
1018591.388054117,-2.647511714848247,1018591.388054117,3.775030054991743,1018591.388054117,7.909707128418241,1018591.388054117,11.1133453823046,1018591.388054117,13.69458749487371,1018591.388054117,15.62974209015701,1018591.388054117,16.91971766501142,1018591.388054117,17.69765338645361,1018591.388054117,18.12308634229445,1018591.388054117,18.34355099655671
1020939.483707679,-2.647511715177625,1020939.483707679,3.775030054650554,1020939.483707679,7.909707128055819,1020939.483707679,11.1133453819103,1020939.483707679,13.69458749443647,1020939.483707679,15.62974208967093,1020939.483707679,16.91971766448036,1020939.483707679,17.69765338588796,1020939.483707679,18.12308634170608,1020939.483707679,18.34355099595403
1023292.992280754,-2.647511715508522,1023292.992280754,3.775030054307785,1023292.992280754,7.909707127691715,1023292.992280754,11.11334538151418,1023292.992280754,13.69458749399721,1023292.992280754,15.62974208918261,1023292.992280754,16.91971766394684,1023292.992280754,17.69765338531969,1023292.992280754,18.12308634111498,1023292.992280754,18.34355099534856
1025651.926251407,-2.64751171584094,1025651.926251407,3.775030053963436,1025651.926251407,7.909707127325942,1025651.926251407,11.11334538111623,1025651.926251407,13.69458749355592,1025651.926251407,15.62974208869204,1025651.926251407,16.91971766341087,1025651.926251407,17.69765338474879,1025651.926251407,18.12308634052116,1025651.926251407,18.3435509947403
1028016.298126473,-2.647511716174897,1028016.298126473,3.775030053617495,1028016.298126473,7.909707126958471,1028016.298126473,11.11334538071645,1028016.298126473,13.6945874931126,1028016.298126473,15.6297420881992,1028016.298126473,16.91971766287242,1028016.298126473,17.69765338417526,1028016.298126473,18.1230863399246,1028016.298126473,18.34355099412922
1030386.120441615,-2.647511716510396,1030386.120441615,3.775030053269965,1030386.120441615,7.909707126589311,1030386.120441615,11.11334538031482,1030386.120441615,13.69458749266723,1030386.120441615,15.62974208770409,1030386.120441615,16.91971766233148,1030386.120441615,17.69765338359909,1030386.120441615,18.12308633932529,1030386.120441615,18.34355099351533
1032761.405761397,-2.647511716847439,1032761.405761397,3.775030052920824,1032761.405761397,7.909707126218448,1032761.405761397,11.11334537991134,1032761.405761397,13.6945874922198,1032761.405761397,15.6297420872067,1032761.405761397,16.91971766178805,1032761.405761397,17.69765338302025,1032761.405761397,18.12308633872321,1032761.405761397,18.34355099289861
1035142.166679343,-2.647511717186047,1035142.166679343,3.77503005257008,1035142.166679343,7.909707125845868,1035142.166679343,11.113345379506,1035142.166679343,13.69458749177032,1035142.166679343,15.629742086707,1035142.166679343,16.91971766124211,1035142.166679343,17.69765338243874,1035142.166679343,18.12308633811836,1035142.166679343,18.34355099227904
1037528.415818012,-2.647511717526202,1037528.415818012,3.775030052217708,1037528.415818012,7.90970712547157,1037528.415818012,11.11334537909878,1037528.415818012,13.69458749131875,1037528.415818012,15.629742086205,1037528.415818012,16.91971766069365,1037528.415818012,17.69765338185455,1037528.415818012,18.12308633751071,1037528.415818012,18.34355099165661
1039920.165829058,-2.647511717867941,1039920.165829058,3.775030051863717,1039920.165829058,7.909707125095541,1039920.165829058,11.11334537868968,1039920.165829058,13.6945874908651,1039920.165829058,15.62974208570069,1039920.165829058,16.91971766014265,1039920.165829058,17.69765338126766,1039920.165829058,18.12308633690025,1039920.165829058,18.34355099103131
1042317.429393303,-2.647511718211251,1042317.429393303,3.775030051508082,1042317.429393303,7.909707124717778,1042317.429393303,11.1133453782787,1042317.429393303,13.69458749040936,1042317.429393303,15.62974208519404,1042317.429393303,16.91971765958912,1042317.429393303,17.69765338067807,1042317.429393303,18.12308633628698,1042317.429393303,18.34355099040311
1044720.219220799,-2.647511718556146,1044720.219220799,3.77503005115081,1044720.219220799,7.909707124338277,1044720.219220799,11.11334537786582,1044720.219220799,13.69458748995151,1044720.219220799,15.62974208468506,1044720.219220799,16.91971765903303,1044720.219220799,17.69765338008575,1044720.219220799,18.12308633567087,1044720.219220799,18.34355098977203
1047128.548050899,-2.647511718902634,1047128.548050899,3.775030050791889,1047128.548050899,7.90970712395702,1047128.548050899,11.11334537745103,1047128.548050899,13.69458748949155,1047128.548050899,15.62974208417373,1047128.548050899,16.91971765847437,1047128.548050899,17.69765337949069,1047128.548050899,18.12308633505193,1047128.548050899,18.34355098913802
1049542.428652321,-2.647511719250723,1049542.428652321,3.775030050431312,1049542.428652321,7.909707123574002,1049542.428652321,11.11334537703433,1049542.428652321,13.69458748902946,1049542.428652321,15.62974208366004,1049542.428652321,16.91971765791314,1049542.428652321,17.69765337889289,1049542.428652321,18.12308633443012,1049542.428652321,18.34355098850109
1051961.873823222,-2.647511719600425,1051961.873823222,3.775030050069075,1051961.873823222,7.909707123189219,1051961.873823222,11.11334537661571,1051961.873823222,13.69458748856525,1051961.873823222,15.62974208314398,1051961.873823222,16.91971765734931,1051961.873823222,17.69765337829233,1051961.873823222,18.12308633380544,1051961.873823222,18.34355098786122
1054386.896391258,-2.647511719951733,1054386.896391258,3.775030049705159,1054386.896391258,7.909707122802658,1054386.896391258,11.11334537619515,1054386.896391258,13.69458748809889,1054386.896391258,15.62974208262553,1054386.896391258,16.91971765678288,1054386.896391258,17.697653377689,1054386.896391258,18.12308633317788,1054386.896391258,18.3435509872184
1056817.509213657,-2.647511720304661,1056817.509213657,3.775030049339567,1056817.509213657,7.909707122414315,1056817.509213657,11.11334537577265,1056817.509213657,13.69458748763038,1056817.509213657,15.62974208210469,1056817.509213657,16.91971765621383,1056817.509213657,17.69765337708289,1056817.509213657,18.12308633254743,1056817.509213657,18.34355098657261
1059253.725177287,-2.64751172065922,1059253.725177287,3.77503004897228,1059253.725177287,7.909707122024178,1059253.725177287,11.11334537534821,1059253.725177287,13.6945874871597,1059253.725177287,15.62974208158145,1059253.725177287,16.91971765564217,1059253.725177287,17.69765337647398,1059253.725177287,18.12308633191407,1059253.725177287,18.34355098592384
1061695.557198723,-2.647511721015413,1061695.557198723,3.775030048603311,1061695.557198723,7.909707121632235,1061695.557198723,11.1133453749218,1061695.557198723,13.69458748668686,1061695.557198723,15.62974208105579,1061695.557198723,16.91971765506786,1061695.557198723,17.69765337586225,1061695.557198723,18.12308633127778,1061695.557198723,18.34355098527207
1064143.018224314,-2.647511721373254,1064143.018224314,3.775030048232632,1064143.018224314,7.909707121238487,1064143.018224314,11.11334537449342,1064143.018224314,13.69458748621183,1064143.018224314,15.62974208052771,1064143.018224314,16.9197176544909,1064143.018224314,17.6976533752477,1064143.018224314,18.12308633063855,1064143.018224314,18.34355098461729
1066596.121230256,-2.647511721732749,1066596.121230256,3.775030047860238,1066596.121230256,7.909707120842927,1066596.121230256,11.11334537406307,1066596.121230256,13.6945874857346,1066596.121230256,15.62974207999719,1066596.121230256,16.91971765391128,1066596.121230256,17.69765337463032,1066596.121230256,18.12308632999638,1066596.121230256,18.3435509839595
1069054.879222656,-2.647511722093896,1069054.879222656,3.775030047486132,1069054.879222656,7.909707120445535,1069054.879222656,11.11334537363073,1069054.879222656,13.69458748525518,1069054.879222656,15.62974207946422,1069054.879222656,16.91971765332898,1069054.879222656,17.69765337401008,1069054.879222656,18.12308632935124,1069054.879222656,18.34355098329867
1071519.305237605,-2.647511722456713,1071519.305237605,3.775030047110294,1071519.305237605,7.909707120046312,1071519.305237605,11.1133453731964,1071519.305237605,13.69458748477354,1071519.305237605,15.62974207892879,1071519.305237605,16.91971765274399,1071519.305237605,17.69765337338698,1071519.305237605,18.12308632870312,1071519.305237605,18.34355098263478
1073989.412341243,-2.64751172282121,1073989.412341243,3.77503004673273,1073989.412341243,7.909707119645242,1073989.412341243,11.11334537276005,1073989.412341243,13.69458748428968,1073989.412341243,15.62974207839088,1073989.412341243,16.9197176521563,1073989.412341243,17.69765337276101,1073989.412341243,18.12308632805201,1073989.412341243,18.34355098196784
1076465.213629833,-2.647511723187378,1076465.213629833,3.775030046353415,1076465.213629833,7.90970711924232,1076465.213629833,11.1133453723217,1076465.213629833,13.69458748380359,1076465.213629833,15.6297420778505,1076465.213629833,16.9197176515659,1076465.213629833,17.69765337213215,1076465.213629833,18.12308632739789,1076465.213629833,18.34355098129781
1078946.722229827,-2.647511723555244,1078946.722229827,3.775030045972348,1078946.722229827,7.909707118837548,1078946.722229827,11.11334537188132,1078946.722229827,13.69458748331525,1078946.722229827,15.62974207730762,1078946.722229827,16.91971765097278,1078946.722229827,17.69765337150039,1078946.722229827,18.12308632674076,1078946.722229827,18.34355098062469
1081433.951297936,-2.647511723924805,1081433.951297936,3.775030045589526,1081433.951297936,7.909707118430899,1081433.951297936,11.11334537143892,1081433.951297936,13.69458748282466,1081433.951297936,15.62974207676224,1081433.951297936,16.91971765037691,1081433.951297936,17.69765337086571,1081433.951297936,18.12308632608059,1081433.951297936,18.34355097994847
1083926.914021201,-2.647511724296085,1083926.914021201,3.775030045204937,1083926.914021201,7.909707118022375,1083926.914021201,11.11334537099447,1083926.914021201,13.6945874823318,1083926.914021201,15.62974207621434,1083926.914021201,16.91971764977831,1083926.914021201,17.69765337022809,1083926.914021201,18.12308632541738,1083926.914021201,18.34355097926912
1086425.623617063,-2.647511724669061,1086425.623617063,3.775030044818571,1086425.623617063,7.909707117611965,1086425.623617063,11.11334537054796,1086425.623617063,13.69458748183667,1086425.623617063,15.62974207566391,1086425.623617063,16.91971764917693,1086425.623617063,17.69765336958754,1086425.623617063,18.1230863247511,1086425.623617063,18.34355097858664
1088930.093333431,-2.647511725043756,1088930.093333431,3.775030044430421,1088930.093333431,7.90970711719966,1088930.093333431,11.1133453700994,1088930.093333431,13.69458748133926,1088930.093333431,15.62974207511093,1088930.093333431,16.91971764857278,1088930.093333431,17.69765336894403,1088930.093333431,18.12308632408175,1088930.093333431,18.34355097790101
1091440.336448754,-2.647511725420197,1091440.336448754,3.775030044040484,1091440.336448754,7.909707116785455,1091440.336448754,11.11334536964876,1091440.336448754,13.69458748083954,1091440.336448754,15.62974207455541,1091440.336448754,16.91971764796584,1091440.336448754,17.69765336829755,1091440.336448754,18.12308632340931,1091440.336448754,18.34355097721221
1093956.366272091,-2.647511725798373,1093956.366272091,3.775030043648744,1093956.366272091,7.909707116369333,1093956.366272091,11.11334536919605,1093956.366272091,13.69458748033752,1093956.366272091,15.62974207399732,1093956.366272091,16.9197176473561,1093956.366272091,17.69765336764809,1093956.366272091,18.12308632273376,1093956.366272091,18.34355097652023
1096478.196143182,-2.647511726178294,1096478.196143182,3.775030043255192,1096478.196143182,7.909707115951293,1096478.196143182,11.11334536874125,1096478.196143182,13.69458747983319,1096478.196143182,15.62974207343666,1096478.196143182,16.91971764674354,1096478.196143182,17.69765336699562,1096478.196143182,18.1230863220551,1096478.196143182,18.34355097582506
1099005.839432518,-2.647511726559956,1099005.839432518,3.775030042859827,1099005.839432518,7.909707115531326,1099005.839432518,11.11334536828434,1099005.839432518,13.69458747932652,1099005.839432518,15.62974207287341,1099005.839432518,16.91971764612816,1099005.839432518,17.69765336634015,1099005.839432518,18.12308632137331,1099005.839432518,18.34355097512669
1101539.309541412,-2.647511726943395,1101539.309541412,3.775030042462642,1101539.309541412,7.909707115109416,1101539.309541412,11.11334536782533,1101539.309541412,13.69458747881752,1101539.309541412,15.62974207230755,1101539.309541412,16.91971764550993,1101539.309541412,17.69765336568165,1101539.309541412,18.12308632068836,1101539.309541412,18.34355097442508
1104078.61990207,-2.647511727328592,1104078.61990207,3.775030042063615,1104078.61990207,7.909707114685562,1104078.61990207,11.1133453673642,1104078.61990207,13.69458747830617,1104078.61990207,15.62974207173909,1104078.61990207,16.91971764488886,1104078.61990207,17.69765336502011,1104078.61990207,18.12308632000026,1104078.61990207,18.34355097372024
1106623.783977663,-2.647511727715567,1106623.783977663,3.775030041662752,1106623.783977663,7.909707114259749,1106623.783977663,11.11334536690094,1106623.783977663,13.69458747779245,1106623.783977663,15.629742071168,1106623.783977663,16.91971764426491,1106623.783977663,17.69765336435552,1106623.783977663,18.12308631930898,1106623.783977663,18.34355097301214
1109174.815262398,-2.647511728104338,1109174.815262398,3.775030041260042,1109174.815262398,7.909707113831973,1109174.815262398,11.11334536643554,1109174.815262398,13.69458747727637,1109174.815262398,15.62974207059428,1109174.815262398,16.91971764363809,1109174.815262398,17.69765336368785,1109174.815262398,18.12308631861451,1109174.815262398,18.34355097230078
1111731.727281588,-2.647511728494895,1111731.727281588,3.775030040855464,1111731.727281588,7.909707113402222,1111731.727281588,11.11334536596799,1111731.727281588,13.6945874767579,1111731.727281588,15.62974207001791,1111731.727281588,16.91971764300838,1111731.727281588,17.69765336301712,1111731.727281588,18.12308631791683,1111731.727281588,18.34355097158613
1114294.533591727,-2.647511728887262,1114294.533591727,3.775030040449018,1114294.533591727,7.909707112970487,1114294.533591727,11.11334536549829,1114294.533591727,13.69458747623704,1114294.533591727,15.62974206943888,1114294.533591727,16.91971764237575,1114294.533591727,17.69765336234327,1114294.533591727,18.12308631721594,1114294.533591727,18.34355097086819
1116863.247780558,-2.647511729281447,1116863.247780558,3.775030040040703,1116863.247780558,7.90970711253676,1116863.247780558,11.11334536502642,1116863.247780558,13.69458747571378,1116863.247780558,15.62974206885717,1116863.247780558,16.91971764174021,1116863.247780558,17.69765336166633,1116863.247780558,18.12308631651181,1116863.247780558,18.34355097014693
1119437.883467148,-2.647511729677424,1119437.883467148,3.775030039630505,1119437.883467148,7.909707112101031,1119437.883467148,11.11334536455237,1119437.883467148,13.6945874751881,1119437.883467148,15.62974206827278,1119437.883467148,16.91971764110173,1119437.883467148,17.69765336098625,1119437.883467148,18.12308631580442,1119437.883467148,18.34355096942235
1122018.45430196,-2.647511730075244,1122018.45430196,3.775030039218406,1122018.45430196,7.909707111663286,1122018.45430196,11.11334536407613,1122018.45430196,13.69458747466,1122018.45430196,15.62974206768569,1122018.45430196,16.9197176404603,1122018.45430196,17.69765336030304,1122018.45430196,18.12308631509378,1122018.45430196,18.34355096869441
1124604.973966923,-2.647511730474919,1124604.973966923,3.77503003880441,1124604.973966923,7.909707111223529,1124604.973966923,11.11334536359769,1124604.973966923,13.69458747412945,1124604.973966923,15.6297420670959,1124604.973966923,16.91971763981592,1124604.973966923,17.69765335961668,1124604.973966923,18.12308631437985,1124604.973966923,18.34355096796311
1127197.456175507,-2.647511730876415,1127197.456175507,3.775030038388507,1127197.456175507,7.909707110781731,1127197.456175507,11.11334536311705,1127197.456175507,13.69458747359646,1127197.456175507,15.62974206650337,1127197.456175507,16.91971763916856,1127197.456175507,17.69765335892714,1127197.456175507,18.12308631366263,1127197.456175507,18.34355096722845
1129795.914672794,-2.647511731279773,1129795.914672794,3.775030037970673,1129795.914672794,7.909707110337905,1129795.914672794,11.11334536263418,1129795.914672794,13.69458747306101,1129795.914672794,15.62974206590812,1129795.914672794,16.91971763851821,1129795.914672794,17.69765335823443,1129795.914672794,18.1230863129421,1129795.914672794,18.34355096649039
