;Version, 1, 0
;/M2/D (Wt=1.2e-05),;/M2/D (Wt=1.4e-05),;/M2/D (Wt=1.6e-05),;/M2/D (Wt=1.8e-05),;/M2/D (Wt=2e-05),;/M2/D (Wt=2.2e-05),;/M2/D (Wt=2.4e-05),;/M2/D (Wt=2.6e-05),;/M2/D (Wt=2.8e-05),;/M2/D (Wt=3e-05),;/M2/D (Wt=3.2e-05),;/M2/D (Wt=3.4e-05),;/M2/D (Wt=3.6e-05),;/M2/D (Wt=3.8e-05),;/M2/D (Wt=4e-05),;/M2/D (Wt=4.2e-05),;/M2/D (Wt=4.4e-05),;/M2/D (Wt=4.6e-05),;/M2/D (Wt=4.8e-05),;/M2/D (Wt=5e-05)
;X, Y,;X, Y,;X, Y,;X, Y,;X, Y,;X, Y,;X, Y,;X, Y,;X, Y,;X, Y,;X, Y,;X, Y,;X, Y,;X, Y,;X, Y,;X, Y,;X, Y,;X, Y,;X, Y,;X, Y
;Re, Re,;Re, Re,;Re, Re,;Re, Re,;Re, Re,;Re, Re,;Re, Re,;Re, Re,;Re, Re,;Re, Re,;Re, Re,;Re, Re,;Re, Re,;Re, Re,;Re, Re,;Re, Re,;Re, Re,;Re, Re,;Re, Re,;Re, Re
;vtest, I,;vtest, I,;vtest, I,;vtest, I,;vtest, I,;vtest, I,;vtest, I,;vtest, I,;vtest, I,;vtest, I,;vtest, I,;vtest, I,;vtest, I,;vtest, I,;vtest, I,;vtest, I,;vtest, I,;vtest, I,;vtest, I,;vtest, I
;xunit, A,;xunit, A,;xunit, A,;xunit, A,;xunit, A,;xunit, A,;xunit, A,;xunit, A,;xunit, A,;xunit, A,;xunit, A,;xunit, A,;xunit, A,;xunit, A,;xunit, A,;xunit, A,;xunit, A,;xunit, A,;xunit, A,;xunit, A
0,2.412017738533773e-11,0,2.785920984756165e-11,0,3.159896596937911e-11,0,3.533927608170118e-11,0,3.908002471375541e-11,0,4.282113014405642e-11,0,4.656253262043232e-11,0,5.030418723205078e-11,0,5.404605941474365e-11,0,5.778812201536543e-11,0,6.153035331598916e-11,0,6.52727356677847e-11,0,6.901525452514395e-11,0,7.275789774769549e-11,0,7.650065508711575e-11,0,8.02435178033656e-11,0,8.398647837308753e-11,0,8.772953026558164e-11,0,9.147266776783406e-11,0,9.521588584683633e-11
0.001,2.486363806817896e-11,0.001,2.872721322724315e-11,0.001,3.259153612744645e-11,0.001,3.64564314543937e-11,0.001,4.032177989524869e-11,0.001,4.418749700930706e-11,0.001,4.805352105618668e-11,0.001,5.191980563062367e-11,0.001,5.578631501824702e-11,0.001,5.965302116241729e-11,0.001,6.351990162236929e-11,0.001,6.738693816203263e-11,0.001,7.125411575163758e-11,0.001,7.512142184684856e-11,0.001,7.89888458582394e-11,0.001,8.285637875490414e-11,0.001,8.672401276307142e-11,0.001,9.059174113461549e-11,0.001,9.445955796645094e-11,0.001,9.83274580579924e-11
0.002,2.563183177464011e-11,0.002,2.962409282576933e-11,0.002,3.361712649957601e-11,0.002,3.761075164884848e-11,0.002,4.160484499106661e-11,0.002,4.559931927601177e-11,0.002,4.959411070902407e-11,0.002,5.358917134079331e-11,0.002,5.758446426855436e-11,0.002,6.157996050206594e-11,0.002,6.55756368538686e-11,0.002,6.9571474481031e-11,0.002,7.356745785359899e-11,0.002,7.756357400980534e-11,0.002,8.155981200781135e-11,0.002,8.555616251607003e-11,0.002,8.955261750224673e-11,0.002,9.354916999354211e-11,0.002,9.754581389037367e-11,0.002,1.015425438191232e-10
0.003,2.642557973838698e-11,0.003,3.055080744622873e-11,0.003,3.467683348474236e-11,0.003,3.88034706802196e-11,0.003,4.293059164861104e-11,0.003,4.705810623690475e-11,0.003,5.118594852791699e-11,0.003,5.531406897697413e-11,0.003,5.944242945353213e-11,0.003,6.357100000269104e-11,0.003,6.769975666542903e-11,0.003,7.182867997186235e-11,0.003,7.595775387527993e-11,0.003,8.008696498250542e-11,0.003,8.421630198764684e-11,0.003,8.834575524863425e-11,0.003,9.247531646573465e-11,0.003,9.660497843414251e-11,0.003,1.007347348512926e-10,0.003,1.048645801647237e-10
0.004,2.724573038245216e-11,0.004,3.150834763563195e-11,0.004,3.577178978132897e-11,0.004,4.003586341920829e-11,0.004,4.4300436927496e-11,0.004,4.856541715398596e-11,0.004,5.283073598852795e-11,0.004,5.709634223811426e-11,0.004,6.136219650352548e-11,0.004,6.562826783328483e-11,0.004,6.989453147118527e-11,0.004,7.416096729946155e-11,0.004,7.842755873751767e-11,0.004,8.269429194652976e-11,0.004,8.696115524438248e-11,0.004,9.122813866812668e-11,0.004,9.54952336418243e-11,0.004,9.976243272095309e-11,0.004,1.040297293931699e-10,0.004,1.082971179212316e-10
0.005,2.809316021545957e-11,0.005,3.249773673125413e-11,0.005,3.69031655835691e-11,0.005,4.130924693868807e-11,0.005,4.571584479640061e-11,0.005,5.012286290571698e-11,0.005,5.453023089065567e-11,0.005,5.893789585515978e-11,0.005,6.334581708929154e-11,0.005,6.775396261176149e-11,0.005,7.21623068427389e-11,0.005,7.657082899518507e-11,0.005,8.097951193679929e-11,0.005,8.538834136824736e-11,0.005,8.979730521868598e-11,0.005,9.420639319375246e-11,0.005,9.861559643209334e-11,0.005,1.030249072414894e-10,0.005,1.074343188928002e-10,0.005,1.118438254578286e-10
0.006,2.896877475713893e-11,0.006,3.352003194132835e-11,0.006,3.807216981735012e-11,0.006,4.262498190455508e-11,0.006,4.717832767894909e-11,0.006,5.173210768783473e-11,0.006,5.628624921424494e-11,0.006,6.084069760244703e-11,0.006,6.539541078822279e-11,0.006,6.995035572639362e-11,0.006,7.450550598616504e-11,0.006,7.906084008882205e-11,0.006,8.361634033210835e-11,0.006,8.817199194099223e-11,0.006,9.272778244296129e-11,0.006,9.728370120112573e-11,0.006,1.018397390592908e-10,0.006,1.063958880692746e-10,0.006,1.109521412780427e-10,0.006,1.155084925601546e-10
0.007,2.987350949426932e-11,0.007,3.457632546093128e-11,0.007,3.928005141628137e-11,0.007,4.398447401205184e-11,0.007,4.86894480502853e-11,0.007,5.339487077032503e-11,0.007,5.810066703638653e-11,0.007,6.280678037479602e-11,0.007,6.751316732200401e-11,0.007,7.221979373363378e-11,0.007,7.69266322995724e-11,0.007,8.16336608266484e-11,0.007,8.634086102366764e-11,0.007,9.104821762396827e-11,0.007,9.575571774019341e-11,0.007,1.004633503814307e-10,0.007,1.051711060869198e-10,0.007,1.09878976644014e-10,0.007,1.145869548683005e-10,0.007,1.19295034430547e-10
0.008,3.080833086775093e-11,0.008,3.566774562454621e-11,0.008,4.052810063955967e-11,0.008,4.538917546897841e-11,0.008,5.02508200857236e-11,0.008,5.511292831133755e-11,0.008,5.997542251103781e-11,0.008,6.483824433267149e-11,0.008,6.970134886707281e-11,0.008,7.456470083404788e-11,0.008,7.942827201508398e-11,0.008,8.429203947874728e-11,0.008,8.915598432530223e-11,0.008,9.402009078027993e-11,0.008,9.888434552757165e-11,0.008,1.037487372106152e-10,0.008,1.086132560538636e-10,0.008,1.134778935713932e-10,0.008,1.183426423398346e-10,0.008,1.232074958193677e-10
0.009000000000000001,3.177423729211286e-11,0.009000000000000001,3.679545809624835e-11,0.009000000000000001,4.181765043303336e-11,0.009000000000000001,4.684058652758017e-11,0.009000000000000001,5.186411136343664e-11,0.009000000000000001,5.688811523092834e-11,0.009000000000000001,6.191251791322167e-11,0.009000000000000001,6.693725911745159e-11,0.009000000000000001,7.196229244074129e-11,0.009000000000000001,7.69875814294683e-11,0.009000000000000001,8.201309692651236e-11,0.009000000000000001,8.7038815237612e-11,0.009000000000000001,9.20647168343864e-11,0.009000000000000001,9.709078541768625e-11,0.009000000000000001,1.0211700722831e-10,0.009000000000000001,1.071433705319608e-10,0.009000000000000001,1.121698652279419e-10,0.009000000000000001,1.171964825479417e-10,0.009000000000000001,1.222232148215911e-10,0.009000000000000001,1.272500552915178e-10
0.01,3.277226020822491e-11,0.01,3.796066709881166e-11,0.01,4.315007783462961e-11,0.01,4.834025706645204e-11,0.01,5.353104462285153e-11,0.01,5.872232714567506e-11,0.01,6.391402175043384e-11,0.01,6.910606613911061e-11,0.01,7.429841236554641e-11,0.01,7.949102276367042e-11,0.01,8.468386720659493e-11,0.01,8.987692121204512e-11,0.01,9.507016460202213e-11,0.01,1.002635805351987e-10,0.01,1.054571547947649e-10,0.01,1.106508752560565e-10,0.01,1.158447314823211e-10,0.01,1.210387144136137e-10,0.01,1.262328161243648e-10,0.01,1.314270296323641e-10
0.011,3.380346517048344e-11,0.011,3.916461668301945e-11,0.011,4.452680542588317e-11,0.011,4.988978822416377e-11,0.011,5.525339958037222e-11,0.011,6.061752236685335e-11,0.011,6.598207094289236e-11,0.011,7.134698093875803e-11,0.011,7.671220281381087e-11,0.011,8.20776976493131e-11,0.011,8.744343431642088e-11,0.011,9.2809387518629e-11,0.011,9.817553640682169e-11,0.011,1.035418635795026e-10,0.011,1.089083543469734e-10,0.011,1.142749961812489e-10,0.011,1.196417782984566e-10,0.011,1.250086913372398e-10,0.011,1.303757271084535e-10,0.011,1.357428783975348e-10
0.012,3.486895296952185e-11,0.012,4.040859203839941e-11,0.012,4.594930283070358e-11,0.012,5.149083408617626e-11,0.012,5.703301480454742e-11,0.012,6.257572396358874e-11,0.012,6.811887307490627e-11,0.012,7.36623956282803e-11,0.012,7.920624043564355e-11,0.012,8.475036728412414e-11,0.012,9.029474400961695e-11,0.012,9.583934447428594e-11,0.012,1.013841471357001e-10,0.012,1.069291340135399e-10,0.012,1.124742899295967e-10,0.012,1.180196019392144e-10,0.012,1.235650588997702e-10,0.012,1.291106511385741e-10,0.012,1.346563701940224e-10,0.012,1.4020220861155e-10
0.013,3.59698607916131e-11,0.013,4.169392084684486e-11,0.013,4.74190882632559e-11,0.013,5.31451034269938e-11,0.013,5.887178965247121e-11,0.013,6.459902189366952e-11,0.013,7.032670871999251e-11,0.013,7.605478140970745e-11,0.013,8.178318707272567e-11,0.013,8.75118841589361e-11,0.013,9.32408394347408e-11,0.013,9.897002589308671e-11,0.013,1.04699421275105e-10,0.013,1.104290070025842e-10,0.013,1.161587673924644e-10,0.013,1.218886890695789e-10,0.013,1.276187605206804e-10,0.013,1.333489717514106e-10,0.013,1.390793140186883e-10,0.013,1.44809779620067e-10
0.01400000000000001,3.710736341583346e-11,0.01400000000000001,4.302197468034063e-11,0.01400000000000001,4.893773012629646e-11,0.01400000000000001,5.485436150919474e-11,0.01400000000000001,6.077168626945057e-11,0.01400000000000001,6.668957520376131e-11,0.01400000000000001,7.260793384174963e-11,0.01400000000000001,7.852669117682459e-11,0.01400000000000001,8.444579256037351e-11,0.01400000000000001,9.03651950607289e-11,0.01400000000000001,9.628486433919157e-11,0.01400000000000001,1.022047724906816e-10,0.01400000000000001,1.081248965162671e-10,0.01400000000000001,1.140452172197632e-10,0.01400000000000001,1.199657183966686e-10,0.01400000000000001,1.25886386226981e-10,0.01400000000000001,1.318072088145638e-10,0.01400000000000001,1.377281758326828e-10,0.01400000000000001,1.43649278247329e-10,0.01400000000000001,1.495705081000278e-10
0.01500000000000001,3.828267445038706e-11,0.01500000000000001,4.439417044437624e-11,0.01500000000000001,5.050684866173435e-11,0.01500000000000001,5.662043194097217e-11,0.01500000000000001,6.273473165373346e-11,0.01500000000000001,6.884961430151143e-11,0.01500000000000001,7.496498227327086e-11,0.01500000000000001,8.108076220182588e-11,0.01500000000000001,8.719689762157629e-11,0.01500000000000001,9.33133441736054e-11,0.01500000000000001,9.943006637740809e-11,0.01500000000000001,1.055470354001018e-10,0.01500000000000001,1.11664227477928e-10,0.01500000000000001,1.177816227765355e-10,0.01500000000000001,1.238992045524972e-10,0.01500000000000001,1.300169585262268e-10,0.01500000000000001,1.361348724060135e-10,0.01500000000000001,1.422529355216397e-10,0.01500000000000001,1.483711385387494e-10,0.01500000000000001,1.544894732340752e-10
0.01600000000000001,3.94970476092883e-11,0.01600000000000001,4.581197186845737e-11,0.01600000000000001,5.212811765494579e-11,0.01600000000000001,5.844519859455652e-11,0.01600000000000001,6.476301978885771e-11,0.01600000000000001,7.108144330170327e-11,0.01600000000000001,7.740036827724273e-11,0.01600000000000001,8.371971890929485e-11,0.01600000000000001,9.003943685514646e-11,0.01600000000000001,9.635947628109754e-11,0.01600000000000001,1.026798005271245e-10,0.01600000000000001,1.090003798016629e-10,0.01600000000000001,1.153211895509025e-10,0.01600000000000001,1.216422092809336e-10,0.01600000000000001,1.279634216916245e-10,0.01600000000000001,1.342848120285272e-10,0.01600000000000001,1.406063675912953e-10,0.01600000000000001,1.469280773547741e-10,0.01600000000000001,1.532499316742694e-10,0.01600000000000001,1.595719220530328e-10
0.01700000000000001,4.075177803059587e-11,0.01700000000000001,4.727689104518188e-11,0.01700000000000001,5.380326619480563e-11,0.01700000000000001,6.033060758703135e-11,0.01700000000000001,6.685871384545556e-11,0.01700000000000001,7.338744244908144e-11,0.01700000000000001,7.991668918960723e-11,0.01700000000000001,8.644637574106959e-11,0.01700000000000001,9.29764418212613e-11,0.01700000000000001,9.950684007285317e-11,0.01700000000000001,1.060375326171436e-10,0.01700000000000001,1.125684886720601e-10,0.01700000000000001,1.190996828675303e-10,0.01700000000000001,1.256310940282702e-10,0.01700000000000001,1.321627042788488e-10,0.01700000000000001,1.38694498374441e-10,0.01700000000000001,1.452264631922309e-10,0.01700000000000001,1.517585873405292e-10,0.01700000000000001,1.582908608539064e-10,0.01700000000000001,1.648232749530254e-10
0.01800000000000001,4.204820363766369e-11,0.01800000000000001,4.87904900195225e-11,0.01800000000000001,5.553408049098637e-11,0.01800000000000001,6.227866932581208e-11,0.01800000000000001,6.902404845474905e-11,0.01800000000000001,7.577007061998122e-11,0.01800000000000001,8.251662814959293e-11,0.01800000000000001,8.926364011415397e-11,0.01800000000000001,9.60110442278014e-11,0.01800000000000001,1.027587915589878e-10,0.01800000000000001,1.095068429697634e-10,0.01800000000000001,1.162551666549598e-10,0.01800000000000001,1.230037364009381e-10,0.01800000000000001,1.297525303284952e-10,0.01800000000000001,1.365015299680109e-10,0.01800000000000001,1.432507195676709e-10,0.01800000000000001,1.500000855684191e-10,0.01800000000000001,1.567496161997816e-10,0.01800000000000001,1.634993011650097e-10,0.01800000000000001,1.702491313927772e-10
0.01900000000000001,4.338770654475127e-11,0.01900000000000001,5.035438242986088e-11,0.01900000000000001,5.732240575051902e-11,0.01900000000000001,6.429146062063441e-11,0.01900000000000001,7.126133205626466e-11,0.01900000000000001,7.823186790562253e-11,0.01900000000000001,8.520295691838603e-11,0.01900000000000001,9.217451547532836e-11,0.01900000000000001,9.914647922044971e-11,0.01900000000000001,1.061187975957736e-10,0.01900000000000001,1.130914301624526e-10,0.01900000000000001,1.200643440581211e-10,0.01900000000000001,1.270375121977414e-10,0.01900000000000001,1.340109119748244e-10,0.01900000000000001,1.409845243056766e-10,0.01900000000000001,1.479583329149131e-10,0.01900000000000001,1.549323237926091e-10,0.01900000000000001,1.619064847769671e-10,0.01900000000000001,1.688808052288938e-10,0.01900000000000001,1.758552757755509e-10
0.02000000000000001,4.477171450849159e-11,0.02000000000000001,5.197023520259668e-11,0.02000000000000001,5.917014811555201e-11,0.02000000000000001,6.637112686461221e-11,0.02000000000000001,7.357294932189056e-11,0.02000000000000001,8.077545827940785e-11,0.02000000000000001,8.797853878981432e-11,0.02000000000000001,9.518210445491352e-11,0.02000000000000001,1.023860887798504e-10,0.02000000000000001,1.095904395263453e-10,0.02000000000000001,1.167951149115481e-10,0.02000000000000001,1.240000809806814e-10,0.02000000000000001,1.312053097485783e-10,0.02000000000000001,1.384107778572614e-10,0.02000000000000001,1.456164655886904e-10,0.02000000000000001,1.528223561263355e-10,0.02000000000000001,1.600284349946565e-10,0.02000000000000001,1.672346896274757e-10,0.02000000000000001,1.744411090320691e-10,0.02000000000000001,1.816476835239119e-10
0.02100000000000001,4.620170242646053e-11,0.02100000000000001,5.363977030172915e-11,0.02100000000000001,6.107927666401389e-11,0.02100000000000001,6.851988428600121e-11,0.02100000000000001,7.596136365901174e-11,0.02100000000000001,8.340355235132397e-11,0.02100000000000001,9.084633159591953e-11,0.02100000000000001,9.828961212355625e-11,0.02100000000000001,1.05733325229589e-10,0.02100000000000001,1.131774169397602e-10,0.02100000000000001,1.206218440825456e-10,0.02100000000000001,1.280665715748031e-10,0.02100000000000001,1.355115705011165e-10,0.02100000000000001,1.429568167271387e-10,0.02100000000000001,1.504022898794721e-10,0.02100000000000001,1.578479725826163e-10,0.02100000000000001,1.652938498798114e-10,0.02100000000000001,1.72739908787189e-10,0.02100000000000001,1.801861379465039e-10,0.02100000000000001,1.876325273513527e-10
0.02200000000000001,4.767919388468162e-11,0.02200000000000001,5.53647665356295e-11,0.02200000000000001,6.30518254756744e-11,0.02200000000000001,7.074002227346319e-11,0.02200000000000001,7.842911979501914e-11,0.02200000000000001,8.611895021163965e-11,0.02200000000000001,9.380939081003495e-11,0.02200000000000001,1.015003493547431e-10,0.02200000000000001,1.091917548581723e-10,0.02200000000000001,1.168835515524241e-10,0.02200000000000001,1.2457569483135e-10,0.02200000000000001,1.322681484458524e-10,0.02200000000000001,1.399608825195647e-10,0.02200000000000001,1.476538721160697e-10,0.02200000000000001,1.553470961848577e-10,0.02200000000000001,1.630405367727912e-10,0.02200000000000001,1.707341784260208e-10,0.02200000000000001,1.784280077291808e-10,0.02200000000000001,1.861220129464592e-10,0.02200000000000001,1.93816183738632e-10
0.02300000000000001,4.920576275537114e-11,0.02300000000000001,5.714706142239182e-11,0.02300000000000001,6.508989576512039e-11,0.02300000000000001,7.30339057770035e-11,0.02300000000000001,8.097884644589384e-11,0.02300000000000001,8.892454436738682e-11,0.02300000000000001,9.687087275111104e-11,0.02300000000000001,1.048177362970323e-10,0.02300000000000001,1.127650616589102e-10,0.02300000000000001,1.207127912158208e-10,0.02300000000000001,1.286608788793704e-10,0.02300000000000001,1.366092871959559e-10,0.02300000000000001,1.445579852963739e-10,0.02300000000000001,1.525069474154531e-10,0.02300000000000001,1.604561518031194e-10,0.02300000000000001,1.684055799095867e-10,0.02300000000000001,1.763552157673803e-10,0.02300000000000001,1.843050455151716e-10,0.02300000000000001,1.922550570270758e-10,0.02300000000000001,2.002052396203589e-10
0.02400000000000001,5.078303484672707e-11,0.02400000000000001,5.898855311594227e-11,0.02400000000000001,6.719565808439441e-11,0.02400000000000001,7.540397778671947e-11,0.02400000000000001,8.361325907168486e-11,0.02400000000000001,9.182332277430403e-11,0.02400000000000001,1.000340378920686e-10,0.02400000000000001,1.082453059588191e-10,0.02400000000000001,1.164570511914515e-10,0.02400000000000001,1.24669214054654e-10,0.02400000000000001,1.328817469286493e-10,0.02400000000000001,1.41094611115359e-10,0.02400000000000001,1.49307774719834e-10,0.02400000000000001,1.575212111207105e-10,0.02400000000000001,1.657348978451477e-10,0.02400000000000001,1.739488157269289e-10,0.02400000000000001,1.821629482678781e-10,0.02400000000000001,1.903772811460169e-10,0.02400000000000001,1.985918018325192e-10,0.02400000000000001,2.068064992894427e-10
0.02500000000000002,5.241268960627723e-11,0.02500000000000002,6.0891202394717e-11,0.02500000000000002,6.93713545969014e-11,0.02500000000000002,7.785276189246534e-11,0.02500000000000002,8.63351627213795e-11,0.02500000000000002,9.48183719672035e-11,0.02500000000000002,1.03302254275723e-10,0.02500000000000002,1.117867079098114e-10,0.02500000000000002,1.202716545687574e-10,0.02500000000000002,1.287570327393217e-10,0.02500000000000002,1.372427932196628e-10,0.02500000000000002,1.457288960259231e-10,0.02500000000000002,1.542153082033986e-10,0.02500000000000002,1.627020022462642e-10,0.02500000000000002,1.711889549348632e-10,0.02500000000000002,1.796761464661414e-10,0.02500000000000002,1.881635597936638e-10,0.02500000000000002,1.966511801194937e-10,0.02500000000000002,2.051389944982952e-10,0.02500000000000002,2.136269915255253e-10
0.02600000000000002,5.409646187957267e-11,0.02600000000000002,6.285703471506518e-11,0.02600000000000002,7.161930142558459e-11,0.02600000000000002,8.038286492642145e-11,0.02600000000000002,8.914745497029638e-11,0.02600000000000002,9.791288029218235e-11,0.02600000000000002,1.066790010419206e-10,0.02600000000000002,1.154457121030135e-10,0.02600000000000002,1.242129325737467e-10,0.02600000000000002,1.329805988973924e-10,0.02600000000000002,1.41748660237685e-10,0.02600000000000002,1.505170752823506e-10,0.02600000000000002,1.592858099818411e-10,0.02600000000000002,1.680548359165195e-10,0.02600000000000002,1.768241290951471e-10,0.02600000000000002,1.855936690566499e-10,0.02600000000000002,1.943634381882652e-10,0.02600000000000002,2.031334212003346e-10,0.02600000000000002,2.119036047172435e-10,0.02600000000000002,2.206739769554782e-10
