;Version, 1, 0
;vout_dc_sweep (VCTRL=0.02),;vout_dc_sweep (VCTRL=0.04),;vout_dc_sweep (VCTRL=0.06),;vout_dc_sweep (VCTRL=0.08),;vout_dc_sweep (VCTRL=0.1),;vout_dc_sweep (VCTRL=0.12),;vout_dc_sweep (VCTRL=0.14),;vout_dc_sweep (VCTRL=0.16),;vout_dc_sweep (VCTRL=0.18),;vout_dc_sweep (VCTRL=0.2),;vout_dc_sweep (VCTRL=0.22),;vout_dc_sweep (VCTRL=0.24),;vout_dc_sweep (VCTRL=0.26),;vout_dc_sweep (VCTRL=0.28),;vout_dc_sweep (VCTRL=0.3)
;X, Y,;X, Y,;X, Y,;X, Y,;X, Y,;X, Y,;X, Y,;X, Y,;X, Y,;X, Y,;X, Y,;X, Y,;X, Y,;X, Y,;X, Y
;Re, Re,;Re, Re,;Re, Re,;Re, Re,;Re, Re,;Re, Re,;Re, Re,;Re, Re,;Re, Re,;Re, Re,;Re, Re,;Re, Re,;Re, Re,;Re, Re,;Re, Re
;vin, V,;vin, V,;vin, V,;vin, V,;vin, V,;vin, V,;vin, V,;vin, V,;vin, V,;vin, V,;vin, V,;vin, V,;vin, V,;vin, V,;vin, V
;xunit, V,;xunit, V,;xunit, V,;xunit, V,;xunit, V,;xunit, V,;xunit, V,;xunit, V,;xunit, V,;xunit, V,;xunit, V,;xunit, V,;xunit, V,;xunit, V,;xunit, V
-0.4,-0.1317106334443763,-0.4,-0.2623515060190063,-0.4,-0.3907590861656871,-0.4,-0.515612884142587,-0.4,-0.6353625118169385,-0.4,-0.7481720295276869,-0.4,-0.8519009334171447,-0.4,-0.9442662415264276,-0.4,-1.023147231804376,-0.4,-1.087173088363877,-0.4,-1.136288393573112,-0.4,-1.171954915058829,-0.4,-1.196661821049056,-0.4,-1.213373869678829,-0.4,-1.224999480497814
-0.399,-0.1317075617392984,-0.399,-0.262345618627946,-0.399,-0.390750349534613,-0.399,-0.5156009464278429,-0.399,-0.6353467899629711,-0.399,-0.7481481939953895,-0.399,-0.8518751592788275,-0.399,-0.9442339632884972,-0.399,-1.02310751802753,-0.399,-1.087122725856265,-0.399,-1.136232553140291,-0.399,-1.171891847707836,-0.399,-1.196593003881489,-0.399,-1.213299199076352,-0.399,-1.224919602749305
-0.398,-0.1317044510437486,-0.398,-0.2623396662456146,-0.398,-0.3907415287522105,-0.398,-0.5155889050098972,-0.398,-0.6353309448144124,-0.398,-0.7481277637758901,-0.398,-0.8518492035810552,-0.398,-0.9442014662407332,-0.398,-1.023067543175402,-0.398,-1.087074652483035,-0.398,-1.136176380680662,-0.398,-1.171828384728169,-0.398,-1.196523757366566,-0.398,-1.213224098655513,-0.398,-1.224839255555502
-0.397,-0.1317013003472198,-0.397,-0.2623336467742354,-0.397,-0.3907326212238231,-0.397,-0.5155767578093391,-0.397,-0.6353149722950799,-0.397,-0.7481071803959517,-0.397,-0.851823063442444,-0.397,-0.9441687473414055,-0.397,-1.02302730371983,-0.397,-1.087026268044585,-0.397,-1.136119849894078,-0.397,-1.171764520585378,-0.397,-1.196454076809539,-0.397,-1.213148541653444,-0.397,-1.22475842828824
-0.396,-0.1316981086126032,-0.396,-0.2623275585751934,-0.396,-0.3907236250143684,-0.396,-0.5155645026905847,-0.396,-0.635298870074372,-0.396,-0.7480864413173041,-0.396,-0.8517967360796814,-0.396,-0.9441358035114152,-0.396,-1.022986796236681,-0.396,-1.086977568780525,-0.396,-1.136062956710822,-0.396,-1.171700250935262,-0.396,-1.196383957678846,-0.396,-1.213072523558592,-0.396,-1.22467711646403
-0.395,-0.1316948747710096,-0.395,-0.2623213999593055,-0.395,-0.3907145381300843,-0.395,-0.5155521374553262,-0.395,-0.635282635755922,-0.395,-0.7480655439332119,-0.395,-0.851770218638314,-0.395,-0.9441026315980438,-0.395,-1.022946017224669,-0.395,-1.086928550848881,-0.395,-1.136005696977227,-0.395,-1.17163557134824,-0.395,-1.196313395355962,-0.395,-1.212996039776036,-0.395,-1.224595315525382
-0.394,-0.1316915977208368,-0.394,-0.2623151691852648,-0.394,-0.3907053585167,-0.394,-0.515539659840569,-0.394,-0.6352662668755611,-0.394,-0.7480444855663834,-0.394,-0.8517435081905956,-0.394,-0.9440692283727568,-0.394,-1.022904963103194,-0.394,-1.086879210323863,-0.394,-1.135948066453319,-0.394,-1.171570477306973,-0.394,-1.196242385132831,-0.394,-1.212919085624738,-0.394,-1.224513020838472
-0.393,-0.1316882763268057,-0.393,-0.2623088644580458,-0.393,-0.39069608405755,-0.393,-0.5155270675166291,-0.393,-0.6352497608992239,-0.393,-0.7480232634667995,-0.393,-0.8517166017332614,-0.393,-0.9440355905289368,-0.393,-1.022863630210118,-0.393,-1.086829543193588,-0.393,-1.135890060810449,-0.393,-1.171504964203918,-0.393,-1.196170922209215,-0.393,-1.212841656334679,-0.393,-1.224430227690708
-0.392,-0.1316849094189791,-0.392,-0.2623024839272625,-0.392,-0.3906867125716409,-0.392,-0.5155143580850593,-0.392,-0.6352331152207865,-0.392,-0.7480018748095028,-0.392,-0.8516894961852446,-0.392,-0.9440017146795557,-0.392,-1.022822014799477,-0.392,-1.086779545357746,-0.392,-1.135831675628837,-0.392,-1.171439027338829,-0.392,-1.196099001689987,-0.392,-1.212763747043886,-0.392,-1.224346931288162
-0.391,-0.131681495791752,-0.391,-0.26229602568548,-0.391,-0.3906772418116597,-0.391,-0.5155015290765218,-0.391,-0.6352163271598559,-0.391,-0.7479803166923042,-0.391,-0.8516621883853233,-0.391,-0.9439675973547678,-0.391,-1.022780113039113,-0.391,-1.086729212625202,-0.391,-1.135772906395083,-0.391,-1.17137266191619,-0.391,-1.196026618582343,-0.391,-1.212685352795342,-0.391,-1.224263126752896
-0.39,-0.1316780342028185,-0.39,-0.2622894877664905,-0.39,-0.3906676694619249,-0.39,-0.5154885779486004,-0.39,-0.6351993939594791,-0.39,-0.7479585861334286,-0.39,-0.8516346750896996,-0.39,-0.9439332349994363,-0.39,-1.022737921008242,-0.39,-1.086678540711532,-0.39,-1.135713748499596,-0.39,-1.171305863042591,-0.39,-1.19595376779295,-0.39,-1.212606468533775,-0.39,-1.224178809120147
-0.389,-0.1316745233721162,-0.389,-0.2622828681435303,-0.389,-0.3906579931362866,-0.389,-0.5154755020835462,-0.389,-0.6351823128036634,-0.389,-0.7479366800691007,-0.389,-0.8516069529695065,-0.389,-0.9438986239705862,-0.389,-1.022695434694931,-0.389,-1.086627525236499,-0.389,-1.135654197233971,-0.389,-1.171238625724044,-0.389,-1.195880444125031,-0.389,-1.212527089102333,-0.389,-1.224093973335377
-0.388,-0.1316709619807404,-0.388,-0.2622761647274612,-0.388,-0.3906482103759574,-0.388,-0.5154622987859695,-0.388,-0.6351650808586996,-0.388,-0.7479145953510425,-0.388,-0.851579018608246,-0.388,-0.9438637605347771,-0.388,-1.022652649993514,-0.388,-1.086576161721449,-0.388,-1.135594247788297,-0.388,-1.171170944863235,-0.388,-1.195806642275378,-0.388,-1.212447209239137,-0.388,-1.224008614251182
-0.387,-0.1316673486698412,-0.387,-0.2622693753648975,-0.387,-0.390638318647299,-0.387,-0.5154489652804524,-0.387,-0.6351476951379799,-0.387,-0.7478923287439235,-0.387,-0.8515508684991488,-0.387,-0.9438286408654049,-0.387,-1.02260956270191,-0.387,-1.086524445586647,-0.387,-1.135533895248398,-0.387,-1.171102815256714,-0.387,-1.195732356831307,-0.387,-1.212366823573707,-0.387,-1.223922726624051
-0.386,-0.1316636820394836,-0.386,-0.2622624978362851,-0.386,-0.3906283153395311,-0.386,-0.5154354987091067,-0.386,-0.6351301525587321,-0.386,-0.7478698769227183,-0.386,-0.8515224990424636,-0.386,-0.9437932610399196,-0.386,-1.022566168518876,-0.386,-1.086472372148535,-0.386,-1.135473134593011,-0.386,-1.171034231592029,-0.386,-1.195657582267549,-0.386,-1.212285926623268,-0.386,-1.223836305110962
-0.385,-0.1316599606474929,-0.385,-0.2622555298539366,-0.385,-0.3906181977623904,-0.385,-0.515421896129059,-0.385,-0.6351124499491286,-0.385,-0.7478472364699977,-0.385,-0.851493906537557,-0.385,-0.9437576170369648,-0.385,-1.022522463041159,-0.385,-1.086419936616906,-0.385,-1.13541196069089,-0.385,-1.17096518844478,-0.385,-1.195582312943086,-0.385,-1.212204512788948,-0.385,-1.22374934426582
-0.384,-0.1316561830082654,-0.384,-0.2622484690600062,-0.384,-0.3906079631437236,-0.384,-0.5154081545098679,-0.384,-0.6350945840455674,-0.384,-0.7478244038731454,-0.384,-0.8514650871947683,-0.384,-0.9437217047334323,-0.384,-1.022478441760565,-0.384,-1.08636713409201,-0.384,-1.13535036829784,-0.384,-1.170895680275632,-0.384,-1.195506543097922,-0.384,-1.212122576351829,-0.384,-1.223661838535716
-0.383,-0.1316523475915563,-0.383,-0.2622413130244245,-0.383,-0.3905976086270118,-0.383,-0.5153942707308702,-0.383,-0.635076551489887,-0.383,-0.7478013755214935,-0.383,-0.8514360371192221,-0.383,-0.9436855199014368,-0.383,-1.022434100060945,-0.383,-1.086313959561573,-0.383,-1.135288352053678,-0.383,-1.170825701427243,-0.383,-1.195430266849813,-0.383,-1.212040111468916,-0.383,-1.223573782257013
-0.382,-0.131648452821244,-0.382,-0.2622340592427714,-0.382,-0.3905871312688323,-0.382,-0.5153802415784534,-0.382,-0.6350583488264998,-0.382,-0.7477781477033816,-0.382,-0.8514067523105165,-0.382,-0.9436490582051952,-0.382,-1.022389433215079,-0.382,-1.086260407897727,-0.382,-1.135225906479115,-0.382,-1.17075524612114,-0.382,-1.195353478190929,-0.382,-1.211957112168954,-0.382,-1.223485169651237
-0.381,-0.1316444970740587,-0.381,-0.2622267051341081,-0.381,-0.3905765280362552,-0.381,-0.5153660637432588,-0.381,-0.6350399724994507,-0.381,-0.7477547166031283,-0.381,-0.8513772286605071,-0.381,-0.9436123151978247,-0.381,-1.022344436381473,-0.381,-1.086206473853859,-0.381,-1.135163025972564,-0.381,-1.170684308454518,-0.381,-1.195276170984492,-0.381,-1.211873572348167,-0.381,-1.223395994820783
-0.38,-0.131640478678291,-0.38,-0.2622192480387404,-0.38,-0.3905657958041673,-0.38,-0.5153517338173028,-0.38,-0.635021418849388,-0.38,-0.7477310782979284,-0.38,-0.8513474619501,-0.38,-0.9435752863180535,-0.38,-1.022299104601052,-0.38,-1.086152152061358,-0.38,-1.135099704806865,-0.38,-1.17061288239697,-0.38,-1.195198338961336,-0.38,-1.211789485765871,-0.38,-1.223306251744411
-0.379,-0.1316363959124724,-0.379,-0.2622116852159442,-0.379,-0.3905549313525298,-0.379,-0.5153372482910293,-0.379,-0.6350026841104552,-0.379,-0.7477072287546593,-0.379,-0.8513174478459571,-0.379,-0.9435379668868233,-0.379,-1.022253432793765,-0.379,-1.086097437026279,-0.379,-1.135035937125925,-0.379,-1.170540961787163,-0.379,-1.195119975716457,-0.379,-1.211704846039999,-0.379,-1.223215934272537
-0.378,-0.1316322470040254,-0.378,-0.262204013841622,-0.378,-0.3905439313635639,-0.378,-0.5153226035502785,-0.378,-0.634983764407103,-0.378,-0.7476831638266043,-0.378,-0.8512871818971154,-0.378,-0.9435003521038163,-0.378,-1.022207415755073,-0.378,-1.086042323125904,-0.378,-1.134971716941269,-0.378,-1.170468540329412,-0.378,-1.195041074705494,-0.378,-1.211619646642526,-0.378,-1.22312503612231
-0.377,-0.1316280301278876,-0.377,-0.2621962310059143,-0.377,-0.3905327924188691,-0.377,-0.5153077958731791,-0.377,-0.6349646557508032,-0.377,-0.7476588792500822,-0.377,-0.8512566595315118,-0.377,-0.9434624370438737,-0.377,-1.022161048152349,-0.377,-1.085986804605196,-0.377,-1.134907038128511,-0.377,-1.170395611590211,-0.377,-1.194961629241192,-0.377,-1.211533880894825,-0.377,-1.223033550872467
-0.376,-0.1316237434051084,-0.376,-0.2621883337107496,-0.376,-0.3905215109964548,-0.376,-0.5152928214269585,-0.376,-0.6349453540366901,-0.376,-0.747634370640997,-0.376,-0.8512258760524125,-0.376,-0.9434242166533218,-0.376,-1.022114324521162,-0.376,-1.085930875573162,-0.376,-1.134841894423718,-0.376,-1.170322168994655,-0.376,-1.194881632489813,-0.376,-1.211447541962932,-0.376,-1.222941471957963
-0.375,-0.1316193849014182,-0.375,-0.2621803188673362,-0.375,-0.3905100834677175,-0.375,-0.515277676264671,-0.375,-0.6349258550400988,-0.375,-0.7476096334912852,-0.375,-0.8511948266347453,-0.375,-0.9433856857461872,-0.375,-1.022067239261456,-0.375,-1.085874529999095,-0.375,-1.134776279419688,-0.375,-1.170248205822807,-0.375,-1.194801077467523,-0.375,-1.211360622852767,-0.375,-1.222848792664374
-0.374,-0.1316149526257662,-0.374,-0.2621721832936015,-0.374,-0.3904985060943285,-0.374,-0.5152623563218413,-0.374,-0.6349061544130191,-0.374,-0.7475846631652743,-0.374,-0.8511635063213437,-0.374,-0.9433468390003253,-0.374,-1.022019786633622,-0.374,-1.085817761708716,-0.374,-1.134710186562124,-0.374,-1.170173715205971,-0.374,-1.19471995703673,-0.374,-1.211273116405288,-0.374,-1.222755506122052
-0.373,-0.1316104445288349,-0.373,-0.2621639237115692,-0.373,-0.3904867750250458,-0.373,-0.5152468574130267,-0.373,-0.6348862476804574,-0.373,-0.7475594548959504,-0.373,-0.8511319100190745,-0.373,-0.9433076709534327,-0.373,-1.021971960754451,-0.373,-1.085760564380191,-0.373,-1.134643609145702,-0.373,-1.170098690122868,-0.373,-1.194638263902402,-0.373,-1.211185015291632,-0.373,-1.222661605300067
-0.372,-0.1316058585015256,-0.372,-0.2621555367446786,-0.372,-0.3904748862924581,-0.372,-0.5152311752282855,-0.372,-0.6348661302367011,-0.372,-0.7475340037811217,-0.372,-0.8511000324948788,-0.372,-0.9432681759989511,-0.372,-1.021923755592973,-0.372,-1.085702931540041,-0.372,-1.134576540310035,-0.372,-1.170023123395739,-0.372,-1.194555990608337,-0.372,-1.21109631200821,-0.372,-1.222567082999893
-0.371,-0.1316011923734122,-0.371,-0.2621470189150445,-0.371,-0.3904628358096367,-0.371,-0.5152153053295673,-0.371,-0.6348457973414821,-0.371,-0.7475083047794845,-0.371,-0.8510678683717017,-0.371,-0.9432283483818719,-0.371,-1.021875164966188,-0.371,-1.085644856558925,-0.371,-1.134508973035525,-0.371,-1.169947007686337,-0.371,-1.194473129533399,-0.371,-1.21100699887181,-0.371,-1.222471931848869
-0.37,-0.131596443911171,-0.37,-0.2621383666406594,-0.37,-0.3904506193667185,-0.37,-0.5151992431470019,-0.37,-0.6348252441160542,-0.37,-0.7474823527065939,-0.37,-0.8510354121243177,-0.37,-0.9431881821944211,-0.37,-1.02182618253466,-0.37,-1.085586332647301,-0.37,-1.134440900139092,-0.37,-1.169870335491828,-0.37,-1.194389672887712,-0.37,-1.210917068014711,-0.37,-1.222376144293422
-0.369,-0.131591610816981,-0.369,-0.2621295762325337,-0.369,-0.3904382326274023,-0.369,-0.5151829839751093,-0.369,-0.6348044655391586,-0.369,-0.7474561422307285,-0.369,-0.8510026580750487,-0.369,-0.9431476713716335,-0.369,-1.021776801798009,-0.369,-1.085527352850956,-0.369,-1.134372314269798,-0.369,-1.169793099140579,-0.369,-1.194305612708817,-0.369,-1.210826511379812,-0.369,-1.222279712592068
-0.368,-0.1315866907268999,-0.368,-0.262120643891772,-0.368,-0.3904256711253657,-0.368,-0.5151665229689086,-0.368,-0.6347834564428906,-0.368,-0.7474296678686495,-0.368,-0.850969600389373,-0.368,-0.9431068096868146,-0.368,-1.021727016090266,-0.368,-1.085467910046416,-0.368,-1.134303207904331,-0.368,-1.169715290787846,-0.368,-1.194220940857772,-0.368,-1.210735320715815,-0.368,-1.222182628808188
-0.367,-0.1315816812092037,-0.367,-0.2621115657065962,-0.367,-0.3904129302605961,-0.367,-0.5151498551399393,-0.367,-0.6347622115084708,-0.367,-0.7474029239812578,-0.367,-0.8509362330714235,-0.367,-0.9430655907468771,-0.367,-1.021676818575101,-0.367,-1.085407996936206,-0.367,-1.13423357334237,-0.367,-1.169636902411336,-0.367,-1.194135649015196,-0.367,-1.210643487572459,-0.367,-1.222084884802597
-0.366,-0.1315765797627106,-0.366,-0.2621023376493006,-0.366,-0.3904000052956411,-0.366,-0.5151329753521864,-0.366,-0.6347407252618971,-0.366,-0.7473759047691441,-0.366,-0.8509025499593704,-0.366,-0.9430240079875689,-0.366,-1.02162620224093,-0.366,-1.085347606043995,-0.366,-1.134163402701816,-0.366,-1.169557925806653,-0.366,-1.194049728677268,-0.366,-1.210551003295838,-0.366,-1.22198647222592
-0.365,-0.1315713838150663,-0.365,-0.2620929555731468,-0.365,-0.3903868913517734,-0.365,-0.5151158783179042,-0.365,-0.6347189920695034,-0.365,-0.747348604268025,-0.365,-0.850868544720688,-0.365,-0.9429820546685685,-0.365,-1.021575159895888,-0.365,-1.085286729709573,-0.365,-1.134092687913884,-0.365,-1.16947835258262,-0.365,-1.193963171151634,-0.365,-1.21045785902379,-0.365,-1.221887382510786
-0.364,-0.1315660907210121,-0.364,-0.2620834152092018,-0.364,-0.3903735834050679,-0.364,-0.5150985585933548,-0.364,-0.6346970061333983,-0.364,-0.7473210163440765,-0.364,-0.850834210847312,-0.364,-0.9429397238684613,-0.364,-1.021523684162666,-0.364,-1.085225360083717,-0.364,-1.134021420718059,-0.364,-1.169398174156464,-0.364,-1.193875967553255,-0.364,-1.210364045681415,-0.364,-1.221787606863862
-0.363,-0.1315606977606181,-0.363,-0.2620737121631029,-0.363,-0.3903600762823942,-0.363,-0.5150810105744337,-0.363,-0.6346747614868026,-0.363,-0.7472931346891455,-0.363,-0.8507995416506682,-0.363,-0.9428970084795926,-0.363,-1.021471767473214,-0.363,-1.085163489122881,-0.363,-1.1339495926569,-0.363,-1.169317381748861,-0.363,-1.193788108800162,-0.363,-1.210269553976679,-0.363,-1.221687136257763
-0.362,-0.1315552021374982,-0.362,-0.2620638419117738,-0.362,-0.3903463646573224,-0.362,-0.5150632284922062,-0.362,-0.6346522519892691,-0.362,-0.747264952815859,-0.362,-0.8507645302565858,-0.362,-0.9428539012027877,-0.362,-1.021419402063308,-0.362,-1.085101108583763,-0.362,-1.133877195070694,-0.362,-1.169235966378841,-0.362,-1.193699585609107,-0.362,-1.210174374396164,-0.362,-1.221585961422841
-0.361,-0.1315496009769892,-0.361,-0.2620537998000663,-0.361,-0.3903324430459356,-0.361,-0.5150452064083435,-0.361,-0.6346294713217895,-0.361,-0.7472364640526062,-0.361,-0.850729169600087,-0.361,-0.9428103945419415,-0.361,-1.021366579966975,-0.361,-1.0850382100177,-0.361,-1.13380421909197,-0.361,-1.169153918858546,-0.361,-1.193610388491109,-0.361,-1.21007849720093,-0.361,-1.221484072838926
-0.36,-0.1315438913243161,-0.36,-0.2620435810373516,-0.36,-0.3903183058025637,-0.36,-0.5150269382104438,-0.36,-0.634606412981791,-0.36,-0.7472076615384151,-0.36,-0.8506934524200525,-0.36,-0.9427664807984809,-0.36,-1.021313293010778,-0.36,-1.084974784764918,-0.36,-1.133730655639833,-0.36,-1.169071229787814,-0.36,-1.193520507746881,-0.36,-1.209981912422521,-0.36,-1.221381460726999
-0.359,-0.1315380701427176,-0.359,-0.262033180694037,-0.359,-0.3903039471154151,-0.359,-0.5150084176072698,-0.359,-0.6345830702780038,-0.359,-0.7471785382176998,-0.359,-0.8506573712537642,-0.359,-0.9427221520656922,-0.359,-1.021259532807951,-0.359,-1.084910823948633,-0.359,-1.133656495414157,-0.359,-1.16898788954862,-0.359,-1.193429933462113,-0.359,-1.209884609859087,-0.359,-1.221278115040904
-0.358,-0.1315321343115614,-0.358,-0.26202259369803,-0.358,-0.390289361002129,-0.358,-0.5149896381238646,-0.358,-0.634559436325227,-0.358,-0.7471490868348962,-0.358,-0.8506209184313098,-0.358,-0.9426774002229006,-0.358,-1.021205290752394,-0.358,-1.084846318468967,-0.358,-1.133581728889595,-0.358,-1.168903888299341,-0.358,-1.193338655502612,-0.358,-1.209786579071643,-0.358,-1.221174025459089
-0.357,-0.1315260806244254,-0.357,-0.2620118148311366,-0.357,-0.3902745413052318,-0.357,-0.5149705930965779,-0.357,-0.6345355040389584,-0.357,-0.7471192999289731,-0.357,-0.850584086069872,-0.357,-0.9426322169295319,-0.357,-1.021150558012512,-0.357,-1.084781258996729,-0.357,-1.133506346309434,-0.357,-1.168819215968838,-0.357,-1.193246663509281,-0.357,-1.209687809380433,-0.357,-1.221069181376457
-0.356,-0.1315199057871597,-0.356,-0.2620008387253958,-0.356,-0.3902594816875016,-0.356,-0.5149512756679691,-0.356,-0.6345112661299138,-0.356,-0.7470891698027827,-0.356,-0.8505468660678779,-0.356,-0.9425865936190148,-0.356,-1.021095325524914,-0.356,-1.08471563596701,-0.356,-1.133430337679261,-0.356,-1.168733862250372,-0.356,-1.193153946892915,-0.356,-1.209588289861396,-0.356,-1.220963571896372
-0.355,-0.1315136064159224,-0.355,-0.261989659859361,-0.355,-0.390244175627245,-0.355,-0.514931678781624,-0.355,-0.6344867150984146,-0.355,-0.7470586887843605,-0.355,-0.8505092500990172,-0.355,-0.9425405214925542,-0.355,-1.02103958398794,-0.355,-1.084649439572624,-0.355,-1.133353692760461,-0.355,-1.168647816595321,-0.355,-1.193060494828818,-0.355,-1.209488009342711,-0.355,-1.220857185822861
-0.354,-0.1315071790351963,-0.354,-0.2619782725543072,-0.354,-0.3902286164134781,-0.354,-0.5149117951768467,-0.354,-0.6344618432604381,-0.354,-0.747027848873504,-0.354,-0.8504712296061256,-0.354,-0.9424939915127515,-0.354,-1.020983323855054,-0.354,-1.084582659757366,-0.354,-1.133276401063533,-0.354,-1.168561068206714,-0.354,-1.192966296251201,-0.354,-1.209386956401389,-0.354,-1.220750011653096
-0.353,-0.131500620075778,-0.353,-0.2619666709703903,-0.353,-0.3902127971410172,-0.353,-0.5148916173832494,-0.353,-0.6344366429272499,-0.353,-0.7469966417210824,-0.353,-0.850432795794936,-0.353,-0.9424469943970842,-0.353,-1.020926535328063,-0.353,-1.084515286209107,-0.353,-1.133198451841221,-0.353,-1.168473606032566,-0.353,-1.192871339847382,-0.353,-1.209285119359895,-0.353,-1.220642037570184
