;Version, 1, 0
;tranOut (VCTRL=0.01),;tranOut (VCTRL=0.02),;tranOut (VCTRL=0.03),;tranOut (VCTRL=0.04),;tranOut (VCTRL=0.05),;tranOut (VCTRL=0.06),;tranOut (VCTRL=0.07),;tranOut (VCTRL=0.08),;tranOut (VCTRL=0.09),;tranOut (VCTRL=0.1),;tranIn (VCTRL=0.01)
;X, Y,;X, Y,;X, Y,;X, Y,;X, Y,;X, Y,;X, Y,;X, Y,;X, Y,;X, Y,;X, Y
;Re, Re,;Re, Re,;Re, Re,;Re, Re,;Re, Re,;Re, Re,;Re, Re,;Re, Re,;Re, Re,;Re, Re,;Re, Re
;time, V,;time, V,;time, V,;time, V,;time, V,;time, V,;time, V,;time, V,;time, V,;time, V,;time, I
;s, V,;s, V,;s, V,;s, V,;s, V,;s, V,;s, V,;s, V,;s, V,;s, V,;s, A
0,-9.71445146547012e-17,0,-1.804112415015879e-16,0,2.359223927328458e-16,0,1.110223024625157e-16,0,1.110223024625157e-16,0,1.013078509970455e-15,0,3.885780586188048e-16,0,8.049116928532385e-16,0,-1.387778780781446e-16,0,8.049116928532385e-16,0,0
1e-11,1.376922324690388e-05,1e-11,2.830194674584285e-05,1e-11,4.43038512474847e-05,1e-11,6.218369013982761e-05,1e-11,8.149049516018025e-05,1e-11,0.0001003669036011567,1e-11,0.0001161885418279052,1e-11,0.0001274530630223369,1e-11,0.0001345668104913295,1e-11,0.0001388388773345545,1e-11,6.279051952931338e-07
2.017264612427895e-11,6.80986523778071e-05,2.01726371089161e-11,0.000139997333075903,2.017261817129079e-11,0.0002191928626861933,2.01725868107183e-11,0.0003076710077947048,2.017255036079071e-11,0.0004030990311241212,1.690189317067361e-11,0.0002752846879302551,1.657011288433033e-11,0.0002998473961783044,1.639959703454257e-11,0.0003187818077148991,1.630574452183762e-11,0.0003308031124161087,1.891816491224538e-11,0.0005484824656398907,2.017264612427895e-11,1.264093734870858e-06
3.168388157855997e-11,0.0001799713854682694,3.168382412935285e-11,0.0003700142693987551,3.167460317749379e-11,0.000578951076032036,3.137786822808991e-11,0.000793603221667688,3.049833849683242e-11,0.0009682061899739525,2.78524474519173e-11,0.0008213978274225625,2.735717277716848e-11,0.0008938811681371839,2.707815932292135e-11,0.0009468410091947876,2.692790962768481e-11,0.0009804204023177998,2.792353639008671e-11,0.001243935581798708,3.168388157855997e-11,1.977633697459732e-06
4.482969892736347e-11,0.0004169788160271609,4.482649609475357e-11,0.0008571942029067248,4.480992427546483e-11,0.001340946698169351,4.443869782542826e-11,0.001840737170665907,4.264583097634863e-11,0.002163269465742773,3.898937711327986e-11,0.001935196386588511,3.793380161635497e-11,0.0020563910026066,3.732279350192951e-11,0.002143437588768379,3.698936873268614e-11,0.002198294486551067,4.083927779256193e-11,0.003144685120120311,4.482969892736347e-11,2.779634003940455e-06
5.937918173263664e-11,0.0008433483048595897,5.935899005733993e-11,0.001732565408396197,5.930987922930456e-11,0.002707140214586831,5.790045090339259e-11,0.003575099425963152,5.462992372850497e-11,0.004032204322515304,4.897850027125887e-11,0.00354735008882695,4.722277692618756e-11,0.003688524835864571,4.62149827590635e-11,0.003792700903984869,4.56678845128918e-11,0.003859312305567492,5.083707802686648e-11,0.005510775262968684,5.937918173263664e-11,3.644949670542528e-06
7.437856461273117e-11,0.00146042808189932,7.426740119967492e-11,0.002992205419142344,7.406204545775995e-11,0.004653882232745252,7.228412326932898e-11,0.006161288687022135,6.83832953419168e-11,0.00704486697654623,6.213618084244278e-11,0.006635453243601402,6.021279862748721e-11,0.007033976412553419,5.913300491622605e-11,0.007320769681644204,5.854801073121345e-11,0.007497351986221118,6.331486053374131e-11,0.009636019470210019,7.437856461273117e-11,4.505080293918339e-06
9.07063247696772e-11,0.002300485923333664,8.963705329428932e-11,0.004609497184657543,8.765079523099999e-11,0.006868921045044246,8.458280655784812e-11,0.008895212665311056,7.969834398439745e-11,0.01014936419226137,7.267805812579231e-11,0.009853946734288591,7.037882103919854e-11,0.01047668100623332,6.908703393560312e-11,0.01091830917387436,6.837786889478478e-11,0.01118336728638714,7.304057280725204e-11,0.01369633944291929,9.07063247696772e-11,5.395686074892513e-06
1.06211970881934e-10,0.003212540720044857,1.050393603645903e-10,0.006459805658071541,1.020416718111834e-10,0.009533969092591535,9.718825748955878e-11,0.01207624931848662,9.085425276965871e-11,0.01365266789977657,8.247007815459859e-11,0.01334781152620035,7.960958139754682e-11,0.01414667203029177,7.800444967723344e-11,0.01471136592899999,7.712900148993588e-11,0.0150500228418651,8.206050520398136e-11,0.01802622012216339,1.06211970881934e-10,6.18906284872778e-06
1.222542487156706e-10,0.004220977289930636,1.210447090818569e-10,0.008520019982813556,1.178711070541103e-10,0.01268827267016481,1.120146697987532e-10,0.01612589274831044,1.034694744935192e-10,0.01798160372960685,9.310144155301464e-11,0.01756060492037508,8.948164177497689e-11,0.01852209364695163,8.747124307657242e-11,0.01920985200196719,8.639219749412654e-11,0.01962808153058135,9.182711106585866e-11,0.02318846157963031,1.222542487156706e-10,6.948031079857635e-06
1.398906417463993e-10,0.005350928719404069,1.385895520486989e-10,0.01082716823699811,1.351091141218838e-10,0.01621847613790244,1.270781223154237e-10,0.0204006185779794,1.165110574162567e-10,0.02269430372385321,1.045948360646479e-10,0.02244590729655069,1.009471488228937e-10,0.02400876325450053,9.832476812978545e-11,0.02479505533037311,9.695012514170801e-11,0.02528878955679556,1.034330333146926e-10,0.02975628529919055,1.398906417463993e-10,7.700750753117396e-06
1.598735412264944e-10,0.006601535479277998,1.584686708038279e-10,0.01338584499237447,1.534125584073188e-10,0.01991523854229611,1.42597923917945e-10,0.02480891113180236,1.298206891915134e-10,0.02759127430325832,1.161913639820774e-10,0.02756816938724213,1.119260310847032e-10,0.02950822250899741,1.088114027748191e-10,0.03046710522673611,1.072130673714437e-10,0.03108656399737654,1.140913283432366e-10,0.03603158606587162,1.598735412264944e-10,8.439019103892469e-06
1.829910810422406e-10,0.007949857766195931,1.814067742365226e-10,0.01614303414864168,1.734320681875885e-10,0.02374755056800223,1.594594049510845e-10,0.02944831790367358,1.440132036152194e-10,0.0327577955047107,1.282855603854763e-10,0.03296903140981038,1.230827021373048e-10,0.03519367960916799,1.194613978708938e-10,0.03635730298641193,1.176418806457642e-10,0.03712927029101186,1.248541892441671e-10,0.04245259028854229,1.829910810422406e-10,9.126686854951416e-06
2.101069910367395e-10,0.009334687295971963,2.067404300216995e-10,0.01883183889420412,1.962111285377933e-10,0.02769383409438698,1.783789653839528e-10,0.03431833758985944,1.595600845842182e-10,0.03820560957555807,1.413377312074074e-10,0.03872173019696608,1.351291302324194e-10,0.04129765750589998,1.308934614593273e-10,0.04268237355856738,1.287997188967691e-10,0.04362019970323398,1.365240551001696e-10,0.04936309839530897,2.101069910367395e-10,9.687501226698903e-06
2.383121145078664e-10,0.01050050696330905,2.326000932455607e-10,0.0211053866012883,2.198209171134686e-10,0.03120505323798703,1.995886813974234e-10,0.03921543935315897,1.770966405750159e-10,0.04394083942088983,1.556893651440111e-10,0.04481614641121347,1.482706426382592e-10,0.04777510306866425,1.432794810228805e-10,0.04939898676001353,1.408381350467515e-10,0.05051416187379296,1.491627949178129e-10,0.05664564648785272,2.383121145078664e-10,9.973047041118228e-06
2.675557992858732e-10,0.01137689419931473,2.60190245573327e-10,0.02294047043150177,2.450404192281497e-10,0.03421641887747071,2.223584395126336e-10,0.04369689264492835,1.972539490883979e-10,0.04985527342844968,1.718275845232736e-10,0.05124148811761718,1.62843142062847e-10,0.05459889617784258,1.568988782429007e-10,0.05648380311605611,1.539925172261463e-10,0.05778036633650976,1.630468131042132e-10,0.06426564989212895,2.675557992858732e-10,9.939224218198618e-06
2.953633581018075e-10,0.01187499357195965,2.872354241924739e-10,0.02410751537143888,2.714942009755817e-10,0.03649403203858936,2.468294472565717e-10,0.0475337514698107,2.188893895918222e-10,0.05528608317830855,1.905747533039813e-10,0.0579974571770086,1.79399951079674e-10,0.06175733542649993,1.721770926105453e-10,0.06392035929167131,1.686285887447479e-10,0.06540086193436455,1.786457141363533e-10,0.0722145237265496,2.953633581018075e-10,9.596542339531883e-06
3.24186064803701e-10,0.01203219022773176,3.149088859954664e-10,0.02462839452213321,2.981884829483578e-10,0.03784207099155106,2.730782896611864e-10,0.05046910430089639,2.419708804505998e-10,0.05996049313624656,2.110374479178832e-10,0.06439110031478848,1.985944057185004e-10,0.06913443902926934,1.897710897973696e-10,0.07167938168419988,1.852862920024527e-10,0.07334281669620241,1.966436170568265e-10,0.08044461983282966,3.24186064803701e-10,8.933166177538995e-06
3.560236410196952e-10,0.01177116956703418,3.481881638222946e-10,0.02433085104260414,3.275417668257465e-10,0.03819631372774236,3.00306134005641e-10,0.05219728342075247,2.673836150027973e-10,0.06373404881893645,2.328077188059533e-10,0.0700010185117711,2.191013495275027e-10,0.07583369335012399,2.095878811591753e-10,0.07927368272142815,2.04853912059022e-10,0.08154547155393635,2.171300265824052e-10,0.08847036217516258,3.560236410196952e-10,7.861966460347696e-06
3.861204197180618e-10,0.01110225849814013,3.792292573639509e-10,0.02313401888930987,3.599535064213927e-10,0.03719208093761205,3.308764672569765e-10,0.0525203206759644,2.951935196896307e-10,0.06620838724360842,2.5630780643802e-10,0.07465185063077626,2.409405002456241e-10,0.08158525937660863,2.307214341685421e-10,0.08597152151324192,2.2586684781104e-10,0.0889115589893251,2.389981152604781e-10,0.09540252412578529,3.861204197180618e-10,6.560148866390615e-06
4.140675011815376e-10,0.01011881803414592,4.094791953437389e-10,0.02111895633450324,3.917045786699195e-10,0.03477324433027505,3.64748964468404e-10,0.05084919424947118,3.258380252189646e-10,0.06693357525858058,2.835135583392488e-10,0.07822617877655108,2.648542806817191e-10,0.08625230539621043,2.533516208371162e-10,0.09152802152980313,2.482511245122154e-10,0.09508681685581413,2.616285769508116e-10,0.100792832941188,4.140675011815376e-10,5.140757912327851e-06
4.383140343664626e-10,0.008995911964042563,4.352122874406743e-10,0.0187684223107837,4.201724908903596e-10,0.03140395293485308,3.968586684839846e-10,0.04725636743097318,3.627579256157148e-10,0.06498525120319046,3.129484086942696e-10,0.07993742718880351,2.934937786745691e-10,0.08964312257113081,2.786465385183219e-10,0.09579499428627702,2.719802771980052e-10,0.09976999601823827,2.885784943230527e-10,0.104879056534393,4.383140343664626e-10,3.779530541677907e-06
4.620898612766533e-10,0.007675328099012321,4.590843051005616e-10,0.01610936039836397,4.451997547517124e-10,0.02754455003193065,4.251355168990108e-10,0.04246135115849009,3.954393173798987e-10,0.06060541814724713,3.469725955551588e-10,0.07912492293134574,3.241631787916951e-10,0.090665575656294,3.076747512624758e-10,0.09822224722248617,3.009654586783571e-10,0.1029421745347843,3.216987513793819e-10,0.1064897467012426,4.620898612766533e-10,2.359503614535732e-06
4.852090449204632e-10,0.006214668472009091,4.827862428653939e-10,0.01308041336497666,4.708204907134724e-10,0.02281762553407417,4.509382637517961e-10,0.03680029359830839,4.24520751425013e-10,0.05454506536348626,3.804984843670584e-10,0.07531272474394105,3.622711861318379e-10,0.08814488969221211,3.40764177469047e-10,0.09779716415059331,3.344258497389111e-10,0.1031653236776177,3.614826995214162e-10,0.1034335726731759,4.852090449204632e-10,9.280059376133405e-07
5.07540117290463e-10,0.004673124667828613,5.045971014385516e-10,0.01001843606898072,4.928777324981326e-10,0.01821858021292563,4.769065246655449e-10,0.02999379920727605,4.510764454492654e-10,0.04724803999878441,4.113986359806761e-10,0.06902059387232738,3.953931628187823e-10,0.08238299894180634,3.765078760097682e-10,0.09341640392691586,3.753992571290109e-10,0.09832426044850062,4.014967397412061e-10,0.09464001880450518,5.07540117290463e-10,-4.735823375752048e-07
5.297099553243811e-10,0.003051233373390597,5.26249439418365e-10,0.006787761434956463,5.156764622703163e-10,0.01306967303329806,4.987219260722477e-10,0.02355159638788912,4.769664179280394e-10,0.03863837104631135,4.388737538223952e-10,0.06111304252851918,4.258182042281579e-10,0.07399069298944772,4.098211724499517e-10,0.08545759422012966,4.125110473059562e-10,0.08881899013991226,4.40184715398658e-10,0.08044413872195136,5.297099553243811e-10,-1.855908797639369e-06
5.524421009836554e-10,0.001330729654678189,5.481210804339754e-10,0.003401246567434263,5.373711276437148e-10,0.007909172372703138,5.207908802192703e-10,0.01651961324097846,4.987278196242515e-10,0.03041419270614526,4.6764138120042e-10,0.05056164047000732,4.544687140974017e-10,0.06332094901187861,4.401749000652897e-10,0.07479852615005322,4.461292803038772e-10,0.07582352616464083,4.667229920489335e-10,0.06746092140641476,5.524421009836554e-10,-3.235732201435133e-06
5.778415504252195e-10,-0.0006138666494302641,5.730928502613538e-10,-0.0005251274019363594,5.597073964186581e-10,0.002448399653342842,5.422509307468403e-10,0.009341171150879388,5.210084402591223e-10,0.02126062275536986,4.907393430231003e-10,0.04055108327015085,4.802784224304973e-10,0.05151358350163145,4.729945111416137e-10,0.05969040551509135,4.802047604458595e-10,0.05854851979114617,4.924898934096544e-10,0.05255090506982894,5.778415504252195e-10,-4.698253180928271e-06
6.032704437473584e-10,-0.002535914776880657,5.985353529804641e-10,-0.004492464983170449,5.849578589412247e-10,-0.003753089961375591,5.647247386773642e-10,0.001638690705098367,5.425778257361831e-10,0.01190432802566362,5.131846445722921e-10,0.02972758052991917,5.028291916851903e-10,0.03968668330054949,4.972690438091411e-10,0.04631748089821945,5.046078854106344e-10,0.04390811262493961,5.159657331362285e-10,0.03731792156011957,6.032704437473584e-10,-6.042843213233396e-06
6.288798224554752e-10,-0.004396930571795118,6.241179688238384e-10,-0.008345756235685661,6.104423073898019e-10,-0.009881471609995654,5.899522262918838e-10,-0.007005453522754196,5.646031140482489e-10,0.002085150357664739,5.355735358107516e-10,0.01812648650018346,5.264075648045605e-10,0.02612758623325739,5.209510571768798e-10,0.03179909060652961,5.287097255864745e-10,0.028004244923427,5.394680486313274e-10,0.02092786750619105,6.288798224554752e-10,-7.241325753395365e-06
6.554846966436519e-10,-0.006198739191020292,6.505301088025026e-10,-0.01207351549714308,6.363433259528488e-10,-0.01580710374141205,6.155410967247913e-10,-0.01552706181647499,5.892444623028482e-10,-0.008905638826947657,5.573488395207986e-10,0.006370997045016202,5.490093642930615e-10,0.01234787854691409,5.44688508403011e-10,0.01622195477935323,5.525671845326514e-10,0.01134908915005882,5.625763782594136e-10,0.004188193099012055,6.554846966436519e-10,-8.287885267148494e-06
6.837443553418376e-10,-0.007910500107712701,6.77371748024919e-10,-0.01549635493089248,6.619849891414629e-10,-0.02121399620043876,6.404549346677917e-10,-0.0233550563273118,6.137392472445238e-10,-0.0195160708645751,5.797726771719602e-10,-0.005878074673935876,5.708808168962024e-10,-0.001326900079496401,5.670426737150619e-10,0.001062747524795946,5.749764138317767e-10,-0.00463216503372571,5.83817617500561e-10,-0.01130913991494507,6.837443553418376e-10,-9.145928185982562e-06
7.150869767093688e-10,-0.009505139232446558,7.074846012570897e-10,-0.01878077703479887,6.881823272332509e-10,-0.02611754801383263,6.646536903554855e-10,-0.03031631785057652,6.367265933190589e-10,-0.02891548359943233,6.024305149057464e-10,-0.01804285839545777,5.929258126781046e-10,-0.01503675851281665,5.887183460371535e-10,-0.01364598825279502,5.959354485196941e-10,-0.01944223190058225,6.04250215573138e-10,-0.02592157312672658,7.150869767093688e-10,-9.760358294736453e-06
7.443564495732547e-10,-0.01066383409925641,7.366875963887028e-10,-0.0213170604527924,7.191506048201253e-10,-0.03093589662436096,6.898345600866051e-10,-0.03670798700937372,6.592559192691448e-10,-0.03737572487317775,6.238191063640129e-10,-0.02902337334853924,6.136822142002385e-10,-0.02752302777711736,6.092390965748065e-10,-0.02719533768587061,6.160975482357826e-10,-0.03319202870106085,6.245634540057784e-10,-0.03980649862022113,7.443564495732547e-10,-9.993713787547884e-06
7.731473001023631e-10,-0.01146313676632331,7.659510846870789e-10,-0.02315478775593338,7.479669644534136e-10,-0.03436226292608367,7.192735069014257e-10,-0.04289547748554781,6.8285657957274e-10,-0.0452436370777759,6.446736225107974e-10,-0.03900540700414755,6.336329820409931e-10,-0.03884854251325813,6.290217750251467e-10,-0.03959217716259247,6.361013724958345e-10,-0.04603527973492452,6.450390716994489e-10,-0.052846441595298,7.731473001023631e-10,-9.89442410825994e-06
8.005314030601193e-10,-0.01189286433187065,7.932976614330065e-10,-0.02420003991991854,7.755864583427948e-10,-0.03662878346725928,7.47336926424868e-10,-0.04740044050124416,7.106410702886591e-10,-0.05301420236919174,6.66223654032332e-10,-0.04835397904325787,6.539535080307282e-10,-0.04946014199111143,6.490324504762584e-10,-0.05120053920400182,6.566031126502595e-10,-0.0581061042023155,6.660745468651481e-10,-0.06498436152198284,8.005314030601193e-10,-9.500194388478161e-06
8.298207683919453e-10,-0.01198370051897457,8.213497117317228e-10,-0.02457450047817257,8.027792623103006e-10,-0.03785325491497657,7.751309234183661e-10,-0.05047009377761387,7.377788506869349e-10,-0.05894964868899912,6.900653957087026e-10,-0.05736743664962415,6.758377518102078e-10,-0.05964120629906552,6.702160845995141e-10,-0.06224539153265886,6.78322140232121e-10,-0.06946697320521544,6.885427005079645e-10,-0.07632702681914885,8.298207683919453e-10,-8.768486489487249e-06
8.603979499086198e-10,-0.01166459590870214,8.528841571726661e-10,-0.02413465647471991,8.328609021927013e-10,-0.03801846391844634,8.030250539369314e-10,-0.05213616416675607,7.647890694025938e-10,-0.06320312495405546,7.169942678794227e-10,-0.06573305108651004,7.01037896352506e-10,-0.06959296832285319,6.938520885442999e-10,-0.07287454216281093,7.027958798990281e-10,-0.08033094128579539,7.144475337987032e-10,-0.08715612176680135,8.603979499086198e-10,-7.689170253327717e-06
8.902031312699818e-10,-0.01094559825960247,8.831931038610906e-10,-0.02284635756511945,8.643440000088094e-10,-0.03683349937678461,8.340916251747347e-10,-0.05230618880606412,7.935148655013013e-10,-0.0659200552593429,7.431190505772475e-10,-0.07197067480980776,7.27041703664887e-10,-0.07780019711351299,7.202784125380775e-10,-0.082529857736341,7.292278418381621e-10,-0.0896688498715067,7.410533163350223e-10,-0.09572079793845728,8.902031312699818e-10,-6.364400559991486e-06
9.172618467331526e-10,-0.00995047588843391,9.119004977602767e-10,-0.02085115558712865,8.957577358006228e-10,-0.03425578977268648,8.674434055500651e-10,-0.05048235392361367,8.236022782732907e-10,-0.0667790782039215,7.696822050482359e-10,-0.07643607538122427,7.526045266738153e-10,-0.08384009768256609,7.459820842872783e-10,-0.08966169408045926,7.552650911919172e-10,-0.09645504728900728,7.667061610677228e-10,-0.1015620493434581,9.172618467331526e-10,-4.967578996721701e-06
9.409692226918005e-10,-0.008824503844782811,9.367247657383295e-10,-0.01854185697184768,9.234222817980395e-10,-0.03084354983486873,8.990873420748942e-10,-0.04679538183902759,8.601718565507675e-10,-0.06506076201579809,7.980559893881826e-10,-0.07915993960736518,7.797129444724924e-10,-0.08810841225473828,7.721460106191423e-10,-0.09469417845218669,7.81624533127204e-10,-0.1009569740722622,7.950747596268632e-10,-0.1053313856825113,9.409692226918005e-10,-3.624556034039443e-06
9.650575372318938e-10,-0.007463207306554601,9.606018389379478e-10,-0.01585592347828682,9.480363304593902e-10,-0.02695319990274579,9.268447655543877e-10,-0.04198589834541022,8.923744343300407e-10,-0.06096413146714728,8.28392266025221e-10,-0.07976653459136752,8.083492775757532e-10,-0.09029692618344934,8.009230895669041e-10,-0.09772012963424676,8.110903016222319e-10,-0.1032463640018669,8.27942414003919e-10,-0.1062364231366882,9.650575372318938e-10,-2.177904165612474e-06
