time	V(vin)	V(vout)
0.000000000000000e+000	0.000000e+000	0.000000e+000
4.271964283491671e-006	2.688626e-003	4.769989e-003
8.543928566983341e-006	5.370506e-003	9.511729e-003
1.281589285047501e-005	8.045640e-003	1.422522e-002
1.708785713396668e-005	1.071403e-002	1.891046e-002
2.135982141745835e-005	1.337567e-002	2.356746e-002
2.563178570095002e-005	1.603057e-002	2.819620e-002
2.990374998444169e-005	1.867872e-002	3.279670e-002
3.771624998444169e-005	2.350448e-002	4.110968e-002
4.552874998444171e-005	2.824566e-002	4.910194e-002
5.334124998444172e-005	3.290226e-002	5.677350e-002
6.115374998444173e-005	3.747429e-002	6.412435e-002
6.896624998444173e-005	4.196174e-002	7.115449e-002
7.677874998444174e-005	4.636462e-002	7.786392e-002
8.459124998444173e-005	5.068291e-002	8.425265e-002
9.351982141301317e-005	5.547031e-002	9.094506e-002
1.024483928415846e-004	6.004910e-002	9.710938e-002
1.113769642701561e-004	6.441929e-002	1.027456e-001
1.203055356987275e-004	6.858088e-002	1.078537e-001
1.292341071272989e-004	7.253386e-002	1.124337e-001
1.381626785558703e-004	7.627823e-002	1.164856e-001
1.470912499844418e-004	7.981400e-002	1.200095e-001
1.551827678415846e-004	8.278803e-002	1.227929e-001
1.632742856987275e-004	8.553214e-002	1.252926e-001
1.713658035558704e-004	8.804634e-002	1.275088e-001
1.794573214130132e-004	9.033063e-002	1.294413e-001
1.875488392701561e-004	9.238501e-002	1.310902e-001
1.956403571272990e-004	9.420947e-002	1.324555e-001
2.037318749844418e-004	9.580403e-002	1.335371e-001
2.182408035558704e-004	9.801801e-002	1.350484e-001
2.327497321272990e-004	9.940929e-002	1.359948e-001
2.472586606987276e-004	9.997788e-002	1.363764e-001
2.617675892701562e-004	9.972377e-002	1.361930e-001
2.762765178415848e-004	9.864696e-002	1.354448e-001
2.907854464130133e-004	9.674746e-002	1.341318e-001
3.052943749844419e-004	9.402526e-002	1.322538e-001
3.133858928415848e-004	9.215772e-002	1.309194e-001
3.214774106987276e-004	9.006724e-002	1.292750e-001
3.295689285558705e-004	8.775381e-002	1.273206e-001
3.376604464130134e-004	8.521744e-002	1.250563e-001
3.457519642701562e-004	8.245813e-002	1.224819e-001
3.538434821272991e-004	7.947587e-002	1.195976e-001
3.619349999844419e-004	7.627067e-002	1.164034e-001
3.703055356987277e-004	7.273772e-002	1.126422e-001
3.786760714130134e-004	6.903068e-002	1.084090e-001
3.870466071272991e-004	6.514954e-002	1.037037e-001
3.954171428415848e-004	6.109429e-002	9.852637e-002
4.037876785558706e-004	5.686495e-002	9.287691e-002
4.121582142701563e-004	5.246151e-002	8.675537e-002
4.205287499844420e-004	4.788397e-002	8.016174e-002
4.283412499844420e-004	4.349091e-002	7.350662e-002
4.361537499844420e-004	3.902054e-002	6.655279e-002
4.439662499844420e-004	3.447288e-002	5.930027e-002
4.517787499844420e-004	2.984791e-002	5.174903e-002
4.595912499844420e-004	2.514565e-002	4.389909e-002
4.674037499844420e-004	2.036609e-002	3.575044e-002
4.752162499844420e-004	1.550923e-002	2.730309e-002
4.788434821272992e-004	1.325097e-002	2.335617e-002
4.824707142701563e-004	1.098877e-002	1.939265e-002
4.860979464130135e-004	8.722633e-003	1.541252e-002
4.897251785558706e-004	6.452556e-003	1.141579e-002
4.933524106987277e-004	4.178539e-003	7.402448e-003
4.969796428415849e-004	1.900584e-003	3.372504e-003
5.006068749844420e-004	-3.813099e-004	-6.740466e-004
5.050711606987277e-004	-3.191257e-003	-5.660351e-003
5.095354464130134e-004	-5.993201e-003	-1.061306e-002
5.139997321272991e-004	-8.787142e-003	-1.553218e-002
5.184640178415849e-004	-1.157308e-002	-2.041770e-002
5.229283035558706e-004	-1.435101e-002	-2.526963e-002
5.273925892701563e-004	-1.712094e-002	-3.008796e-002
5.318568749844420e-004	-1.988287e-002	-3.487270e-002
5.396693749844420e-004	-2.469545e-002	-4.312916e-002
5.474818749844421e-004	-2.942069e-002	-5.105706e-002
5.552943749844421e-004	-3.405860e-002	-5.865638e-002
5.631068749844421e-004	-3.860919e-002	-6.592714e-002
5.709193749844421e-004	-4.307244e-002	-7.286933e-002
5.787318749844421e-004	-4.744837e-002	-7.948295e-002
5.865443749844421e-004	-5.173696e-002	-8.576801e-002
5.954729464130135e-004	-5.648711e-002	-9.233761e-002
6.044015178415850e-004	-6.102580e-002	-9.838213e-002
6.133300892701564e-004	-6.535303e-002	-1.039016e-001
6.222586606987278e-004	-6.946879e-002	-1.088959e-001
6.311872321272993e-004	-7.337310e-002	-1.133652e-001
6.401158035558707e-004	-7.706594e-002	-1.173094e-001
6.490443749844421e-004	-8.054732e-002	-1.207285e-001
6.571358928415851e-004	-8.347003e-002	-1.234273e-001
6.652274106987279e-004	-8.616143e-002	-1.258479e-001
6.733189285558708e-004	-8.862150e-002	-1.279905e-001
6.814104464130136e-004	-9.085025e-002	-1.298549e-001
6.895019642701565e-004	-9.284767e-002	-1.314412e-001
6.975934821272994e-004	-9.461378e-002	-1.327495e-001
7.056849999844422e-004	-9.614856e-002	-1.337796e-001
7.199149106987279e-004	-9.821973e-002	-1.351899e-001
7.341448214130136e-004	-9.949939e-002	-1.360574e-001
7.483747321272994e-004	-9.998757e-002	-1.363822e-001
7.626046428415851e-004	-9.968424e-002	-1.361642e-001
7.768345535558709e-004	-9.858941e-002	-1.354035e-001
7.910644642701566e-004	-9.670309e-002	-1.341000e-001
8.052943749844423e-004	-9.402526e-002	-1.322538e-001
8.133858928415852e-004	-9.215772e-002	-1.309194e-001
8.214774106987280e-004	-9.006724e-002	-1.292750e-001
8.295689285558709e-004	-8.775381e-002	-1.273206e-001
8.376604464130137e-004	-8.521744e-002	-1.250563e-001
8.457519642701566e-004	-8.245813e-002	-1.224819e-001
8.538434821272995e-004	-7.947587e-002	-1.195976e-001
8.619349999844423e-004	-7.627067e-002	-1.164034e-001
8.703055356987280e-004	-7.273772e-002	-1.126422e-001
8.786760714130137e-004	-6.903068e-002	-1.084090e-001
8.870466071272995e-004	-6.514954e-002	-1.037037e-001
8.954171428415853e-004	-6.109429e-002	-9.852637e-002
9.037876785558710e-004	-5.686495e-002	-9.287691e-002
9.121582142701567e-004	-5.246151e-002	-8.675537e-002
9.205287499844424e-004	-4.788397e-002	-8.016174e-002
9.283412499844424e-004	-4.349091e-002	-7.350662e-002
9.361537499844424e-004	-3.902054e-002	-6.655280e-002
9.439662499844424e-004	-3.447288e-002	-5.930027e-002
9.517787499844424e-004	-2.984791e-002	-5.174903e-002
9.595912499844424e-004	-2.514565e-002	-4.389909e-002
9.674037499844424e-004	-2.036609e-002	-3.575044e-002
9.752162499844424e-004	-1.550923e-002	-2.730309e-002
9.788434821272995e-004	-1.325097e-002	-2.335617e-002
9.824707142701567e-004	-1.098877e-002	-1.939265e-002
9.860979464130137e-004	-8.722633e-003	-1.541252e-002
9.897251785558709e-004	-6.452556e-003	-1.141579e-002
9.933524106987281e-004	-4.178539e-003	-7.402448e-003
9.969796428415851e-004	-1.900584e-003	-3.372504e-003
1.000606874984442e-003	3.813099e-004	6.740466e-004
1.005071160698728e-003	3.191257e-003	5.660351e-003
1.009535446413014e-003	5.993201e-003	1.061306e-002
1.013999732127300e-003	8.787142e-003	1.553218e-002
1.018464017841585e-003	1.157308e-002	2.041770e-002
1.022928303555871e-003	1.435101e-002	2.526963e-002
1.027392589270157e-003	1.712094e-002	3.008796e-002
1.031856874984442e-003	1.988287e-002	3.487270e-002
1.039669374984442e-003	2.469545e-002	4.312917e-002
1.047481874984442e-003	2.942069e-002	5.105706e-002
1.055294374984442e-003	3.405860e-002	5.865639e-002
1.063106874984442e-003	3.860919e-002	6.592715e-002
1.070919374984442e-003	4.307244e-002	7.286933e-002
1.078731874984442e-003	4.744837e-002	7.948295e-002
1.086544374984442e-003	5.173696e-002	8.576800e-002
1.095472946413014e-003	5.648711e-002	9.233760e-002
1.104401517841585e-003	6.102580e-002	9.838212e-002
1.113330089270157e-003	6.535303e-002	1.039016e-001
1.122258660698728e-003	6.946879e-002	1.088959e-001
1.131187232127300e-003	7.337310e-002	1.133652e-001
1.140115803555871e-003	7.706594e-002	1.173094e-001
1.149044374984443e-003	8.054732e-002	1.207285e-001
1.157135892841585e-003	8.347003e-002	1.234273e-001
1.165227410698728e-003	8.616143e-002	1.258479e-001
1.173318928555871e-003	8.862150e-002	1.279905e-001
1.181410446413014e-003	9.085025e-002	1.298549e-001
1.189501964270157e-003	9.284767e-002	1.314412e-001
1.197593482127300e-003	9.461378e-002	1.327495e-001
1.205684999984443e-003	9.614856e-002	1.337796e-001
1.219914910698728e-003	9.821973e-002	1.351899e-001
1.234144821413014e-003	9.949939e-002	1.360574e-001
1.248374732127300e-003	9.998757e-002	1.363822e-001
1.262604642841585e-003	9.968424e-002	1.361642e-001
1.276834553555871e-003	9.858941e-002	1.354035e-001
1.291064464270157e-003	9.670309e-002	1.341000e-001
1.305294374984443e-003	9.402526e-002	1.322538e-001
1.313385892841585e-003	9.215772e-002	1.309194e-001
1.321477410698728e-003	9.006724e-002	1.292750e-001
1.329568928555871e-003	8.775381e-002	1.273206e-001
1.337660446413014e-003	8.521744e-002	1.250563e-001
1.345751964270157e-003	8.245813e-002	1.224819e-001
1.353843482127300e-003	7.947587e-002	1.195976e-001
1.361934999984443e-003	7.627067e-002	1.164034e-001
1.370305535698729e-003	7.273772e-002	1.126422e-001
1.378676071413014e-003	6.903068e-002	1.084090e-001
1.387046607127300e-003	6.514954e-002	1.037037e-001
1.395417142841586e-003	6.109429e-002	9.852637e-002
1.403787678555871e-003	5.686495e-002	9.287691e-002
1.412158214270157e-003	5.246151e-002	8.675537e-002
1.420528749984443e-003	4.788397e-002	8.016174e-002
1.428341249984443e-003	4.349091e-002	7.350662e-002
1.436153749984443e-003	3.902054e-002	6.655280e-002
1.443966249984443e-003	3.447288e-002	5.930027e-002
1.451778749984443e-003	2.984791e-002	5.174903e-002
1.459591249984443e-003	2.514565e-002	4.389909e-002
1.467403749984443e-003	2.036609e-002	3.575044e-002
1.475216249984443e-003	1.550923e-002	2.730309e-002
1.478843482127300e-003	1.325097e-002	2.335617e-002
1.482470714270157e-003	1.098877e-002	1.939265e-002
1.486097946413014e-003	8.722633e-003	1.541252e-002
1.489725178555871e-003	6.452556e-003	1.141579e-002
1.493352410698729e-003	4.178539e-003	7.402447e-003
1.496979642841586e-003	1.900584e-003	3.372503e-003
1.500606874984443e-003	-3.813099e-004	-6.740466e-004
1.505071160698729e-003	-3.191257e-003	-5.660351e-003
1.509535446413014e-003	-5.993201e-003	-1.061306e-002
1.513999732127300e-003	-8.787142e-003	-1.553218e-002
1.518464017841586e-003	-1.157308e-002	-2.041770e-002
1.522928303555871e-003	-1.435101e-002	-2.526963e-002
1.527392589270157e-003	-1.712094e-002	-3.008796e-002
1.531856874984443e-003	-1.988287e-002	-3.487270e-002
1.539669374984443e-003	-2.469545e-002	-4.312916e-002
1.547481874984443e-003	-2.942069e-002	-5.105706e-002
1.555294374984443e-003	-3.405860e-002	-5.865639e-002
1.563106874984443e-003	-3.860919e-002	-6.592715e-002
1.570919374984443e-003	-4.307244e-002	-7.286933e-002
1.578731874984443e-003	-4.744837e-002	-7.948295e-002
1.586544374984443e-003	-5.173696e-002	-8.576800e-002
1.595472946413014e-003	-5.648711e-002	-9.233761e-002
1.604401517841586e-003	-6.102580e-002	-9.838213e-002
1.613330089270157e-003	-6.535303e-002	-1.039016e-001
1.622258660698729e-003	-6.946879e-002	-1.088959e-001
1.631187232127300e-003	-7.337310e-002	-1.133652e-001
1.640115803555872e-003	-7.706594e-002	-1.173094e-001
1.649044374984443e-003	-8.054732e-002	-1.207285e-001
1.657135892841586e-003	-8.347003e-002	-1.234273e-001
1.665227410698729e-003	-8.616143e-002	-1.258479e-001
1.673318928555872e-003	-8.862150e-002	-1.279905e-001
1.681410446413014e-003	-9.085025e-002	-1.298549e-001
1.689501964270157e-003	-9.284767e-002	-1.314412e-001
1.697593482127300e-003	-9.461378e-002	-1.327495e-001
1.705684999984443e-003	-9.614856e-002	-1.337796e-001
1.719914910698729e-003	-9.821973e-002	-1.351899e-001
1.734144821413014e-003	-9.949939e-002	-1.360574e-001
1.748374732127300e-003	-9.998757e-002	-1.363822e-001
1.762604642841586e-003	-9.968424e-002	-1.361642e-001
1.776834553555872e-003	-9.858941e-002	-1.354035e-001
1.791064464270158e-003	-9.670309e-002	-1.341000e-001
1.805294374984443e-003	-9.402526e-002	-1.322538e-001
1.813385892841586e-003	-9.215772e-002	-1.309194e-001
1.821477410698729e-003	-9.006724e-002	-1.292750e-001
1.829568928555872e-003	-8.775381e-002	-1.273206e-001
1.837660446413015e-003	-8.521744e-002	-1.250563e-001
1.845751964270157e-003	-8.245813e-002	-1.224819e-001
1.853843482127300e-003	-7.947587e-002	-1.195976e-001
1.861934999984443e-003	-7.627067e-002	-1.164034e-001
1.870305535698729e-003	-7.273772e-002	-1.126422e-001
1.878676071413015e-003	-6.903068e-002	-1.084090e-001
1.887046607127300e-003	-6.514954e-002	-1.037037e-001
1.895417142841586e-003	-6.109429e-002	-9.852637e-002
1.903787678555872e-003	-5.686495e-002	-9.287691e-002
1.912158214270157e-003	-5.246151e-002	-8.675537e-002
1.920528749984443e-003	-4.788397e-002	-8.016174e-002
1.926667142841586e-003	-4.444995e-002	-7.499390e-002
1.932805535698729e-003	-4.096302e-002	-6.962486e-002
1.938943928555871e-003	-3.742318e-002	-6.405461e-002
1.945082321413014e-003	-3.383042e-002	-5.828316e-002
1.951220714270157e-003	-3.018474e-002	-5.231050e-002
1.957359107127299e-003	-2.648615e-002	-4.613664e-002
1.963497499984442e-003	-2.273465e-002	-3.976157e-002
1.965450624984442e-003	-2.153792e-002	-3.771612e-002
1.969914910698727e-003	-1.878518e-002	-3.296957e-002
1.974379196413012e-003	-1.602311e-002	-2.818398e-002
1.978843482127297e-003	-1.325172e-002	-2.335934e-002
1.983307767841583e-003	-1.047101e-002	-1.849565e-002
1.987772053555868e-003	-7.680965e-003	-1.359292e-002
1.992236339270153e-003	-4.881600e-003	-8.651144e-003
1.996700624984439e-003	-2.072910e-003	-3.670319e-003
1.998653749984438e-003	-8.458637e-004	-1.498434e-003
2.000000000000000e-003	-4.898587e-017	-9.882428e-007
