;Version, 1, 0
;/M1/D,;/vout
;X, Y,;X, Y
;Re, Re,;Re, Re
;vin, I,;vin, V
;xunit, A,;xunit, V
-0.2,0.002203077333718557,-0.2,0.06773186890099604
-0.19996,0.002203550081765147,-0.19996,0.06774925545717686
-0.19992,0.002204019676493955,-0.19992,0.06776652774923156
-0.19988,0.002204489280245436,-0.19988,0.06778380207542276
-0.19984,0.002204958893002654,-0.19984,0.06780107843570891
-0.1997999999999999,0.002205428514748683,-0.1997999999999999,0.06781835683004904
-0.1997599999999999,0.002205898145466593,-0.1997599999999999,0.06783563725840182
-0.1997199999999999,0.002206367785139459,-0.1997199999999999,0.0678529197207263
-0.1996799999999999,0.002206837433750354,-0.1996799999999999,0.06787020421698145
-0.1996399999999999,0.002207307091282354,-0.1996399999999999,0.06788749074712641
-0.1995999999999999,0.002207776757718533,-0.1995999999999999,0.06790477931112027
-0.1995599999999999,0.002208246433041975,-0.1995599999999999,0.06792206990892251
-0.1995199999999999,0.002208716117235754,-0.1995199999999999,0.06793936254049228
-0.1994799999999999,0.002209185810282953,-0.1994799999999999,0.06795665720578922
-0.1994399999999998,0.002209655512166651,-0.1994399999999998,0.06797395390477268
-0.1993999999999998,0.002210125222869935,-0.1993999999999998,0.06799125263740249
-0.1993599999999998,0.002210594942375886,-0.1993599999999998,0.06800855340363822
-0.1993199999999998,0.002211064670667592,-0.1993199999999998,0.06802585620343969
-0.1992799999999998,0.002211534407728133,-0.1992799999999998,0.06804316103676682
-0.1992399999999998,0.002212004153540603,-0.1992399999999998,0.06806046790357956
-0.1991999999999998,0.002212473908088092,-0.1991999999999998,0.06807777680383797
-0.1991599999999998,0.002212943671353686,-0.1991599999999998,0.06809508773750217
-0.1991199999999997,0.002213413443320477,-0.1991199999999997,0.06811240070453239
-0.1990799999999997,0.002213883223971559,-0.1990799999999997,0.06812971570488904
-0.1990399999999997,0.002214353013290023,-0.1990399999999997,0.06814703273853229
-0.1989999999999997,0.002214822811258972,-0.1989999999999997,0.06816435180542289
-0.1989599999999997,0.002215292617861494,-0.1989599999999997,0.0681816729055213
-0.1989199999999997,0.002215762433080687,-0.1989199999999997,0.0681989960387881
-0.1988799999999997,0.002216232256899655,-0.1988799999999997,0.06821632120518417
-0.1988399999999997,0.002216702089301493,-0.1988399999999997,0.06823364840467024
-0.1987999999999996,0.0022171719302693,-0.1987999999999996,0.06825097763720719
-0.1987599999999996,0.002217641779786186,-0.1987599999999996,0.06826830890275613
-0.1987199999999996,0.00221811163783525,-0.1987199999999996,0.06828564220127814
-0.1986799999999996,0.002218581504399598,-0.1986799999999996,0.06830297753273436
-0.1986399999999996,0.002219051379462332,-0.1986399999999996,0.06832031489708595
-0.1985999999999996,0.002219521263006566,-0.1985999999999996,0.06833765429429449
-0.1985599999999996,0.002219991155015398,-0.1985599999999996,0.06835499572432112
-0.1985199999999996,0.002220461055471947,-0.1985199999999996,0.0683723391871276
-0.1984799999999995,0.002220930964359324,-0.1984799999999995,0.06838968468267551
-0.1984399999999995,0.002221400881660634,-0.1984399999999995,0.06840703221092631
-0.1983999999999995,0.002221870807358991,-0.1983999999999995,0.068424381771842
-0.1983599999999995,0.002222340741437516,-0.1983599999999995,0.06844173336538445
-0.1983199999999995,0.002222810683879317,-0.1983199999999995,0.06845908699151543
-0.1982799999999995,0.002223280634667517,-0.1982799999999995,0.06847644265019714
-0.1982399999999995,0.002223750593785226,-0.1982399999999995,0.0684938003413916
-0.1981999999999995,0.002224220561215569,-0.1981999999999995,0.068511160065061
-0.1981599999999994,0.002224690536941669,-0.1981599999999994,0.06852852182116784
-0.1981199999999994,0.002225160520946639,-0.1981199999999994,0.06854588560967419
-0.1980799999999994,0.002225630513213608,-0.1980799999999994,0.06856325143054272
-0.1980399999999994,0.002226100513725698,-0.1980399999999994,0.06858061928373592
-0.1979999999999994,0.002226570522466037,-0.1979999999999994,0.06859798916921651
-0.1979599999999994,0.002227040539417745,-0.1979599999999994,0.06861536108694703
-0.1979199999999994,0.002227510564563951,-0.1979199999999994,0.06863273503689042
-0.1978799999999994,0.002227980597887786,-0.1978799999999994,0.06865011101900953
-0.1978399999999993,0.002228450639372379,-0.1978399999999993,0.06866748903326735
-0.1977999999999993,0.002228920689000863,-0.1977999999999993,0.068684869079627
-0.1977599999999993,0.002229390746756366,-0.1977599999999993,0.06870225115805159
-0.1977199999999993,0.002229860812622025,-0.1977199999999993,0.0687196352685043
-0.1976799999999993,0.002230330886580975,-0.1976799999999993,0.0687370214109486
-0.1976399999999993,0.002230800968616345,-0.1976399999999993,0.06875440958534773
-0.1975999999999993,0.002231271058711278,-0.1975999999999993,0.06877179979166526
-0.1975599999999993,0.002231741156848909,-0.1975599999999993,0.06878919202986473
-0.1975199999999993,0.002232211263012384,-0.1975199999999993,0.06880658629991003
-0.1974799999999992,0.002232681377184833,-0.1974799999999992,0.06882398260176463
-0.1974399999999992,0.002233151499349404,-0.1974399999999992,0.06884138093539248
-0.1973999999999992,0.00223362162948924,-0.1973999999999992,0.0688587813007575
-0.1973599999999992,0.002234091767587482,-0.1973599999999992,0.06887618369782378
-0.1973199999999992,0.002234561913627279,-0.1973199999999992,0.06889358812655538
-0.1972799999999992,0.002235032067591775,-0.1972799999999992,0.06891099458691642
-0.1972399999999992,0.002235502229464114,-0.1972399999999992,0.06892840307887116
-0.1971999999999992,0.00223597239922745,-0.1971999999999992,0.06894581360238407
-0.1971599999999991,0.002236442576864931,-0.1971599999999991,0.06896322615741957
-0.1971199999999991,0.002236912762359709,-0.1971199999999991,0.06898064074394211
-0.1970799999999991,0.002237382955694934,-0.1970799999999991,0.0689980573619164
-0.1970399999999991,0.002237853156853761,-0.1970399999999991,0.06901547601130711
-0.1969999999999991,0.002238323365819343,-0.1969999999999991,0.06903289669207896
-0.1969599999999991,0.002238793582574837,-0.1969599999999991,0.06905031940419692
-0.1969199999999991,0.002239263807103401,-0.1969199999999991,0.06906774414762595
-0.1968799999999991,0.00223973403938819,-0.1968799999999991,0.06908517092233103
-0.196839999999999,0.002240204279412364,-0.196839999999999,0.06910259972827733
-0.196799999999999,0.002240674527159085,-0.196799999999999,0.06912003056543009
-0.196759999999999,0.002241144782611514,-0.196759999999999,0.06913746343375458
-0.196719999999999,0.002241615045752814,-0.196719999999999,0.06915489833321627
-0.196679999999999,0.002242085316566149,-0.196679999999999,0.06917233526378062
-0.196639999999999,0.002242555595034678,-0.196639999999999,0.06918977422541307
-0.196599999999999,0.002243025881141574,-0.196599999999999,0.06920721521807935
-0.196559999999999,0.002243496174870002,-0.196559999999999,0.0692246582417452
-0.1965199999999989,0.002243966476203134,-0.1965199999999989,0.06924210329637653
-0.1964799999999989,0.002244436785124138,-0.1964799999999989,0.06925955038193922
-0.1964399999999989,0.002244907101616178,-0.1964399999999989,0.06927699949839904
-0.1963999999999989,0.002245377425662433,-0.1963999999999989,0.06929445064572233
-0.1963599999999989,0.002245847757246078,-0.1963599999999989,0.06931190382387527
-0.1963199999999989,0.002246318096350281,-0.1963199999999989,0.06932935903282396
-0.1962799999999989,0.002246788442958217,-0.1962799999999989,0.06934681627253482
-0.1962399999999989,0.002247258797053072,-0.1962399999999989,0.06936427554297428
-0.1961999999999988,0.002247729158618015,-0.1961999999999988,0.06938173684410885
-0.1961599999999988,0.002248199527636225,-0.1961599999999988,0.06939920017590513
-0.1961199999999988,0.002248669904090886,-0.1961199999999988,0.0694166655383298
-0.1960799999999988,0.002249140287965176,-0.1960799999999988,0.06943413293134959
-0.1960399999999988,0.00224961067924228,-0.1960399999999988,0.06945160235493146
-0.1959999999999988,0.002250081077905384,-0.1959999999999988,0.06946907380904234
-0.1959599999999988,0.002250551483937665,-0.1959599999999988,0.06948654729364917
-0.1959199999999988,0.002251021897322312,-0.1959199999999988,0.0695040228087191
-0.1958799999999987,0.002251492318042515,-0.1958799999999987,0.06952150035421945
-0.1958399999999987,0.002251962746081457,-0.1958399999999987,0.06953897993011735
-0.1957999999999987,0.002252433181422332,-0.1957999999999987,0.06955646153638027
-0.1957599999999987,0.002252903624048325,-0.1957599999999987,0.06957394517297559
-0.1957199999999987,0.002253374073942634,-0.1957199999999987,0.069591430839871
-0.1956799999999987,0.002253844531088446,-0.1956799999999987,0.06960891853703402
-0.1956399999999987,0.002254314995468958,-0.1956399999999987,0.06962640826443242
-0.1955999999999987,0.002254785467067365,-0.1955999999999987,0.06964390002203405
-0.1955599999999987,0.002255255945866859,-0.1955599999999987,0.06966139380980668
-0.1955199999999986,0.002255726431850642,-0.1955199999999986,0.06967888962771844
-0.1954799999999986,0.002256196925001912,-0.1954799999999986,0.0696963874757373
-0.1954399999999986,0.002256667425303862,-0.1954399999999986,0.0697138873538314
-0.1953999999999986,0.002257137932739702,-0.1953999999999986,0.06973138926196912
-0.1953599999999986,0.002257608447292627,-0.1953599999999986,0.06974889320011862
-0.1953199999999986,0.002258078968945844,-0.1953199999999986,0.06976639916824844
-0.1952799999999986,0.002258549497682555,-0.1952799999999986,0.06978390716632706
-0.1952399999999986,0.002259020033485962,-0.1952399999999986,0.0698014171943229
-0.1951999999999985,0.002259490576339277,-0.1951999999999985,0.06981892925220488
-0.1951599999999985,0.002259961126225705,-0.1951599999999985,0.06983644333994161
-0.1951199999999985,0.002260431683128453,-0.1951199999999985,0.06985395945750199
-0.1950799999999985,0.002260902247030733,-0.1950799999999985,0.06987147760485489
-0.1950399999999985,0.002261372817915754,-0.1950399999999985,0.06988899778196943
-0.1949999999999985,0.002261843395766729,-0.1949999999999985,0.0699065199888147
-0.1949599999999985,0.002262313980566869,-0.1949599999999985,0.06992404422535978
-0.1949199999999985,0.00226278457229939,-0.1949199999999985,0.06994157049157401
-0.1948799999999984,0.002263255170947511,-0.1948799999999984,0.06995909878742684
-0.1948399999999984,0.00226372577649444,-0.1948399999999984,0.06997662911288757
-0.1947999999999984,0.0022641963889234,-0.1947999999999984,0.06999416146792585
-0.1947599999999984,0.002264667008217608,-0.1947599999999984,0.07001169585251128
-0.1947199999999984,0.002265137634360285,-0.1947199999999984,0.07002923226661355
-0.1946799999999984,0.00226560826733465,-0.1946799999999984,0.07004677071020243
-0.1946399999999984,0.002266078907123929,-0.1946399999999984,0.07006431118324789
-0.1945999999999984,0.002266549553711342,-0.1945999999999984,0.07008185368571983
-0.1945599999999983,0.002267020207080109,-0.1945599999999983,0.07009939821758827
-0.1945199999999983,0.002267490867213466,-0.1945199999999983,0.07011694477882358
-0.1944799999999983,0.002267961534094627,-0.1944799999999983,0.07013449336939562
-0.1944399999999983,0.002268432207706829,-0.1944399999999983,0.07015204398927496
-0.1943999999999983,0.0022689028880333,-0.1943999999999983,0.07016959663843203
-0.1943599999999983,0.002269373575057263,-0.1943599999999983,0.0701871513168371
-0.1943199999999983,0.002269844268761954,-0.1943199999999983,0.07020470802446095
-0.1942799999999983,0.002270314969130608,-0.1942799999999983,0.07022226676127422
-0.1942399999999982,0.00227078567614645,-0.1942399999999982,0.07023982752724753
-0.1941999999999982,0.002271256389792722,-0.1941999999999982,0.07025739032235186
-0.1941599999999982,0.002271727110052652,-0.1941599999999982,0.07027495514655799
-0.1941199999999982,0.002272197836909485,-0.1941199999999982,0.07029252199983706
-0.1940799999999982,0.00227266857034645,-0.1940799999999982,0.07031009088216006
-0.1940399999999982,0.00227313931034679,-0.1940399999999982,0.0703276617934982
-0.1939999999999982,0.002273610056893746,-0.1939999999999982,0.07034523473382281
-0.1939599999999982,0.002274080809970559,-0.1939599999999982,0.07036280970310518
-0.1939199999999981,0.002274551569560468,-0.1939199999999981,0.07038038670131677
-0.1938799999999981,0.002275022335646717,-0.1938799999999981,0.07039796572842917
-0.1938399999999981,0.00227549310821255,-0.1938399999999981,0.07041554678441383
-0.1937999999999981,0.002275963887241213,-0.1937999999999981,0.07043312986924256
-0.1937599999999981,0.002276434672715952,-0.1937599999999981,0.07045071498288717
-0.1937199999999981,0.002276905464620015,-0.1937199999999981,0.07046830212531953
-0.1936799999999981,0.002277376262936652,-0.1936799999999981,0.07048589129651148
-0.1936399999999981,0.002277847067649108,-0.1936399999999981,0.07050348249643519
-0.1935999999999981,0.002278317878740638,-0.1935999999999981,0.07052107572506276
-0.193559999999998,0.002278788696194492,-0.193559999999998,0.07053867098236639
-0.193519999999998,0.002279259519993926,-0.193519999999998,0.07055626826831846
-0.193479999999998,0.002279730350122189,-0.193479999999998,0.07057386758289122
-0.193439999999998,0.00228020118656254,-0.193439999999998,0.07059146892605728
-0.193399999999998,0.002280672029298234,-0.193399999999998,0.07060907229778919
-0.193359999999998,0.002281142878312528,-0.193359999999998,0.07062667769805948
-0.193319999999998,0.002281613733588682,-0.193319999999998,0.07064428512684108
-0.193279999999998,0.002282084595109953,-0.193279999999998,0.07066189458410665
-0.1932399999999979,0.002282555462859603,-0.1932399999999979,0.07067950606982921
-0.1931999999999979,0.002283026336820893,-0.1931999999999979,0.07069711958398166
-0.1931599999999979,0.002283497216977088,-0.1931599999999979,0.07071473512653713
-0.1931199999999979,0.002283968103311448,-0.1931199999999979,0.07073235269746884
-0.1930799999999979,0.002284438995807244,-0.1930799999999979,0.07074997229675006
-0.1930399999999979,0.002284909894447733,-0.1930399999999979,0.070767593924354
-0.1929999999999979,0.002285380799216191,-0.1929999999999979,0.07078521758025423
-0.1929599999999979,0.002285851710095882,-0.1929599999999979,0.07080284326442422
-0.1929199999999978,0.002286322627070074,-0.1929199999999978,0.07082047097683754
-0.1928799999999978,0.00228679355012204,-0.1928799999999978,0.07083810071746793
-0.1928399999999978,0.002287264479235051,-0.1928399999999978,0.07085573248628914
-0.1927999999999978,0.00228773541439238,-0.1927999999999978,0.07087336628327509
-0.1927599999999978,0.002288206355577296,-0.1927599999999978,0.07089100210839962
-0.1927199999999978,0.00228867730277308,-0.1927199999999978,0.07090863996163686
-0.1926799999999978,0.002289148255963002,-0.1926799999999978,0.07092627984296089
-0.1926399999999978,0.002289619215130349,-0.1926399999999978,0.07094392175234607
-0.1925999999999977,0.002290090180258384,-0.1925999999999977,0.07096156568976641
-0.1925599999999977,0.002290561151330398,-0.1925599999999977,0.07097921165519658
-0.1925199999999977,0.002291032128329663,-0.1925199999999977,0.07099685964861081
-0.1924799999999977,0.002291503111239468,-0.1924799999999977,0.07101450966998386
-0.1924399999999977,0.002291974100043089,-0.1924399999999977,0.07103216171929026
-0.1923999999999977,0.002292445094723812,-0.1923999999999977,0.07104981579650478
-0.1923599999999977,0.002292916095264918,-0.1923599999999977,0.07106747190160224
-0.1923199999999977,0.002293387101649699,-0.1923199999999977,0.07108513003455758
-0.1922799999999976,0.002293858113861435,-0.1922799999999976,0.07110279019534575
-0.1922399999999976,0.002294329131883414,-0.1922399999999976,0.0711204523839417
-0.1921999999999976,0.002294800155698927,-0.1921999999999976,0.07113811660032081
-0.1921599999999976,0.002295271185291266,-0.1921599999999976,0.07115578284445823
-0.1921199999999976,0.002295742220643717,-0.1921199999999976,0.07117345111632933
-0.1920799999999976,0.002296213261739574,-0.1920799999999976,0.07119112141590951
-0.1920399999999976,0.00229668430856213,-0.1920399999999976,0.07120879374317432
-0.1919999999999976,0.002297155361094678,-0.1919999999999976,0.07122646809809936
-0.1919599999999975,0.002297626419320513,-0.1919599999999975,0.07124414448066026
-0.1919199999999975,0.00229809748322293,-0.1919199999999975,0.07126182289083274
-0.1918799999999975,0.002298568552785228,-0.1918799999999975,0.07127950332859279
-0.1918399999999975,0.002299039627990703,-0.1918399999999975,0.07129718579391633
-0.1917999999999975,0.002299510708822659,-0.1917999999999975,0.07131487028677938
-0.1917599999999975,0.00229998179526439,-0.1917599999999975,0.07133255680715801
-0.1917199999999975,0.002300452887299201,-0.1917199999999975,0.07135024535502847
-0.1916799999999975,0.002300923984910391,-0.1916799999999975,0.07136793593036694
-0.1916399999999975,0.00230139508808127,-0.1916399999999975,0.07138562853315013
-0.1915999999999974,0.002301866196795135,-0.1915999999999974,0.0714033231633541
-0.1915599999999974,0.002302337311035299,-0.1915599999999974,0.07142101982095576
-0.1915199999999974,0.00230280843078506,-0.1915199999999974,0.07143871850593143
-0.1914799999999974,0.002303279556027731,-0.1914799999999974,0.07145641921825803
-0.1914399999999974,0.002303750686746618,-0.1914399999999974,0.07147412195791231
-0.1913999999999974,0.002304221822925037,-0.1913999999999974,0.07149182672487125
-0.1913599999999974,0.002304692964546291,-0.1913599999999974,0.07150953351911173
-0.1913199999999974,0.002305164111593694,-0.1913199999999974,0.07152724234061089
-0.1912799999999973,0.00230563526405056,-0.1912799999999973,0.07154495318934584
-0.1912399999999973,0.002306106421900202,-0.1912399999999973,0.07156266606529382
-0.1911999999999973,0.002306577585125935,-0.1911999999999973,0.07158038096843232
-0.1911599999999973,0.002307048753711076,-0.1911599999999973,0.07159809789873857
-0.1911199999999973,0.002307519927638941,-0.1911199999999973,0.0716158168561902
-0.1910799999999973,0.002307991106892849,-0.1910799999999973,0.0716335378407647
-0.1910399999999973,0.002308462291456118,-0.1910399999999973,0.0716512608524399
-0.1909999999999973,0.002308933481312069,-0.1909999999999973,0.07166898589119343
-0.1909599999999972,0.002309404676444019,-0.1909599999999972,0.07168671295700314
-0.1909199999999972,0.0023098758768353,-0.1909199999999972,0.07170444204984715
-0.1908799999999972,0.002310347082469225,-0.1908799999999972,0.07172217316970329
-0.1908399999999972,0.002310818293329122,-0.1908399999999972,0.07173990631654975
-0.1907999999999972,0.002311289509398318,-0.1907999999999972,0.07175764149036482
-0.1907599999999972,0.002311760730660136,-0.1907599999999972,0.07177537869112659
-0.1907199999999972,0.002312231957097908,-0.1907199999999972,0.07179311791881365
-0.1906799999999972,0.002312703188694957,-0.1906799999999972,0.07181085917340438
-0.1906399999999971,0.002313174425434618,-0.1906399999999971,0.07182860245487732
-0.1905999999999971,0.002313645667300213,-0.1905999999999971,0.07184634776321097
-0.1905599999999971,0.002314116914275083,-0.1905599999999971,0.07186409509838439
-0.1905199999999971,0.002314588166342556,-0.1905199999999971,0.07188184446037608
-0.1904799999999971,0.002315059423485964,-0.1904799999999971,0.07189959584916507
-0.1904399999999971,0.002315530685688645,-0.1904399999999971,0.07191734926473037
-0.1903999999999971,0.002316001952933934,-0.1903999999999971,0.07193510470705099
-0.1903599999999971,0.002316473225205165,-0.1903599999999971,0.07195286217610611
-0.190319999999997,0.002316944502485677,-0.190319999999997,0.071970621671875
-0.190279999999997,0.002317415784758808,-0.190279999999997,0.07198838319433694
-0.190239999999997,0.0023178870720079,-0.190239999999997,0.07200614674347136
-0.190199999999997,0.002318358364216291,-0.190199999999997,0.07202391231925781
-0.190159999999997,0.002318829661367325,-0.190159999999997,0.07204167992167584
-0.190119999999997,0.002319300963444343,-0.190119999999997,0.07205944955070523
