;Version, 1, 0
;/vout,;/M1/D
;X, Y,;X, Y
;Re, Re,;Re, Re
;vin, V,;vin, I
;xunit, V,;xunit, A
-0.2,0.1795994168553489,-0.2,0.004362356179541073
-0.19996,0.1796428441865629,-0.19996,0.004362817917047993
-0.19992,0.1796775663874099,-0.19992,0.004363186899850589
-0.19988,0.1797122910634936,-0.19988,0.00436355573288597
-0.19984,0.1797470182148219,-0.19984,0.004363924416120603
-0.1997999999999999,0.1797817478414033,-0.1997999999999999,0.004364292949520962
-0.1997599999999999,0.1798164799432462,-0.1997599999999999,0.004364661333053531
-0.1997199999999999,0.1798512145203594,-0.1997199999999999,0.004365029566684774
-0.1996799999999999,0.1798859515727517,-0.1996799999999999,0.004365397650381173
-0.1996399999999999,0.1799206911004321,-0.1996399999999999,0.004365765584109205
-0.1995999999999999,0.17995543310341,-0.1995999999999999,0.004366133367835346
-0.1995599999999999,0.1799901775816947,-0.1995599999999999,0.004366501001526077
-0.1995199999999999,0.180024924535296,-0.1995199999999999,0.004366868485147871
-0.1994799999999999,0.1800596739642234,-0.1994799999999999,0.004367235818667217
-0.1994399999999998,0.1800944258684872,-0.1994399999999998,0.004367603002050594
-0.1993999999999998,0.1801291802480974,-0.1993999999999998,0.004367970035264477
-0.1993599999999998,0.1801639371030643,-0.1993599999999998,0.004368336918275349
-0.1993199999999998,0.1801986964333986,-0.1993199999999998,0.004368703651049697
-0.1992799999999998,0.1802334582391109,-0.1992799999999998,0.004369070233553998
-0.1992399999999998,0.1802682225202122,-0.1992399999999998,0.004369436665754743
-0.1991999999999998,0.1803029892767136,-0.1991999999999998,0.004369802947618413
-0.1991599999999998,0.1803377585086263,-0.1991599999999998,0.004370169079111491
-0.1991199999999997,0.1803725302159618,-0.1991199999999997,0.004370535060200466
-0.1990799999999997,0.1804073043987319,-0.1990799999999997,0.004370900890851822
-0.1990399999999997,0.1804420810569482,-0.1990399999999997,0.004371266571032052
-0.1989999999999997,0.1804768601906228,-0.1989999999999997,0.004371632100707634
-0.1989599999999997,0.1805116417997681,-0.1989599999999997,0.004371997479845063
-0.1989199999999997,0.1805464258843961,-0.1989199999999997,0.004372362708410824
-0.1988799999999997,0.1805812124445198,-0.1988799999999997,0.004372727786371412
-0.1988399999999997,0.1806160014801517,-0.1988399999999997,0.004373092713693312
-0.1987999999999996,0.1806507929913049,-0.1987999999999996,0.00437345749034302
-0.1987599999999996,0.1806855869779926,-0.1987599999999996,0.004373822116287021
-0.1987199999999996,0.1807203834402278,-0.1987199999999996,0.004374186591491807
-0.1986799999999996,0.1807551823780243,-0.1986799999999996,0.00437455091592388
-0.1986399999999996,0.1807899837913957,-0.1986399999999996,0.004374915089549724
-0.1985999999999996,0.180824787680356,-0.1985999999999996,0.004375279112335837
-0.1985599999999996,0.1808595940449189,-0.1985599999999996,0.00437564298424871
-0.1985199999999996,0.1808944028850991,-0.1985199999999996,0.004376006705254841
-0.1984799999999995,0.1809292142009109,-0.1984799999999995,0.004376370275320726
-0.1984399999999995,0.1809640279923689,-0.1984399999999995,0.004376733694412857
-0.1983999999999995,0.1809988442594878,-0.1983999999999995,0.004377096962497737
-0.1983599999999995,0.1810336630022827,-0.1983599999999995,0.004377460079541857
-0.1983199999999995,0.1810684842207688,-0.1983199999999995,0.00437782304551172
-0.1982799999999995,0.1811033079149614,-0.1982799999999995,0.004378185860373819
-0.1982399999999995,0.1811381340848762,-0.1982399999999995,0.004378548524094653
-0.1981999999999995,0.1811729627305288,-0.1981999999999995,0.004378911036640733
-0.1981599999999994,0.1812077938519351,-0.1981599999999994,0.004379273397978545
-0.1981199999999994,0.1812426274491113,-0.1981199999999994,0.004379635608074594
-0.1980799999999994,0.1812774635220738,-0.1980799999999994,0.004379997666895384
-0.1980399999999994,0.1813123020708389,-0.1980399999999994,0.004380359574407416
-0.1979999999999994,0.1813471430954234,-0.1979999999999994,0.004380721330577185
-0.1979599999999994,0.1813819865958442,-0.1979599999999994,0.004381082935371205
-0.1979199999999994,0.1814168325721182,-0.1979199999999994,0.004381444388755974
-0.1978799999999994,0.1814516810242626,-0.1978799999999994,0.004381805690697993
-0.1978399999999993,0.181486531952295,-0.1978399999999993,0.00438216684116377
-0.1977999999999993,0.181521385356233,-0.1977999999999993,0.004382527840119808
-0.1977599999999993,0.1815562412360943,-0.1977599999999993,0.004382888687532615
-0.1977199999999993,0.1815910995918969,-0.1977199999999993,0.004383249383368693
-0.1976799999999993,0.181625960423659,-0.1976799999999993,0.00438360992759455
-0.1976399999999993,0.1816608237313988,-0.1976399999999993,0.004383970320176691
-0.1975999999999993,0.1816956895151351,-0.1975999999999993,0.004384330561081627
-0.1975599999999993,0.1817305577748866,-0.1975599999999993,0.004384690650275865
-0.1975199999999993,0.181765428510672,-0.1975199999999993,0.004385050587725909
-0.1974799999999992,0.1818003017225104,-0.1974799999999992,0.004385410373398271
-0.1974399999999992,0.1818351774104214,-0.1974399999999992,0.004385770007259459
-0.1973999999999992,0.1818700555744242,-0.1973999999999992,0.004386129489275986
-0.1973599999999992,0.1819049362145386,-0.1973599999999992,0.004386488819414357
-0.1973199999999992,0.1819398193307844,-0.1973199999999992,0.004386847997641087
-0.1972799999999992,0.1819747049231817,-0.1972799999999992,0.004387207023922683
-0.1972399999999992,0.1820095929917506,-0.1972399999999992,0.00438756589822566
-0.1971999999999992,0.1820444835365116,-0.1971999999999992,0.004387924620516528
-0.1971599999999991,0.1820793765574854,-0.1971599999999991,0.004388283190761804
-0.1971199999999991,0.1821142720546925,-0.1971199999999991,0.004388641608927992
-0.1970799999999991,0.1821491700281542,-0.1970799999999991,0.00438899987498161
-0.1970399999999991,0.1821840704778914,-0.1970399999999991,0.004389357988889172
-0.1969999999999991,0.1822189734039257,-0.1969999999999991,0.004389715950617191
-0.1969599999999991,0.1822538788062784,-0.1969599999999991,0.004390073760132183
-0.1969199999999991,0.1822887866849714,-0.1969199999999991,0.004390431417400664
-0.1968799999999991,0.1823236970400265,-0.1968799999999991,0.004390788922389144
-0.196839999999999,0.1823586098714658,-0.196839999999999,0.004391146275064144
-0.196799999999999,0.1823935251793117,-0.196799999999999,0.004391503475392179
-0.196759999999999,0.1824284429635867,-0.196759999999999,0.004391860523339766
-0.196719999999999,0.1824633632243133,-0.196719999999999,0.004392217418873416
-0.196679999999999,0.1824982859615144,-0.196679999999999,0.004392574161959657
-0.196639999999999,0.1825332111752131,-0.196639999999999,0.004392930752564998
-0.196599999999999,0.1825681388654325,-0.196599999999999,0.004393287190655958
-0.196559999999999,0.1826030690321962,-0.196559999999999,0.004393643476199065
-0.1965199999999989,0.1826380016755277,-0.1965199999999989,0.004393999609160818
-0.1964799999999989,0.1826729367954509,-0.1964799999999989,0.004394355589507765
-0.1964399999999989,0.1827078743919896,-0.1964399999999989,0.004394711417206397
-0.1963999999999989,0.182742814465168,-0.1963999999999989,0.004395067092223249
-0.1963599999999989,0.1827777570150108,-0.1963599999999989,0.004395422614524843
-0.1963199999999989,0.182812702041542,-0.1963199999999989,0.00439577798407769
-0.1962799999999989,0.1828476495447867,-0.1962799999999989,0.004396133200848322
-0.1962399999999989,0.1828825995247697,-0.1962399999999989,0.00439648826480325
-0.1961999999999988,0.1829175519815161,-0.1961999999999988,0.004396843175909004
-0.1961599999999988,0.1829525069150513,-0.1961599999999988,0.004397197934132104
-0.1961199999999988,0.1829874643254006,-0.1961199999999988,0.004397552539439065
-0.1960799999999988,0.1830224242125899,-0.1960799999999988,0.00439790699179642
-0.1960399999999988,0.1830573865766449,-0.1960399999999988,0.00439826129117069
-0.1959999999999988,0.1830923514175918,-0.1959999999999988,0.004398615437528394
-0.1959599999999988,0.1831273187354567,-0.1959599999999988,0.00439896943083606
-0.1959199999999988,0.1831622885302659,-0.1959199999999988,0.004399323271060207
-0.1958799999999987,0.1831972608020465,-0.1958799999999987,0.004399676958167366
-0.1958399999999987,0.1832322355508247,-0.1958399999999987,0.004400030492124053
-0.1957999999999987,0.1832672127766281,-0.1957999999999987,0.004400383872896803
-0.1957599999999987,0.1833021924794835,-0.1957599999999987,0.004400737100452136
-0.1957199999999987,0.1833371746594182,-0.1957199999999987,0.004401090174756577
-0.1956799999999987,0.1833721593164601,-0.1956799999999987,0.004401443095776651
-0.1956399999999987,0.1834071464506366,-0.1956399999999987,0.004401795863478887
-0.1955999999999987,0.183442136061976,-0.1955999999999987,0.00440214847782981
-0.1955599999999987,0.1834771281505062,-0.1955599999999987,0.004402500938795953
-0.1955199999999986,0.1835121227162556,-0.1955199999999986,0.00440285324634383
-0.1954799999999986,0.1835471197592526,-0.1954799999999986,0.004403205400439976
-0.1954399999999986,0.1835821192795261,-0.1954399999999986,0.004403557401050919
-0.1953999999999986,0.1836171212771046,-0.1953999999999986,0.004403909248143185
-0.1953599999999986,0.1836521257520177,-0.1953599999999986,0.0044042609416833
-0.1953199999999986,0.1836871327042943,-0.1953199999999986,0.004404612481637798
-0.1952799999999986,0.183722142133964,-0.1952799999999986,0.004404963867973202
-0.1952399999999986,0.1837571540410564,-0.1952399999999986,0.004405315100656046
-0.1951999999999985,0.1837921684256013,-0.1951999999999985,0.004405666179652851
-0.1951599999999985,0.1838271852876287,-0.1951599999999985,0.00440601710493015
-0.1951199999999985,0.1838622046271689,-0.1951199999999985,0.004406367876454478
-0.1950799999999985,0.1838972264442524,-0.1950799999999985,0.004406718494192358
-0.1950399999999985,0.1839322507389095,-0.1950399999999985,0.004407068958110322
-0.1949999999999985,0.1839672775111713,-0.1949999999999985,0.004407419268174902
-0.1949599999999985,0.1840023067610685,-0.1949599999999985,0.004407769424352623
-0.1949199999999985,0.1840373384886324,-0.1949199999999985,0.004408119426610019
-0.1948799999999984,0.1840723726938945,-0.1948799999999984,0.004408469274913622
-0.1948399999999984,0.184107409376886,-0.1948399999999984,0.004408818969229957
-0.1947999999999984,0.1841424485376388,-0.1947999999999984,0.004409168509525564
-0.1947599999999984,0.1841774901761849,-0.1947599999999984,0.004409517895766968
-0.1947199999999984,0.1842125342925564,-0.1947199999999984,0.004409867127920703
-0.1946799999999984,0.1842475808867854,-0.1946799999999984,0.004410216205953298
-0.1946399999999984,0.1842826299589046,-0.1946399999999984,0.004410565129831289
-0.1945999999999984,0.1843176815089467,-0.1945999999999984,0.004410913899521208
-0.1945599999999983,0.1843527355369443,-0.1945599999999983,0.004411262514989578
-0.1945199999999983,0.1843877920429308,-0.1945199999999983,0.004411610976202946
-0.1944799999999983,0.1844228510269392,-0.1944799999999983,0.004411959283127829
-0.1944399999999983,0.184457912489003,-0.1944399999999983,0.004412307435730771
-0.1943999999999983,0.184492976429156,-0.1943999999999983,0.004412655433978304
-0.1943599999999983,0.1845280428474319,-0.1943599999999983,0.004413003277836954
-0.1943199999999983,0.1845631117438647,-0.1943199999999983,0.004413350967273263
-0.1942799999999983,0.1845981831184886,-0.1942799999999983,0.004413698502253757
-0.1942399999999982,0.184633256971338,-0.1942399999999982,0.004414045882744973
-0.1941999999999982,0.1846683333024474,-0.1941999999999982,0.00441439310871344
-0.1941599999999982,0.1847034121118518,-0.1941599999999982,0.004414740180125699
-0.1941199999999982,0.184738493399586,-0.1941199999999982,0.00441508709694828
-0.1940799999999982,0.1847735771656853,-0.1940799999999982,0.004415433859147716
-0.1940399999999982,0.1848086634101848,-0.1940399999999982,0.004415780466690541
-0.1939999999999982,0.1848437521331202,-0.1939999999999982,0.004416126919543291
-0.1939599999999982,0.1848788433345273,-0.1939599999999982,0.004416473217672499
-0.1939199999999981,0.1849139370144419,-0.1939199999999981,0.004416819361044698
-0.1938799999999981,0.1849490331729002,-0.1938799999999981,0.00441716534962643
-0.1938399999999981,0.1849841318099384,-0.1938399999999981,0.004417511183384217
-0.1937999999999981,0.185019232925593,-0.1937999999999981,0.004417856862284601
-0.1937599999999981,0.1850543365199008,-0.1937599999999981,0.004418202386294121
-0.1937199999999981,0.1850894425928986,-0.1937199999999981,0.004418547755379304
-0.1936799999999981,0.1851245511446236,-0.1936799999999981,0.004418892969506685
-0.1936399999999981,0.1851596621751127,-0.1936399999999981,0.004419238028642802
-0.1935999999999981,0.1851947756844037,-0.1935999999999981,0.004419582932754191
-0.193559999999998,0.1852298916725341,-0.193559999999998,0.004419927681807388
-0.193519999999998,0.1852650101395418,-0.193519999999998,0.004420272275768922
-0.193479999999998,0.1853001310854648,-0.193479999999998,0.00442061671460533
-0.193439999999998,0.1853352545103413,-0.193439999999998,0.004420960998283151
-0.193399999999998,0.1853703804142096,-0.193399999999998,0.004421305126768918
-0.193359999999998,0.1854055087971085,-0.193359999999998,0.004421649100029168
-0.193319999999998,0.1854406396590768,-0.193319999999998,0.004421992918030433
-0.193279999999998,0.1854757730001534,-0.193279999999998,0.004422336580739252
-0.1932399999999979,0.1855109088203773,-0.1932399999999979,0.004422680088122161
-0.1931999999999979,0.1855460471197881,-0.1931999999999979,0.004423023440145689
-0.1931599999999979,0.1855811878984253,-0.1931599999999979,0.004423366636776376
-0.1931199999999979,0.1856163311563286,-0.1931199999999979,0.004423709677980758
-0.1930799999999979,0.185651476893538,-0.1930799999999979,0.004424052563725368
-0.1930399999999979,0.1856866251100936,-0.1930399999999979,0.004424395293976745
-0.1929999999999979,0.1857217758060357,-0.1929999999999979,0.004424737868701419
-0.1929599999999979,0.1857569289814048,-0.1929599999999979,0.004425080287865929
-0.1929199999999978,0.1857920846362418,-0.1929199999999978,0.004425422551436815
-0.1928799999999978,0.1858272427705875,-0.1928799999999978,0.004425764659380604
-0.1928399999999978,0.1858624033844829,-0.1928399999999978,0.004426106611663836
-0.1927999999999978,0.1858975664779693,-0.1927999999999978,0.004426448408253049
-0.1927599999999978,0.1859327320510883,-0.1927599999999978,0.004426790049114772
-0.1927199999999978,0.1859679001038815,-0.1927199999999978,0.004427131534215544
-0.1926799999999978,0.1860030706363908,-0.1926799999999978,0.004427472863521902
-0.1926399999999978,0.1860382436486581,-0.1926399999999978,0.004427814037000378
-0.1925999999999977,0.1860734191407259,-0.1925999999999977,0.004428155054617509
-0.1925599999999977,0.1861085971126364,-0.1925599999999977,0.00442849591633983
-0.1925199999999977,0.1861437775644325,-0.1925199999999977,0.004428836622133878
-0.1924799999999977,0.1861789604961567,-0.1924799999999977,0.004429177171966176
-0.1924399999999977,0.1862141459078523,-0.1924399999999977,0.004429517565803276
-0.1923999999999977,0.1862493337995624,-0.1923999999999977,0.004429857803611708
-0.1923599999999977,0.1862845241713303,-0.1923599999999977,0.004430197885358002
-0.1923199999999977,0.1863197170231999,-0.1923199999999977,0.004430537811008699
-0.1922799999999976,0.1863549123552148,-0.1922799999999976,0.004430877580530332
-0.1922399999999976,0.1863901101674189,-0.1922399999999976,0.004431217193889434
-0.1921999999999976,0.1864253104598565,-0.1921999999999976,0.004431556651052535
-0.1921599999999976,0.1864605132325719,-0.1921599999999976,0.004431895951986181
-0.1921199999999976,0.1864957184856097,-0.1921199999999976,0.004432235096656898
-0.1920799999999976,0.1865309262190147,-0.1920799999999976,0.004432574085031222
-0.1920399999999976,0.1865661364328318,-0.1920399999999976,0.004432912917075688
-0.1919999999999976,0.1866013491271061,-0.1919999999999976,0.00443325159275683
-0.1919599999999975,0.186636564301883,-0.1919599999999975,0.004433590112041181
-0.1919199999999975,0.1866717819572082,-0.1919199999999975,0.00443392847489528
-0.1918799999999975,0.186707002093127,-0.1918799999999975,0.004434266681285653
-0.1918399999999975,0.1867422247096856,-0.1918399999999975,0.004434604731178838
-0.1917999999999975,0.18677744980693,-0.1917999999999975,0.004434942624541368
-0.1917599999999975,0.1868126773849068,-0.1917599999999975,0.004435280361339777
-0.1917199999999975,0.1868479074436621,-0.1917199999999975,0.004435617941540599
-0.1916799999999975,0.1868831399832429,-0.1916799999999975,0.004435955365110369
-0.1916399999999975,0.1869183750036958,-0.1916399999999975,0.004436292632015611
-0.1915999999999974,0.1869536125050681,-0.1915999999999974,0.004436629742222867
-0.1915599999999974,0.1869888524874069,-0.1915599999999974,0.004436966695698665
-0.1915199999999974,0.1870240949507598,-0.1915199999999974,0.004437303492409539
-0.1914799999999974,0.1870593398951745,-0.1914799999999974,0.004437640132322025
-0.1914399999999974,0.1870945873206987,-0.1914399999999974,0.00443797661540265
-0.1913999999999974,0.1871298372273805,-0.1913999999999974,0.004438312941617943
-0.1913599999999974,0.1871650896152683,-0.1913599999999974,0.004438649110934449
-0.1913199999999974,0.1872003444844103,-0.1913199999999974,0.004438985123318689
-0.1912799999999973,0.1872356018348553,-0.1912799999999973,0.004439320978737194
-0.1912399999999973,0.187270861666652,-0.1912399999999973,0.0044396566771565
-0.1911999999999973,0.1873061239798495,-0.1911999999999973,0.004439992218543136
-0.1911599999999973,0.187341388774497,-0.1911599999999973,0.004440327602863635
-0.1911199999999973,0.1873766560506439,-0.1911199999999973,0.004440662830084522
-0.1910799999999973,0.1874119258083399,-0.1910799999999973,0.00444099790017234
-0.1910399999999973,0.1874471980476345,-0.1910399999999973,0.004441332813093604
-0.1909999999999973,0.1874824727685781,-0.1909999999999973,0.004441667568814855
-0.1909599999999972,0.1875177499712206,-0.1909599999999972,0.004442002167302616
-0.1909199999999972,0.1875530296556124,-0.1909199999999972,0.004442336608523421
-0.1908799999999972,0.1875883118218042,-0.1908799999999972,0.0044426708924438
-0.1908399999999972,0.1876235964698467,-0.1908399999999972,0.004443005019030275
-0.1907999999999972,0.1876588835997909,-0.1907999999999972,0.004443338988249388
-0.1907599999999972,0.1876941732116878,-0.1907599999999972,0.004443672800067657
-0.1907199999999972,0.1877294653055891,-0.1907199999999972,0.00444400645445161
-0.1906799999999972,0.1877647598815459,-0.1906799999999972,0.004444339951367783
-0.1906399999999971,0.1878000569396104,-0.1906399999999971,0.004444673290782701
-0.1905999999999971,0.1878353564798342,-0.1905999999999971,0.004445006472662888
-0.1905599999999971,0.1878706585022696,-0.1905599999999971,0.004445339496974874
-0.1905199999999971,0.1879059630069689,-0.1905199999999971,0.004445672363685186
-0.1904799999999971,0.1879412699939845,-0.1904799999999971,0.004446005072760353
-0.1904399999999971,0.1879765794633694,-0.1904399999999971,0.004446337624166898
-0.1903999999999971,0.1880118914151762,-0.1903999999999971,0.004446670017871352
-0.1903599999999971,0.1880472058494582,-0.1903599999999971,0.004447002253840232
-0.190319999999997,0.1880825227662688,-0.190319999999997,0.004447334332040077
-0.190279999999997,0.1881178421656613,-0.190279999999997,0.004447666252437402
-0.190239999999997,0.1881531640476894,-0.190239999999997,0.004447998014998738
-0.190199999999997,0.1881884884124072,-0.190199999999997,0.004448329619690609
-0.190159999999997,0.1882238152598685,-0.190159999999997,0.004448661066479534
-0.190119999999997,0.1882591445901278,-0.190119999999997,0.004448992355332045
-0.190079999999997,0.1882944764032396,-0.190079999999997,0.004449323486214663
-0.190039999999997,0.1883298106992584,-0.190039999999997,0.004449654459093907
-0.1899999999999969,0.1883651474782391,-0.1899999999999969,0.004449985273936307
