;Version, 1, 0
;vout (VCTRL=0.02),;vout (VCTRL=0.04),;vout (VCTRL=0.06),;vout (VCTRL=0.08),;vout (VCTRL=0.1),;vout (VCTRL=0.12),;vout (VCTRL=0.14),;vout (VCTRL=0.16),;vout (VCTRL=0.18),;vout (VCTRL=0.2)
;X, Y,;X, Y,;X, Y,;X, Y,;X, Y,;X, Y,;X, Y,;X, Y,;X, Y,;X, Y
;Re, Re,;Re, Re,;Re, Re,;Re, Re,;Re, Re,;Re, Re,;Re, Re,;Re, Re,;Re, Re,;Re, Re
;vin, V,;vin, V,;vin, V,;vin, V,;vin, V,;vin, V,;vin, V,;vin, V,;vin, V,;vin, V
;xunit, V,;xunit, V,;xunit, V,;xunit, V,;xunit, V,;xunit, V,;xunit, V,;xunit, V,;xunit, V,;xunit, V
-0.3,-0.1102870403103124,-0.3,-0.2197210359709934,-0.3,-0.3273755268392582,-0.3,-0.4322042164327282,-0.3,-0.5329856776474664,-0.3,-0.6282730124899191,-0.3,-0.7163744141580433,-0.3,-0.7954029469913343,-0.3,-0.8634534271659818,-0.3,-0.9189622588500612
-0.2999,-0.1102867299704087,-0.2999,-0.2197204472840693,-0.2999,-0.3273746562150286,-0.2999,-0.4322030168510111,-0.2999,-0.5329840664268948,-0.2999,-0.6282708684973095,-0.2999,-0.7163715688744278,-0.2999,-0.7953991781726099,-0.2999,-0.8634484535424991,-0.2999,-0.9189557661026987
-0.2998,-0.1102864189106394,-0.2998,-0.2197198574049959,-0.2998,-0.3273737839863131,-0.2998,-0.4322018153010663,-0.2998,-0.5329824527864067,-0.2998,-0.6282687214284137,-0.2998,-0.7163687205111334,-0.2998,-0.7953954046343247,-0.2998,-0.8634434738497142,-0.2998,-0.918949265296198
-0.2997,-0.1102861071278798,-0.2997,-0.2197192662969303,-0.2997,-0.3273729101447749,-0.2997,-0.432200611746328,-0.2997,-0.5329808366687554,-0.2997,-0.6282665712734039,-0.2997,-0.7163658682614221,-0.2997,-0.7953916261480606,-0.2997,-0.863438487815037,-0.2997,-0.9189427563753935
-0.2996,-0.1102857946193092,-0.2996,-0.2197186739553099,-0.2996,-0.3273720346848774,-0.2996,-0.4321994061804861,-0.2996,-0.5329792180667827,-0.2996,-0.6282644180240693,-0.2996,-0.7163630121157151,-0.2996,-0.7953878427024337,-0.2996,-0.8634334954247099,-0.2996,-0.9189362393234939
-0.2995,-0.1102854813820888,-0.2995,-0.2197180803755532,-0.2995,-0.3273711576010621,-0.2995,-0.4321981985972041,-0.2995,-0.5329775969733035,-0.2995,-0.6282622616721649,-0.2995,-0.7163601520643965,-0.2995,-0.795384054286016,-0.2995,-0.8634284966649286,-0.2995,-0.9189297141236558
-0.2994000000000001,-0.1102851674133691,-0.2994000000000001,-0.2197174855530561,-0.2994000000000001,-0.3273702788877406,-0.2994000000000001,-0.4321969889901165,-0.2994000000000001,-0.5329759733810995,-0.2994000000000001,-0.628260102209415,-0.2994000000000001,-0.716357288097816,-0.2994000000000001,-0.7953802608873418,-0.2994000000000001,-0.8634234915218391,-0.2994000000000001,-0.9189231807589768
-0.2993000000000001,-0.1102848527102882,-0.2993000000000001,-0.2197168894831942,-0.2993000000000001,-0.3273693985393042,-0.2993000000000001,-0.4321957773528302,-0.2993000000000001,-0.5329743472829236,-0.2993000000000001,-0.6282579396275091,-0.2993000000000001,-0.7163544202062837,-0.2993000000000001,-0.7953764624949002,-0.2993000000000001,-0.8634184799815419,-0.2993000000000001,-0.9189166392124987
-0.2992000000000001,-0.110284537269969,-0.2992000000000001,-0.2197162921613209,-0.2992000000000001,-0.3273685165501157,-0.2992000000000001,-0.4321945636789273,-0.2992000000000001,-0.5329727186714974,-0.2992000000000001,-0.6282557739181037,-0.2992000000000001,-0.7163515483800739,-0.2992000000000001,-0.7953726590971412,-0.2992000000000001,-0.8634134620300877,-0.2992000000000001,-0.9189100894672045
-0.2991000000000001,-0.1102842210895234,-0.2991000000000001,-0.2197156935827691,-0.2991000000000001,-0.3273676329145134,-0.2991000000000001,-0.4321933479619571,-0.2991000000000001,-0.5329710875395144,-0.2991000000000001,-0.6282536050728215,-0.2991000000000001,-0.7163486726094238,-0.2991000000000001,-0.7953688506824689,-0.2991000000000001,-0.8634084376534793,-0.2991000000000001,-0.9189035315060211
-0.2990000000000001,-0.1102839041660482,-0.2990000000000001,-0.2197150937428494,-0.2990000000000001,-0.3273667476268107,-0.2990000000000001,-0.4321921301954434,-0.2990000000000001,-0.5329694538796326,-0.2990000000000001,-0.6282514330832527,-0.2990000000000001,-0.716345792884532,-0.2990000000000001,-0.7953650372392495,-0.2990000000000001,-0.8634034068376701,-0.2990000000000001,-0.9188969653118152
-0.2989000000000001,-0.1102835864966267,-0.2989000000000001,-0.2197144926368511,-0.2989000000000001,-0.3273658606812941,-0.2989000000000001,-0.4321909103728809,-0.2989000000000001,-0.5329678176844841,-0.2989000000000001,-0.6282492579409518,-0.2989000000000001,-0.7163429091955608,-0.2989000000000001,-0.7953612187558037,-0.2989000000000001,-0.8633983695685657,-0.2989000000000001,-0.9188903908673967
-0.2988000000000001,-0.1102832680783308,-0.2988000000000001,-0.2197138902600415,-0.2988000000000001,-0.3273649720722243,-0.2988000000000001,-0.4321896884877365,-0.2988000000000001,-0.532966178946668,-0.2988000000000001,-0.6282470796374419,-0.2988000000000001,-0.7163400215326345,-0.2988000000000001,-0.7953573952204104,-0.2988000000000001,-0.8633933258320211,-0.2988000000000001,-0.9188838081555141
-0.2987000000000001,-0.1102829489082173,-0.2987000000000001,-0.2197132866076679,-0.2987000000000001,-0.3273640817938372,-0.2987000000000001,-0.4321884645334479,-0.2987000000000001,-0.5329645376587504,-0.2987000000000001,-0.6282448981642091,-0.2987000000000001,-0.7163371298858399,-0.2987000000000001,-0.7953535666213054,-0.2987000000000001,-0.8633882756138437,-0.2987000000000001,-0.918877217158858
-0.2986000000000001,-0.1102826289833292,-0.2986000000000001,-0.2197126816749508,-0.2986000000000001,-0.3273631898403424,-0.2986000000000001,-0.432187238503424,-0.2986000000000001,-0.5329628938132684,-0.2986000000000001,-0.6282427135127067,-0.2986000000000001,-0.716334234245224,-0.2986000000000001,-0.7953497329466825,-0.2986000000000001,-0.8633832188997899,-0.2986000000000001,-0.9188706178600573
-0.2985000000000002,-0.1102823083006972,-0.2985000000000002,-0.2197120754570947,-0.2985000000000002,-0.3273622962059211,-0.2985000000000002,-0.432186010391046,-0.2985000000000002,-0.5329612474027274,-0.2985000000000002,-0.6282405256743542,-0.2985000000000002,-0.7163313346007967,-0.2985000000000002,-0.795345894184691,-0.2985000000000002,-0.8633781556755664,-0.2985000000000002,-0.91886401024168
-0.2984000000000002,-0.1102819868573368,-0.2984000000000002,-0.2197114679492789,-0.2984000000000002,-0.3273614008847319,-0.2984000000000002,-0.432184780189665,-0.2984000000000002,-0.5329595984196001,-0.2984000000000002,-0.6282383346405348,-0.2984000000000002,-0.7163284309425306,-0.2984000000000002,-0.795342050323436,-0.2984000000000002,-0.8633730859268303,-0.2984000000000002,-0.9188573942862311
-0.2983000000000002,-0.1102816646502518,-0.2983000000000002,-0.2197108591466601,-0.2983000000000002,-0.3273605038709035,-0.2983000000000002,-0.4321835478926022,-0.2983000000000002,-0.5329579468563288,-0.2983000000000002,-0.6282361404025977,-0.2983000000000002,-0.7163255232603565,-0.2983000000000002,-0.7953382013509812,-0.2983000000000002,-0.8633680096391891,-0.2983000000000002,-0.9188507699761531
-0.2982000000000002,-0.1102813416764292,-0.2982000000000002,-0.2197102490443721,-0.2982000000000002,-0.327359605158541,-0.2982000000000002,-0.4321823134931517,-0.2982000000000002,-0.5329562927053215,-0.2982000000000002,-0.6282339429518583,-0.2982000000000002,-0.7163226115441695,-0.2982000000000002,-0.7953343472553447,-0.2982000000000002,-0.8633629267981987,-0.2982000000000002,-0.9188441372938249
-0.2981000000000002,-0.1102810179328448,-0.2981000000000002,-0.2197096376375294,-0.2981000000000002,-0.3273587047417188,-0.2981000000000002,-0.4321810769845766,-0.2981000000000002,-0.5329546359589565,-0.2981000000000002,-0.6282317422795954,-0.2981000000000002,-0.7163196957838235,-0.2981000000000002,-0.7953304880245008,-0.2981000000000002,-0.8633578373893643,-0.2981000000000002,-0.9188374962215562
-0.2980000000000002,-0.11028069341646,-0.2980000000000002,-0.2197090249212206,-0.2980000000000002,-0.327357802614489,-0.2980000000000002,-0.4321798383601099,-0.2980000000000002,-0.5329529766095797,-0.2980000000000002,-0.6282295383770526,-0.2980000000000002,-0.7163167759691353,-0.2980000000000002,-0.7953266236463801,-0.2980000000000002,-0.8633527413981411,-0.2980000000000002,-0.9188308467415925
-0.2979000000000002,-0.1102803681242208,-0.2979000000000002,-0.2197084108905132,-0.2979000000000002,-0.3273568987708733,-0.2979000000000002,-0.4321785976129571,-0.2979000000000002,-0.5329513146495035,-0.2979000000000002,-0.6282273312354397,-0.2979000000000002,-0.7163138520898807,-0.2979000000000002,-0.7953227541088682,-0.2979000000000002,-0.8633476388099329,-0.2979000000000002,-0.9188241888361059
-0.2978000000000002,-0.1102800420530601,-0.2978000000000002,-0.2197077955404516,-0.2978000000000002,-0.3273559932048684,-0.2978000000000002,-0.4321773547362924,-0.2978000000000002,-0.5329496500710076,-0.2978000000000002,-0.6282251208459277,-0.2978000000000002,-0.7163109241357958,-0.2978000000000002,-0.7953188793998057,-0.2978000000000002,-0.8633425296100912,-0.2978000000000002,-0.9188175224871994
-0.2977000000000002,-0.1102797151998973,-0.2977000000000002,-0.2197071788660574,-0.2977000000000002,-0.3273550859104426,-0.2977000000000002,-0.4321761097232597,-0.2977000000000002,-0.5329479828663399,-0.2977000000000002,-0.6282229071996555,-0.2977000000000002,-0.7163079920965789,-0.2977000000000002,-0.7953149995069898,-0.2977000000000002,-0.8633374137839169,-0.2977000000000002,-0.918810847676895
-0.2976000000000003,-0.1102793875616361,-0.2976000000000003,-0.2197065608623288,-0.2976000000000003,-0.3273541768815371,-0.2976000000000003,-0.4321748625669728,-0.2976000000000003,-0.532946313027715,-0.2976000000000003,-0.6282206902877235,-0.2976000000000003,-0.7163050559618869,-0.2976000000000003,-0.79531111441817,-0.2976000000000003,-0.8633322913166582,-0.2976000000000003,-0.9188041643871357
-0.2975000000000003,-0.1102790591351677,-0.2975000000000003,-0.2197059415242415,-0.2975000000000003,-0.3273532661120659,-0.2975000000000003,-0.4321736132605165,-0.2975000000000003,-0.5329446405473151,-0.2975000000000003,-0.6282184701011967,-0.2975000000000003,-0.716302115721336,-0.2975000000000003,-0.7953072241210525,-0.2975000000000003,-0.8633271621935126,-0.2975000000000003,-0.918797472599774
-0.2974000000000003,-0.1102787299173678,-0.2974000000000003,-0.2197053208467472,-0.2974000000000003,-0.3273523535959149,-0.2974000000000003,-0.4321723617969435,-0.2974000000000003,-0.5329429654172881,-0.2974000000000003,-0.6282162466311044,-0.2974000000000003,-0.7162991713645026,-0.2974000000000003,-0.7953033286033003,-0.2974000000000003,-0.8633220263996236,-0.2974000000000003,-0.9187907722965664
-0.2973000000000003,-0.1102783999050971,-0.2973000000000003,-0.2197046988247746,-0.2973000000000003,-0.3273514393269426,-0.2973000000000003,-0.4321711081692776,-0.2973000000000003,-0.532941287629749,-0.2973000000000003,-0.6282140198684401,-0.2973000000000003,-0.7162962228809249,-0.2973000000000003,-0.7952994278525241,-0.2973000000000003,-0.863316883920083,-0.2973000000000003,-0.9187840634591571
-0.2972000000000003,-0.1102780690952034,-0.2972000000000003,-0.2197040754532293,-0.2972000000000003,-0.3273505232989782,-0.2972000000000003,-0.4321698523705106,-0.2972000000000003,-0.5329396071767805,-0.2972000000000003,-0.6282117898041575,-0.2972000000000003,-0.7162932702600973,-0.2972000000000003,-0.7952955218562945,-0.2972000000000003,-0.8633117347399302,-0.2972000000000003,-0.9187773460690635
-0.2971000000000003,-0.1102777374845196,-0.2971000000000003,-0.2197034507269937,-0.2971000000000003,-0.3273496055058274,-0.2971000000000003,-0.4321685943936036,-0.2971000000000003,-0.5329379240504293,-0.2971000000000003,-0.628209556429177,-0.2971000000000003,-0.7162903134914747,-0.2971000000000003,-0.7952916106021334,-0.2971000000000003,-0.863306578844151,-0.2971000000000003,-0.9187706201076432
-0.2970000000000003,-0.1102774050698618,-0.2970000000000003,-0.2197028246409243,-0.2970000000000003,-0.3273486859412609,-0.2970000000000003,-0.4321673342314876,-0.2970000000000003,-0.5329362382427101,-0.2970000000000003,-0.6282073197343805,-0.2970000000000003,-0.7162873525644713,-0.2970000000000003,-0.7952876940775174,-0.2970000000000003,-0.8633014162176785,-0.2970000000000003,-0.918763885556049
-0.2969000000000003,-0.1102770718480366,-0.2969000000000003,-0.2197021971898554,-0.2969000000000003,-0.3273477645990264,-0.2969000000000003,-0.4321660718770608,-0.2969000000000003,-0.5329345497456037,-0.2969000000000003,-0.6282050797106128,-0.2969000000000003,-0.7162843874684588,-0.2969000000000003,-0.7952837722698759,-0.2969000000000003,-0.8632962468453912,-0.2969000000000003,-0.9187571423948939
-0.2968000000000003,-0.1102767378158287,-0.2968000000000003,-0.219701568368599,-0.2968000000000003,-0.3273468414728402,-0.2968000000000003,-0.4321648073231921,-0.2968000000000003,-0.532932858551056,-0.2968000000000003,-0.628202836348682,-0.2968000000000003,-0.716281418192769,-0.2968000000000003,-0.7952798451665914,-0.2968000000000003,-0.8632910707121144,-0.2968000000000003,-0.9187504838067553
-0.2967000000000004,-0.110276402970015,-0.2967000000000004,-0.2197009381719406,-0.2967000000000004,-0.327345916556393,-0.2967000000000004,-0.4321635405627167,-0.2967000000000004,-0.5329311646509787,-0.2967000000000004,-0.6282005896393569,-0.2967000000000004,-0.7162784447266919,-0.2967000000000004,-0.7952759127550005,-0.2967000000000004,-0.8632858878026208,-0.2967000000000004,-0.9187438440042227
-0.2966000000000004,-0.1102760673073524,-0.2966000000000004,-0.2197003065946419,-0.2966000000000004,-0.3273449898433436,-0.2966000000000004,-0.432162271588441,-0.2966000000000004,-0.5329294680372481,-0.2966000000000004,-0.6281983395733719,-0.2966000000000004,-0.7162754670594743,-0.2966000000000004,-0.7952719750223918,-0.2966000000000004,-0.8632806981016261,-0.2966000000000004,-0.9187371958648111
-0.2965000000000004,-0.1102757308245865,-0.2965000000000004,-0.2196996736314409,-0.2965000000000004,-0.327344061327324,-0.2965000000000004,-0.432161000393136,-0.2965000000000004,-0.532927768701708,-0.2965000000000004,-0.6281960861414206,-0.2965000000000004,-0.7162724851803228,-0.2965000000000004,-0.7952680319560066,-0.2965000000000004,-0.8632755015937946,-0.2965000000000004,-0.9187305393723568
-0.2964000000000004,-0.1102753935184444,-0.2964000000000004,-0.2196990392770513,-0.2964000000000004,-0.3273431310019361,-0.2964000000000004,-0.4321597269695445,-0.2964000000000004,-0.5329260666361659,-0.2964000000000004,-0.6281938293341598,-0.2964000000000004,-0.7162694990784001,-0.2964000000000004,-0.7952640835430375,-0.2964000000000004,-0.8632702982637334,-0.2964000000000004,-0.9187238745085995
-0.2963000000000004,-0.1102750553856415,-0.2963000000000004,-0.2196984035261624,-0.2963000000000004,-0.327342198860753,-0.2963000000000004,-0.4321584513103749,-0.2963000000000004,-0.5329243618323964,-0.2963000000000004,-0.6281915691422087,-0.2963000000000004,-0.716266508742828,-0.2963000000000004,-0.7952601297706314,-0.2963000000000004,-0.8632650880959956,-0.2963000000000004,-0.9187172012527099
-0.2962000000000004,-0.1102747164228763,-0.2962000000000004,-0.2196977663734381,-0.2962000000000004,-0.3273412648973197,-0.2962000000000004,-0.4321571734083041,-0.2962000000000004,-0.532922654282135,-0.2962000000000004,-0.6281893055561462,-0.2962000000000004,-0.7162635141626855,-0.2962000000000004,-0.7952561706258862,-0.2962000000000004,-0.863259871075079,-0.2962000000000004,-0.9187105196101687
-0.2961000000000004,-0.1102743766268313,-0.2961000000000004,-0.2196971278135196,-0.2961000000000004,-0.3273403291051487,-0.2961000000000004,-0.4321558932559764,-0.2961000000000004,-0.5329209439770852,-0.2961000000000004,-0.6281870385665149,-0.2961000000000004,-0.7162605153270082,-0.2961000000000004,-0.7952522060958506,-0.2961000000000004,-0.8632546471854271,-0.2961000000000004,-0.9187038295760798
-0.2960000000000004,-0.1102740359941758,-0.2960000000000004,-0.2196964878410199,-0.2960000000000004,-0.3273393914777272,-0.2960000000000004,-0.4321546108460039,-0.2960000000000004,-0.5329192309089141,-0.2960000000000004,-0.6281847681638166,-0.2960000000000004,-0.7162575122247888,-0.2960000000000004,-0.7952482361675262,-0.2960000000000004,-0.8632494164114261,-0.2960000000000004,-0.9186971311378106
-0.2959000000000004,-0.110273694521563,-0.2959000000000004,-0.2196958464505303,-0.2959000000000004,-0.3273384520085088,-0.2959000000000004,-0.4321533261709654,-0.2959000000000004,-0.5329175150692529,-0.2959000000000004,-0.6281824943385167,-0.2959000000000004,-0.7162545048449769,-0.2959000000000004,-0.7952442608278651,-0.2959000000000004,-0.8632441787374059,-0.2959000000000004,-0.918690424282675
-0.2958000000000005,-0.1102733522056292,-0.2958000000000005,-0.2196952036366153,-0.2958000000000005,-0.3273375106909195,-0.2958000000000005,-0.4321520392234075,-0.2958000000000005,-0.5329157964496976,-0.2958000000000005,-0.6281802170810393,-0.2958000000000005,-0.7162514931764791,-0.2958000000000005,-0.7952402800637701,-0.2958000000000005,-0.8632389341476427,-0.2958000000000005,-0.9186837089979396
-0.2957000000000005,-0.1102730090429969,-0.2957000000000005,-0.2196945593938135,-0.2957000000000005,-0.3273365675183555,-0.2957000000000005,-0.4321507499958437,-0.2957000000000005,-0.5329140750418069,-0.2957000000000005,-0.6281779363817702,-0.2957000000000005,-0.7162484772081583,-0.2957000000000005,-0.795236293862097,-0.2957000000000005,-0.863233682626354,-0.2957000000000005,-0.918676985270818
-0.2956000000000005,-0.1102726650302726,-0.2956000000000005,-0.2196939137166407,-0.2956000000000005,-0.3273356224841812,-0.2956000000000005,-0.4321494584807537,-0.2956000000000005,-0.5329123508371061,-0.2956000000000005,-0.6281756522310543,-0.2956000000000005,-0.7162454569288346,-0.2956000000000005,-0.7952323022096496,-0.2956000000000005,-0.8632284241577007,-0.2956000000000005,-0.9186702530884747
-0.2955000000000005,-0.1102723201640472,-0.2955000000000005,-0.2196932665995854,-0.2955000000000005,-0.3273346755817317,-0.2955000000000005,-0.4321481646705854,-0.2955000000000005,-0.5329106238270818,-0.2955000000000005,-0.6281733646191997,-0.2955000000000005,-0.7162424323272815,-0.2955000000000005,-0.7952283050931822,-0.2955000000000005,-0.8632231587257875,-0.2955000000000005,-0.9186635124380215
-0.2954000000000005,-0.1102719744408951,-0.2954000000000005,-0.2196926180371117,-0.2954000000000005,-0.3273337268043111,-0.2954000000000005,-0.4321468685577516,-0.2954000000000005,-0.5329088940031836,-0.2954000000000005,-0.6281710735364726,-0.2954000000000005,-0.7162394033922302,-0.2954000000000005,-0.7952243024994019,-0.2954000000000005,-0.8632178863146625,-0.2954000000000005,-0.9186567633065181
-0.2953000000000005,-0.1102716278573768,-0.2953000000000005,-0.2196919680236558,-0.2953000000000005,-0.3273327761451945,-0.2953000000000005,-0.4321455701346315,-0.2953000000000005,-0.5329071613568264,-0.2953000000000005,-0.6281687789730995,-0.2953000000000005,-0.716236370112368,-0.2953000000000005,-0.7952202944149628,-0.2953000000000005,-0.8632126069083141,-0.2953000000000005,-0.9186500056809735
-0.2952000000000005,-0.110271280410035,-0.2952000000000005,-0.2196913165536307,-0.2952000000000005,-0.3273318235976255,-0.2952000000000005,-0.432144269393572,-0.2952000000000005,-0.5329054258793877,-0.2952000000000005,-0.6281664809192665,-0.2952000000000005,-0.7162333324763361,-0.2952000000000005,-0.79521628082647,-0.2952000000000005,-0.8632073204906758,-0.2952000000000005,-0.9186432395483446
-0.2951000000000005,-0.1102709320953967,-0.2951000000000005,-0.2196906636214226,-0.2951000000000005,-0.3273308691548145,-0.2951000000000005,-0.4321429663268836,-0.2951000000000005,-0.5329036875622075,-0.2951000000000005,-0.6281641793651197,-0.2951000000000005,-0.716230290472732,-0.2951000000000005,-0.7952122617204788,-0.2951000000000005,-0.8632020270456207,-0.2951000000000005,-0.9186364648955363
