;Version, 1, 0
;vout_dc_sweep (VCTRL=0.02),;vout_dc_sweep (VCTRL=0.04),;vout_dc_sweep (VCTRL=0.06),;vout_dc_sweep (VCTRL=0.08),;vout_dc_sweep (VCTRL=0.1),;vout_dc_sweep (VCTRL=0.12),;vout_dc_sweep (VCTRL=0.14),;vout_dc_sweep (VCTRL=0.16),;vout_dc_sweep (VCTRL=0.18),;vout_dc_sweep (VCTRL=0.2)
;X, Y,;X, Y,;X, Y,;X, Y,;X, Y,;X, Y,;X, Y,;X, Y,;X, Y,;X, Y
;Re, Re,;Re, Re,;Re, Re,;Re, Re,;Re, Re,;Re, Re,;Re, Re,;Re, Re,;Re, Re,;Re, Re
;vin, V,;vin, V,;vin, V,;vin, V,;vin, V,;vin, V,;vin, V,;vin, V,;vin, V,;vin, V
;xunit, V,;xunit, V,;xunit, V,;xunit, V,;xunit, V,;xunit, V,;xunit, V,;xunit, V,;xunit, V,;xunit, V
-0.4,-0.03399953551554269,-0.4,-0.06891643303173844,-0.4,-0.1057100189999642,-0.4,-0.1453667774336382,-0.4,-0.1887017355852165,-0.4,-0.2366002842553039,-0.4,-0.2874607531376647,-0.4,-0.3383959849977407,-0.4,-0.3863045131433862,-0.4,-0.4283721868736216
-0.3999,-0.0339979048786514,-0.3999,-0.06890874869086638,-0.3999,-0.1056961367428448,-0.3999,-0.1453785991450505,-0.3999,-0.1888856444035001,-0.3999,-0.2365834142989922,-0.3999,-0.287421961814647,-0.3999,-0.3383579059796267,-0.3999,-0.3855557900949225,-0.3999,-0.4277055006126331
-0.3998,-0.0339934765367047,-0.3998,-0.06889972267619093,-0.3998,-0.1056821822110496,-0.3998,-0.1453592756752309,-0.3998,-0.1888605934183221,-0.3998,-0.2365528121502933,-0.3998,-0.2873871101291066,-0.3998,-0.3383212490168956,-0.3998,-0.3855194628459109,-0.3998,-0.4276700036465428
-0.3997000000000001,-0.0339890468873687,-0.3997000000000001,-0.06889069400824166,-0.3997000000000001,-0.1056682235907083,-0.3997000000000001,-0.1453399466561458,-0.3997000000000001,-0.1888355347833042,-0.3997000000000001,-0.2365222022695015,-0.3997000000000001,-0.2873522455141759,-0.3997000000000001,-0.3382845767380886,-0.3997000000000001,-0.3854831194535382,-0.3997000000000001,-0.4276344905433233
-0.3996000000000001,-0.03398461592987179,-0.3996000000000001,-0.06888166268604223,-0.3996000000000001,-0.1056542608803432,-0.3996000000000001,-0.1453206118569139,-0.3996000000000001,-0.1888104684958356,-0.3996000000000001,-0.2364915810911123,-0.3996000000000001,-0.2873173679645447,-0.3996000000000001,-0.3382478891355387,-0.3996000000000001,-0.385446759908374,-0.3996000000000001,-0.427598961293078
-0.3995000000000001,-0.03398018366382249,-0.3995000000000001,-0.06887262870861566,-0.3995000000000001,-0.1056402940784769,-0.3995000000000001,-0.1453012713518151,-0.3995000000000001,-0.188785394553274,-0.3995000000000001,-0.2364609497988055,-0.3995000000000001,-0.2872824774748941,-0.3995000000000001,-0.3382111862015778,-0.3995000000000001,-0.3854103842010499,-0.3995000000000001,-0.4275634158859327
-0.3994000000000001,-0.0339757500887341,-0.3994000000000001,-0.06886359207498538,-0.3994000000000001,-0.1056263231836305,-0.3994000000000001,-0.1452819251388417,-0.3994000000000001,-0.1887603129529742,-0.3994000000000001,-0.2364303083889621,-0.3994000000000001,-0.2872475740399096,-0.3994000000000001,-0.3381744679285306,-0.3994000000000001,-0.3853739923221875,-0.3994000000000001,-0.427527854312008
-0.3993000000000001,-0.03397131520412056,-0.3993000000000001,-0.06885455278417374,-0.3993000000000001,-0.1056123481943241,-0.3993000000000001,-0.1452625732159798,-0.3993000000000001,-0.1887352236922892,-0.3993000000000001,-0.2363996568579634,-0.3993000000000001,-0.2872126576542733,-0.3993000000000001,-0.3381377343087177,-0.3993000000000001,-0.3853375842624034,-0.3993000000000001,-0.4274922765614148
-0.3992000000000001,-0.0339668790094938,-0.3992000000000001,-0.06884551083520085,-0.3992000000000001,-0.1055983691090758,-0.3992000000000001,-0.1452432155812189,-0.3992000000000001,-0.1887101267685749,-0.3992000000000001,-0.2363689952021875,-0.3992000000000001,-0.2871777283126631,-0.3992000000000001,-0.338100985334459,-0.3992000000000001,-0.3853011600123075,-0.3992000000000001,-0.4274566826242573
-0.3991000000000001,-0.033962441504368,-0.3991000000000001,-0.06883646622708994,-0.3991000000000001,-0.1055843859264058,-0.3991000000000001,-0.1452238522325437,-0.3991000000000001,-0.1886850221791829,-0.3991000000000001,-0.2363383234180136,-0.3991000000000001,-0.2871427860097582,-0.3991000000000001,-0.3380642209980678,-0.3991000000000001,-0.385264719562501,-0.3991000000000001,-0.4274210724906294
-0.3990000000000001,-0.03395800268825444,-0.3990000000000001,-0.06882741895886091,-0.3990000000000001,-0.1055703986448338,-0.3990000000000001,-0.1452044831679422,-0.3990000000000001,-0.1886599099214632,-0.3990000000000001,-0.2363076415018168,-0.3990000000000001,-0.2871078307402313,-0.3990000000000001,-0.3380274412918534,-0.3990000000000001,-0.3852282629035817,-0.3990000000000001,-0.4273854461506205
-0.3989000000000001,-0.03395356256066617,-0.3989000000000001,-0.0688183690295332,-0.3989000000000001,-0.1055564072628739,-0.3989000000000001,-0.1451851083853977,-0.3989000000000001,-0.1886347899927663,-0.3989000000000001,-0.236276949449971,-0.3989000000000001,-0.2870728624987573,-0.3989000000000001,-0.3379906462081226,-0.3989000000000001,-0.3851917900261368,-0.3989000000000001,-0.4273498035943105
-0.3988000000000002,-0.03394912112111537,-0.3988000000000002,-0.06880931643812804,-0.3988000000000002,-0.1055424117790451,-0.3988000000000002,-0.1451657278828933,-0.3988000000000002,-0.1886096623904399,-0.3988000000000002,-0.2362462472588531,-0.3988000000000002,-0.2870378812800063,-0.3988000000000002,-0.337953835739178,-0.3988000000000002,-0.3851553009207507,-0.3988000000000002,-0.4273141448117713
-0.3987000000000002,-0.03394467836911219,-0.3987000000000002,-0.06880026118366311,-0.3987000000000002,-0.1055284121918612,-0.3987000000000002,-0.145146341658414,-0.3987000000000002,-0.1885845271118336,-0.3987000000000002,-0.2362155349248325,-0.3987000000000002,-0.287002887078647,-0.3987000000000002,-0.3379170098773165,-0.3987000000000002,-0.3851187955779987,-0.3987000000000002,-0.4272784697930667
-0.3986000000000002,-0.03394023430416948,-0.3986000000000002,-0.06879120326515875,-0.3986000000000002,-0.1055144084998387,-0.3986000000000002,-0.1451269497099383,-0.3986000000000002,-0.1885593841542919,-0.3986000000000002,-0.2361848124442811,-0.3986000000000002,-0.2869678798893454,-0.3986000000000002,-0.3378801686148323,-0.3986000000000002,-0.3850822739884503,-0.3986000000000002,-0.4272427785282551
-0.3985000000000002,-0.03393578892579829,-0.3985000000000002,-0.0687821426816313,-0.3985000000000002,-0.1055004007014915,-0.3985000000000002,-0.1451075520354503,-0.3985000000000002,-0.1885342335151605,-0.3985000000000002,-0.2361540798135673,-0.3985000000000002,-0.2869328597067697,-0.3985000000000002,-0.3378433119440174,-0.3985000000000002,-0.3850457361426669,-0.3985000000000002,-0.4272070710073842
-0.3984000000000002,-0.03393134223351013,-0.3984000000000002,-0.06877307943210065,-0.3984000000000002,-0.1054863887953332,-0.3984000000000002,-0.1450881486329274,-0.3984000000000002,-0.1885090751917837,-0.3984000000000002,-0.2361233370290601,-0.3984000000000002,-0.2868978265255782,-0.3984000000000002,-0.337806439857155,-0.3984000000000002,-0.3850091820312056,-0.3984000000000002,-0.4271713472204944
-0.3983000000000002,-0.0339268942268145,-0.3983000000000002,-0.06876401351558226,-0.3983000000000002,-0.1054723727798765,-0.3983000000000002,-0.1450687395003496,-0.3983000000000002,-0.1884839091815038,-0.3983000000000002,-0.2360925840871262,-0.3983000000000002,-0.2868627803404342,-0.3983000000000002,-0.3377695523465301,-0.3983000000000002,-0.3849726116446133,-0.3983000000000002,-0.4271356071576191
-0.3982000000000002,-0.03392244490522112,-0.3982000000000002,-0.06875494493109291,-0.3982000000000002,-0.1054583526536335,-0.3982000000000002,-0.1450493246356943,-0.3982000000000002,-0.1884587354816623,-0.3982000000000002,-0.2360618209841308,-0.3982000000000002,-0.2868277211459953,-0.3982000000000002,-0.3377326494044173,-0.3982000000000002,-0.3849360249734335,-0.3982000000000002,-0.4270998508087829
-0.3981000000000002,-0.03391799426824282,-0.3981000000000002,-0.06874587367764917,-0.3981000000000002,-0.1054443284151156,-0.3981000000000002,-0.1450299040369376,-0.3981000000000002,-0.1884335540896003,-0.3981000000000002,-0.2360310477164367,-0.3981000000000002,-0.286792648936917,-0.3981000000000002,-0.3376957310230941,-0.3981000000000002,-0.3848994220082027,-0.3981000000000002,-0.4270640781640035
-0.3980000000000002,-0.03391354231538757,-0.3980000000000002,-0.06873679975426672,-0.3980000000000002,-0.1054303000628329,-0.3980000000000002,-0.1450104777020571,-0.3980000000000002,-0.1884083650026558,-0.3980000000000002,-0.2360002642804078,-0.3980000000000002,-0.2867575637078561,-0.3980000000000002,-0.3376587971948306,-0.3980000000000002,-0.384862802739447,-0.3980000000000002,-0.4270282892132904
-0.3979000000000003,-0.03390908904616685,-0.3979000000000003,-0.06872772315996145,-0.3979000000000003,-0.1054162675952957,-0.3979000000000003,-0.1449910456290253,-0.3979000000000003,-0.188383168218168,-0.3979000000000003,-0.2359694706724049,-0.3979000000000003,-0.2867224654534621,-0.3979000000000003,-0.3376218479118902,-0.3979000000000003,-0.3848261671576898,-0.3979000000000003,-0.426992483946644
-0.3978000000000003,-0.03390463446008773,-0.3978000000000003,-0.06871864389374638,-0.3978000000000003,-0.1054022310110114,-0.3978000000000003,-0.1449716078158174,-0.3978000000000003,-0.1883579637334736,-0.3978000000000003,-0.235938666888788,-0.3978000000000003,-0.286687354168387,-0.3978000000000003,-0.3375848831665382,-0.3978000000000003,-0.3847895152534473,-0.3978000000000003,-0.4269566623540592
-0.3977000000000003,-0.0339001785566615,-0.3977000000000003,-0.0687095619546374,-0.3977000000000003,-0.1053881903084903,-0.3977000000000003,-0.1449521642604055,-0.3977000000000003,-0.1883327515459077,-0.3977000000000003,-0.2359078529259133,-0.3977000000000003,-0.2866522298472776,-0.3977000000000003,-0.3375479029510309,-0.3977000000000003,-0.3847528470172237,-0.3977000000000003,-0.4269208244255189
-0.3976000000000003,-0.03389572133539587,-0.3976000000000003,-0.06870047734164686,-0.3976000000000003,-0.1053741454862394,-0.3976000000000003,-0.1449327149607635,-0.3976000000000003,-0.1883075316528051,-0.3976000000000003,-0.2358770287801406,-0.3976000000000003,-0.2866170924847806,-0.3976000000000003,-0.3375109072576223,-0.3976000000000003,-0.3847161624395263,-0.3976000000000003,-0.4268849701510046
-0.3975000000000003,-0.03389126279579946,-0.3975000000000003,-0.06869139005378821,-0.3975000000000003,-0.105360096542765,-0.3975000000000003,-0.1449132599148606,-0.3975000000000003,-0.1882823040514996,-0.3975000000000003,-0.2358461944478241,-0.3975000000000003,-0.2865819420755407,-0.3975000000000003,-0.3374738960785653,-0.3975000000000003,-0.3846794615108449,-0.3975000000000003,-0.4268490995204826
-0.3974000000000003,-0.03388680293738178,-0.3974000000000003,-0.06868230009007448,-0.3974000000000003,-0.1053460434765729,-0.3974000000000003,-0.1448937991206656,-0.3974000000000003,-0.1882570687393215,-0.3974000000000003,-0.2358153499253179,-0.3974000000000003,-0.2865467786141978,-0.3974000000000003,-0.3374368694061032,-0.3974000000000003,-0.3846427442216704,-0.3974000000000003,-0.4268132125239155
-0.3973000000000003,-0.03388234175964966,-0.3973000000000003,-0.0686732074495171,-0.3973000000000003,-0.1053319862861684,-0.3973000000000003,-0.1448743325761486,-0.3973000000000003,-0.1882318257136035,-0.3973000000000003,-0.2357844952089752,-0.3973000000000003,-0.2865116020953919,-0.3973000000000003,-0.3373998272324796,-0.3973000000000003,-0.3846060105624829,-0.3973000000000003,-0.4267773091512579
-0.3972000000000003,-0.03387787926211194,-0.3972000000000003,-0.06866411213112777,-0.3972000000000003,-0.1053179249700569,-0.3972000000000003,-0.1448548602792783,-0.3972000000000003,-0.1882065749716753,-0.3972000000000003,-0.235753630295146,-0.3972000000000003,-0.2864764125137624,-0.3972000000000003,-0.3373627695499308,-0.3972000000000003,-0.3845692605237565,-0.3972000000000003,-0.4267413893924552
-0.3971000000000003,-0.03387341544427613,-0.3971000000000003,-0.06865501413391861,-0.3971000000000003,-0.1053038595267406,-0.3971000000000003,-0.1448353822280202,-0.3971000000000003,-0.1881813165108652,-0.3971000000000003,-0.2357227551801822,-0.3971000000000003,-0.2864412098639426,-0.3971000000000003,-0.3373256963506961,-0.3971000000000003,-0.3845324940959594,-0.3971000000000003,-0.4267054532374449
-0.3970000000000004,-0.03386895030564929,-0.3970000000000004,-0.06864591345689908,-0.3970000000000004,-0.1052897899547234,-0.3970000000000004,-0.1448158984203396,-0.3970000000000004,-0.1881560503285002,-0.3970000000000004,-0.2356918698604318,-0.3970000000000004,-0.2864059941405683,-0.3970000000000004,-0.3372886076269996,-0.3970000000000004,-0.3844957112695517,-0.3970000000000004,-0.4266695006761581
-0.3969000000000004,-0.03386448384573937,-0.3969000000000004,-0.06863681009907885,-0.3969000000000004,-0.1052757162525062,-0.3969000000000004,-0.1447964088542038,-0.3969000000000004,-0.1881307764219071,-0.3969000000000004,-0.2356609743322422,-0.3969000000000004,-0.286370765338269,-0.3969000000000004,-0.3372515033710719,-0.3969000000000004,-0.3844589120349879,-0.3969000000000004,-0.4266335316985137
-0.3968000000000004,-0.03386001606405209,-0.3968000000000004,-0.06862770405946872,-0.3968000000000004,-0.1052616384185918,-0.3968000000000004,-0.1447769135275745,-0.3968000000000004,-0.1881054947884093,-0.3968000000000004,-0.2356300685919581,-0.3968000000000004,-0.286335523451674,-0.3968000000000004,-0.3372143835751336,-0.3968000000000004,-0.3844220963827145,-0.3968000000000004,-0.4265975462944286
-0.3967000000000004,-0.0338555469600943,-0.3967000000000004,-0.06861859533707615,-0.3967000000000004,-0.1052475564514797,-0.3967000000000004,-0.144757412438415,-0.3967000000000004,-0.1880802054253332,-0.3967000000000004,-0.2355991526359251,-0.3967000000000004,-0.2863002684754119,-0.3967000000000004,-0.3371772482314017,-0.3967000000000004,-0.3843852643031729,-0.3967000000000004,-0.426561544453808
-0.3966000000000004,-0.03385107653337438,-0.3966000000000004,-0.06860948393091126,-0.3966000000000004,-0.1052334703496702,-0.3966000000000004,-0.1447379055846878,-0.3966000000000004,-0.1880549083299983,-0.3966000000000004,-0.2355682264604855,-0.3966000000000004,-0.2862650004041063,-0.3966000000000004,-0.3371400973320942,-0.3966000000000004,-0.3843484157867951,-0.3966000000000004,-0.4265255261665492
-0.3965000000000004,-0.03384660478339496,-0.3965000000000004,-0.06860036983998219,-0.3965000000000004,-0.105219380111663,-0.3965000000000004,-0.144718392964353,-0.3965000000000004,-0.188029603499728,-0.3965000000000004,-0.2355372900619814,-0.3965000000000004,-0.2862297192323813,-0.3965000000000004,-0.337102930869416,-0.3965000000000004,-0.3843115508240096,-0.3965000000000004,-0.4264894914225414
-0.3964000000000004,-0.03384213170966488,-0.3964000000000004,-0.06859125306329505,-0.3964000000000004,-0.105205285735956,-0.3964000000000004,-0.1446988745753699,-0.3964000000000004,-0.1880042909318425,-0.3964000000000004,-0.235506343436753,-0.3964000000000004,-0.2861944249548578,-0.3964000000000004,-0.3370657488355779,-0.3964000000000004,-0.3842746694052319,-0.3964000000000004,-0.4264534402116679
-0.3963000000000004,-0.03383765731168786,-0.3963000000000004,-0.06858213359985643,-0.3963000000000004,-0.1051911872210465,-0.3963000000000004,-0.1446793504156993,-0.3963000000000004,-0.1879789706236594,-0.3963000000000004,-0.2354753865811379,-0.3963000000000004,-0.2861591175661533,-0.3963000000000004,-0.3370285512227797,-0.3963000000000004,-0.3842377715208793,-0.3963000000000004,-0.426417372523803
-0.3962000000000004,-0.03383318158896964,-0.3962000000000004,-0.06857301144867445,-0.3962000000000004,-0.105177084565431,-0.3962000000000004,-0.1446598204832981,-0.3962000000000004,-0.1879536425724984,-0.3962000000000004,-0.2354444194914753,-0.3962000000000004,-0.2861237970608843,-0.3962000000000004,-0.3369913380232195,-0.3962000000000004,-0.3842008571613569,-0.3962000000000004,-0.42638128834881
-0.3961000000000005,-0.0338287045410175,-0.3961000000000005,-0.06856388660875434,-0.3961000000000005,-0.105162977767606,-0.3961000000000005,-0.1446402847761221,-0.3961000000000005,-0.1879283067756732,-0.3961000000000005,-0.2354134421641001,-0.3961000000000005,-0.2860884634336682,-0.3961000000000005,-0.3369541092290933,-0.3961000000000005,-0.384163926317062,-0.3961000000000005,-0.4263451876765483
-0.3960000000000005,-0.03382422616733227,-0.3960000000000005,-0.06855475907910158,-0.3960000000000005,-0.1051488668260667,-0.3960000000000005,-0.1446207432921292,-0.3960000000000005,-0.1879029632305029,-0.3960000000000005,-0.2353824545953469,-0.3960000000000005,-0.2860531166791147,-0.3960000000000005,-0.3369168648325909,-0.3960000000000005,-0.384126978978389,-0.3960000000000005,-0.4263090704968672
-0.3959000000000005,-0.0338197464674217,-0.3959000000000005,-0.06854562885872006,-0.3959000000000005,-0.1051347517393073,-0.3959000000000005,-0.1446011960292721,-0.3959000000000005,-0.1878776119342997,-0.3959000000000005,-0.2353514567815485,-0.3959000000000005,-0.2860177567918349,-0.3959000000000005,-0.3368796048258957,-0.3959000000000005,-0.3840900151357212,-0.3959000000000005,-0.4262729367996088
-0.3958000000000005,-0.03381526544078861,-0.3958000000000005,-0.06853649594661548,-0.3958000000000005,-0.1051206325058218,-0.3958000000000005,-0.1445816429855058,-0.3958000000000005,-0.1878522528843758,-0.3958000000000005,-0.235320448719039,-0.3958000000000005,-0.2859823837664381,-0.3958000000000005,-0.3368423292011919,-0.3958000000000005,-0.3840530347794391,-0.3958000000000005,-0.4262367865746054
-0.3957000000000005,-0.03381078308693786,-0.3957000000000005,-0.06852736034179086,-0.3957000000000005,-0.105106509124103,-0.3957000000000005,-0.1445620841587827,-0.3957000000000005,-0.1878268860780439,-0.3957000000000005,-0.2352894304041464,-0.3957000000000005,-0.2859469975975297,-0.3957000000000005,-0.3368050379506586,-0.3957000000000005,-0.3840160378999129,-0.3957000000000005,-0.4262006198116846
-0.3956000000000005,-0.03380629940537316,-0.3956000000000005,-0.06851822204325098,-0.3956000000000005,-0.1050923815926419,-0.3956000000000005,-0.1445425195470555,-0.3956000000000005,-0.1878015115126146,-0.3956000000000005,-0.2352584018332011,-0.3956000000000005,-0.2859115982797147,-0.3956000000000005,-0.3367677310664685,-0.3956000000000005,-0.3839790244875083,-0.3956000000000005,-0.4261644365006609
-0.3955000000000005,-0.03380181439559715,-0.3955000000000005,-0.06850908104999731,-0.3955000000000005,-0.1050782499099319,-0.3955000000000005,-0.1445229491482736,-0.3955000000000005,-0.1877761291853983,-0.3955000000000005,-0.2352273630025288,-0.3955000000000005,-0.2858761858075931,-0.3955000000000005,-0.3367304085407914,-0.3955000000000005,-0.3839419945325828,-0.3955000000000005,-0.426128236631346
-0.3954000000000005,-0.033797328057114,-0.3954000000000005,-0.06849993736103333,-0.3954000000000005,-0.1050641140744626,-0.3954000000000005,-0.1445033729603875,-0.3954000000000005,-0.1877507390937003,-0.3954000000000005,-0.2351963139084579,-0.3954000000000005,-0.2858407601757678,-0.3954000000000005,-0.3366930703657935,-0.3954000000000005,-0.3839049480254866,-0.3954000000000005,-0.4260920201935401
-0.3953000000000005,-0.03379284038942587,-0.3953000000000005,-0.06849079097535804,-0.3953000000000005,-0.1050499740847233,-0.3953000000000005,-0.1444837909813455,-0.3953000000000005,-0.1877253412348303,-0.3953000000000005,-0.2351652545473117,-0.3953000000000005,-0.2858053213788339,-0.3953000000000005,-0.3366557165336361,-0.3953000000000005,-0.3838678849565649,-0.3953000000000005,-0.4260557871770371
-0.3952000000000006,-0.03378835139203695,-0.3952000000000006,-0.06848164189197625,-0.3952000000000006,-0.1050358299392045,-0.3952000000000006,-0.1444642032090953,-0.3952000000000006,-0.1876999356060924,-0.3952000000000006,-0.2351341849154129,-0.3952000000000006,-0.2857698694113884,-0.3952000000000006,-0.3366183470364792,-0.3952000000000006,-0.383830805316153,-0.3952000000000006,-0.4260195375716197
