;Version, 1, 0
;/net10,;/net9
;X, Y,;X, Y
;Re, Re,;Re, Re
;time, V,;time, V
;s, V,;s, V
0,0.3576608626402675,0,1.25
1e-12,0.3590274408964282,1e-12,1.252513257586224
2e-12,0.3603846280360291,2e-12,1.255026415953341
3e-12,0.3617378917526201,3e-12,1.257539375886163
4e-12,0.3630848007361636,4e-12,1.260052038177335
5e-12,0.3644277188602758,5e-12,1.262564303631251
5.999999999999999e-12,0.3657679803718602,5.999999999999999e-12,1.265076073067974
6.999999999999999e-12,0.3671065174358412,6.999999999999999e-12,1.267587247327146
8e-12,0.3684437697324685,8e-12,1.270097727271908
9e-12,0.3697801133261443,9e-12,1.27260741379281
9.999999999999999e-12,0.3711156396022382,9.999999999999999e-12,1.275116207811725
1.1e-11,0.372450508039316,1.1e-11,1.277624010285762
1.2e-11,0.3737846738596523,1.2e-11,1.280130722211173
1.3e-11,0.3751182132716775,1.3e-11,1.282636244627263
1.4e-11,0.3764510275557688,1.4e-11,1.285140478620297
1.5e-11,0.3777831615211971,1.5e-11,1.287643325327406
1.6e-11,0.3791144945583467,1.6e-11,1.290144685940486
1.7e-11,0.3804450602417812,1.7e-11,1.292644461710104
1.8e-11,0.381774728592514,1.8e-11,1.295142553949393
1.9e-11,0.3831035297708681,1.9e-11,1.297638864037948
2e-11,0.3844313293454978,2e-11,1.300133293425722
2.1e-11,0.3857581570766101,2.1e-11,1.302625743636913
2.2e-11,0.3870838760375774,2.2e-11,1.305116116273855
2.3e-11,0.3884085167307837,2.3e-11,1.307604313020901
2.4e-11,0.3897319405393455,2.4e-11,1.310090235648303
2.5e-11,0.3910541791208067,2.5e-11,1.312573786016092
2.6e-11,0.3923750925248551,2.6e-11,1.315054866077954
2.7e-11,0.3936947136927356,2.7e-11,1.317533377885094
2.8e-11,0.3950129015233518,2.8e-11,1.32000922359011
2.9e-11,0.3963296902589958,2.9e-11,1.322482305450855
3e-11,0.397644937762912,3e-11,1.32495252583429
3.1e-11,0.3989586795520955,3.1e-11,1.327419787220344
3.200000000000001e-11,0.4002707725432276,3.200000000000001e-11,1.329883992205763
3.300000000000001e-11,0.401581253484294,3.300000000000001e-11,1.332345043507952
3.400000000000001e-11,0.4028899784246046,3.400000000000001e-11,1.334802843968822
3.500000000000001e-11,0.4041969852923424,3.500000000000001e-11,1.337257296558617
3.600000000000002e-11,0.4055021293449744,3.600000000000002e-11,1.339708304379752
3.700000000000002e-11,0.4068054496370536,3.700000000000002e-11,1.342155770670636
3.800000000000002e-11,0.4081068007084594,3.800000000000002e-11,1.34459959880949
3.900000000000003e-11,0.4094062226848693,3.900000000000003e-11,1.347039692318163
4.000000000000003e-11,0.41070356946245,4.000000000000003e-11,1.349475954865942
4.100000000000003e-11,0.411998882182007,4.100000000000003e-11,1.351908290273353
4.200000000000004e-11,0.4132920141698013,4.200000000000004e-11,1.354336602515959
4.300000000000004e-11,0.4145830075253119,4.300000000000004e-11,1.35676079572815
4.400000000000004e-11,0.4158717150787167,4.400000000000004e-11,1.35918077420693
4.500000000000004e-11,0.4171581798314146,4.500000000000004e-11,1.361596442415692
4.600000000000005e-11,0.4184422541913293,4.600000000000005e-11,1.364007704987991
4.700000000000005e-11,0.419723982004825,4.700000000000005e-11,1.366414466731309
4.800000000000005e-11,0.4210032153313679,4.800000000000005e-11,1.368816632630814
4.900000000000006e-11,0.4222799988052033,4.900000000000006e-11,1.37121410785311
5.000000000000006e-11,0.4235541842110557,5.000000000000006e-11,1.373606797749979
5.100000000000006e-11,0.4248258169139065,5.100000000000006e-11,1.375994607862122
5.200000000000007e-11,0.4260947484973106,5.200000000000007e-11,1.378377443922884
5.300000000000007e-11,0.4273610249998411,5.300000000000007e-11,1.380755211861977
5.400000000000007e-11,0.4286244978772539,5.400000000000007e-11,1.383127817809195
5.500000000000008e-11,0.4298852137846368,5.500000000000008e-11,1.385495168098117
5.600000000000008e-11,0.4311430241230573,5.600000000000008e-11,1.387857169269807
5.700000000000008e-11,0.432397976107158,5.700000000000008e-11,1.390213728076504
5.800000000000008e-11,0.4336499211561092,5.800000000000008e-11,1.392564751485301
5.900000000000008e-11,0.4348989069873324,5.900000000000008e-11,1.394910146681819
6.000000000000008e-11,0.436144785110512,6.000000000000008e-11,1.397249821073871
6.100000000000007e-11,0.4373876036893155,6.100000000000007e-11,1.39958368229512
6.200000000000007e-11,0.4386272143959132,6.200000000000007e-11,1.401911638208721
6.300000000000007e-11,0.4398636657839805,6.300000000000007e-11,1.404233596910959
6.400000000000006e-11,0.441096809759654,6.400000000000006e-11,1.406549466734881
6.500000000000006e-11,0.4423266952107353,6.500000000000006e-11,1.408859156253912
6.600000000000006e-11,0.4435531743482518,6.600000000000006e-11,1.411162574285465
6.700000000000005e-11,0.4447762963386612,6.700000000000005e-11,1.41345962989454
6.800000000000005e-11,0.4459959137682002,6.800000000000005e-11,1.415750232397314
6.900000000000005e-11,0.4472120760269802,6.900000000000005e-11,1.418034291364723
7.000000000000004e-11,0.4484246361460981,7.000000000000004e-11,1.420311716626029
7.100000000000004e-11,0.4496336436848371,7.100000000000004e-11,1.422582418272384
7.200000000000004e-11,0.4508389521880886,7.200000000000004e-11,1.424846306660373
7.300000000000003e-11,0.4520406113304036,7.300000000000003e-11,1.427103292415561
7.400000000000003e-11,0.4532384752386256,7.400000000000003e-11,1.429353286436013
7.500000000000003e-11,0.4544325936492981,7.500000000000003e-11,1.431596199895819
7.600000000000002e-11,0.4556228213385497,7.600000000000002e-11,1.433831944248595
7.700000000000002e-11,0.4568092080523214,7.700000000000002e-11,1.436060431230983
7.800000000000001e-11,0.4579916092824806,7.800000000000001e-11,1.438281572866133
7.900000000000001e-11,0.4591700747325032,7.900000000000001e-11,1.440495281467176
8.000000000000001e-11,0.4603444606755188,8.000000000000001e-11,1.442701469640686
8.1e-11,0.4615148167214577,8.1e-11,1.444900050290133
8.2e-11,0.4626809999892552,8.2e-11,1.447090936619317
8.3e-11,0.4638430599450486,8.3e-11,1.449274042135796
8.399999999999999e-11,0.4650008546170918,8.399999999999999e-11,1.451449280654304
8.499999999999999e-11,0.4661544332783587,8.499999999999999e-11,1.453616566300149
8.599999999999999e-11,0.4673036549288569,8.599999999999999e-11,1.455775813512603
8.699999999999998e-11,0.4684485685999578,8.699999999999998e-11,1.457926937048284
8.799999999999998e-11,0.469589034324733,8.799999999999998e-11,1.460069851984518
8.899999999999998e-11,0.4707251008454787,8.899999999999998e-11,1.462204473722694
8.999999999999997e-11,0.4718566292884699,8.999999999999997e-11,1.464330717991599
9.099999999999997e-11,0.4729836680604806,9.099999999999997e-11,1.46644850085075
9.199999999999997e-11,0.4741060794399101,9.199999999999997e-11,1.468557738693708
9.299999999999996e-11,0.4752239114526161,9.299999999999996e-11,1.470658348251372
9.399999999999996e-11,0.4763370275867886,9.399999999999996e-11,1.472750246595275
9.499999999999996e-11,0.4774454754430837,9.499999999999996e-11,1.474833351140852
9.599999999999995e-11,0.4785491197758419,9.599999999999995e-11,1.476907579650703
9.699999999999995e-11,0.479648007717375,9.699999999999995e-11,1.478972850237836
9.799999999999995e-11,0.4807420053431932,9.799999999999995e-11,1.481029081368907
9.899999999999994e-11,0.481831159275306,9.899999999999994e-11,1.48307619186743
9.999999999999994e-11,0.4829153369640291,9.999999999999994e-11,1.485114100916989
1.009999999999999e-10,0.4839945844803348,1.009999999999999e-10,1.487142728064424
1.019999999999999e-10,0.4850687707015586,1.019999999999999e-10,1.489161993223008
1.029999999999999e-10,0.4861379411081622,1.029999999999999e-10,1.49117181667561
1.039999999999999e-10,0.4872019660552547,1.039999999999999e-10,1.493172119077842
1.049999999999999e-10,0.4882608903946115,1.049999999999999e-10,1.495162821461191
1.059999999999999e-10,0.4893145860083753,1.059999999999999e-10,1.497143845236134
1.069999999999999e-10,0.4903630970827884,1.069999999999999e-10,1.499115112195245
1.079999999999999e-10,0.4914062970747592,1.079999999999999e-10,1.50107654451628
1.089999999999999e-10,0.4924442294695144,1.089999999999999e-10,1.50302806476525
1.099999999999999e-10,0.4934767693448988,1.099999999999999e-10,1.504969595899476
1.109999999999999e-10,0.4945039594510371,1.109999999999999e-10,1.506901061270634
1.119999999999999e-10,0.4955256765312863,1.119999999999999e-10,1.508822384627778
1.129999999999999e-10,0.4965419625680117,1.129999999999999e-10,1.510733490120351
1.139999999999999e-10,0.497552696013032,1.139999999999999e-10,1.512634302301182
1.149999999999999e-10,0.4985579180497528,1.149999999999999e-10,1.514524746129461
1.159999999999999e-10,0.4995575088797543,1.159999999999999e-10,1.516404746973701
1.169999999999999e-10,0.5005515088577582,1.169999999999999e-10,1.518274230614688
1.179999999999999e-10,0.5015397999747286,1.179999999999999e-10,1.52013312324841
1.189999999999999e-10,0.5025224217284956,1.189999999999999e-10,1.521981351488968
1.199999999999999e-10,0.5034992579373186,1.199999999999999e-10,1.523818842371475
1.209999999999999e-10,0.5044703472154601,1.209999999999999e-10,1.525645523354939
1.219999999999999e-10,0.5054355752446611,1.219999999999999e-10,1.527461322325122
1.229999999999999e-10,0.5063949797304964,1.229999999999999e-10,1.529266167597389
1.239999999999999e-10,0.5073484482526235,1.239999999999999e-10,1.531059987919539
1.249999999999999e-10,0.5082960175843868,1.249999999999999e-10,1.532842712474619
1.259999999999998e-10,0.5092375772360216,1.259999999999998e-10,1.534614270883714
1.269999999999998e-10,0.5101731630266989,1.269999999999998e-10,1.536374593208732
1.279999999999998e-10,0.5111026664281011,1.279999999999998e-10,1.538123609955163
1.289999999999998e-10,0.5120261222849015,1.289999999999998e-10,1.539861252074818
1.299999999999998e-10,0.5129434240592883,1.299999999999998e-10,1.541587450968564
1.309999999999998e-10,0.5138546056027433,1.309999999999998e-10,1.543302138489024
1.319999999999998e-10,0.5147595623951966,1.319999999999998e-10,1.545005246943269
1.329999999999998e-10,0.5156583272778938,1.329999999999998e-10,1.546696709095496
1.339999999999998e-10,0.5165507977739002,1.339999999999998e-10,1.548376458169673
1.349999999999998e-10,0.517437005698847,1.349999999999998e-10,1.550044427852184
1.359999999999998e-10,0.5183168506424753,1.359999999999998e-10,1.551700552294441
1.369999999999998e-10,0.5191903633810923,1.369999999999998e-10,1.553344766115488
1.379999999999998e-10,0.5200575091693681,1.379999999999998e-10,1.554977004404579
1.389999999999998e-10,0.5209181115741064,1.389999999999998e-10,1.55659720272374
1.399999999999998e-10,0.5217723268609503,1.399999999999998e-10,1.558205297110315
1.409999999999998e-10,0.5226200736702015,1.409999999999998e-10,1.559801224079493
1.419999999999998e-10,0.5234611814645505,1.419999999999998e-10,1.561384920626809
1.429999999999998e-10,0.5242958000548041,1.429999999999998e-10,1.562956324230635
1.439999999999998e-10,0.5251238510114801,1.439999999999998e-10,1.564515372854647
1.449999999999998e-10,0.5259451697707044,1.449999999999998e-10,1.566062004950276
1.459999999999998e-10,0.5267598996587987,1.459999999999998e-10,1.567596159459134
1.469999999999998e-10,0.5275679651441869,1.469999999999998e-10,1.569117775815428
1.479999999999998e-10,0.5283692077240018,1.479999999999998e-10,1.57062679394835
1.489999999999998e-10,0.5291637641930731,1.489999999999998e-10,1.572123154284448
1.499999999999998e-10,0.5299515619043318,1.499999999999998e-10,1.573606797749979
1.509999999999998e-10,0.530732448489171,1.509999999999998e-10,1.575077665773237
1.519999999999998e-10,0.531506554182466,1.519999999999998e-10,1.576535700286873
1.529999999999998e-10,0.5322738092059678,1.529999999999998e-10,1.577980843730181
1.539999999999998e-10,0.5330340673832101,1.539999999999998e-10,1.579413039051371
1.549999999999997e-10,0.5337874523784993,1.549999999999997e-10,1.580832229709825
1.559999999999997e-10,0.5345338972640321,1.559999999999997e-10,1.582238359678325
1.569999999999997e-10,0.5352732620977541,1.569999999999997e-10,1.583631373445268
1.579999999999997e-10,0.5360056639804309,1.579999999999997e-10,1.585011216016856
1.589999999999997e-10,0.5367310388135519,1.589999999999997e-10,1.586377832919267
1.599999999999997e-10,0.5374492529161343,1.599999999999997e-10,1.587731170200806
1.609999999999997e-10,0.5381604168499456,1.609999999999997e-10,1.589071174434033
1.619999999999997e-10,0.5388644693218351,1.619999999999997e-10,1.590397792717876
1.629999999999997e-10,0.5395612829230098,1.629999999999997e-10,1.591710972679718
1.639999999999997e-10,0.5402509617181728,1.639999999999997e-10,1.59301066247746
1.649999999999997e-10,0.5409334471928431,1.649999999999997e-10,1.594296810801577
1.659999999999997e-10,0.5416086182061083,1.659999999999997e-10,1.595569366877134
1.669999999999997e-10,0.5422765723847723,1.669999999999997e-10,1.596828280465796
1.679999999999997e-10,0.5429372539636103,1.679999999999997e-10,1.59807350186781
1.689999999999997e-10,0.5435905480500031,1.689999999999997e-10,1.599304981923968
1.699999999999997e-10,0.5442365459090648,1.699999999999997e-10,1.600522672017545
1.709999999999997e-10,0.5448751944927261,1.709999999999997e-10,1.601726524076222
1.719999999999997e-10,0.5455063851219769,1.719999999999997e-10,1.602916490573981
1.729999999999997e-10,0.546130202793266,1.729999999999997e-10,1.604092524532982
1.739999999999997e-10,0.5467465971409423,1.739999999999997e-10,1.605254579525417
1.749999999999997e-10,0.5473554656500297,1.749999999999997e-10,1.606402609675347
1.759999999999997e-10,0.5479568871578953,1.759999999999997e-10,1.607536569660505
1.769999999999997e-10,0.5485508139439821,1.769999999999997e-10,1.608656414714094
1.779999999999997e-10,0.5491372231154126,1.779999999999997e-10,1.609762100626548
1.789999999999997e-10,0.5497159627322192,1.789999999999997e-10,1.610853583747281
1.799999999999997e-10,0.5502871994644754,1.799999999999997e-10,1.611930820986407
1.809999999999997e-10,0.5508508508115598,1.809999999999997e-10,1.612993769816446
1.819999999999997e-10,0.5514068949267823,1.819999999999997e-10,1.614042388273998
1.829999999999997e-10,0.5519551930750906,1.829999999999997e-10,1.615076634961401
1.839999999999996e-10,0.5524958950724358,1.839999999999996e-10,1.616096469048367
1.849999999999996e-10,0.553028925492683,1.849999999999996e-10,1.617101850273592
1.859999999999996e-10,0.5535542636627522,1.859999999999996e-10,1.618092738946348
1.869999999999996e-10,0.5540717837994995,1.869999999999996e-10,1.619069095948046
1.879999999999996e-10,0.5545816195120223,1.879999999999996e-10,1.620030882733783
1.889999999999996e-10,0.5550837022442102,1.889999999999996e-10,1.620978061333864
1.899999999999996e-10,0.5555780125235815,1.899999999999996e-10,1.6219105943553
1.909999999999996e-10,0.5560644371584793,1.909999999999996e-10,1.622828444983284
1.919999999999996e-10,0.556543094202159,1.919999999999996e-10,1.623731576982645
1.929999999999996e-10,0.5570139217377573,1.929999999999996e-10,1.624619954699277
1.939999999999996e-10,0.5574769015046181,1.939999999999996e-10,1.625493543061549
1.949999999999996e-10,0.5579319324764092,1.949999999999996e-10,1.62635230758169
1.959999999999996e-10,0.5583791178643325,1.959999999999996e-10,1.627196214357145
1.969999999999996e-10,0.5588184021399628,1.969999999999996e-10,1.628025230071922
1.979999999999996e-10,0.5592497682632575,1.979999999999996e-10,1.628839321997897
1.989999999999996e-10,0.5596731993944172,1.989999999999996e-10,1.629638457996118
1.999999999999996e-10,0.5600885676592822,1.999999999999996e-10,1.630422606518061
2.009999999999996e-10,0.5604960300641351,2.009999999999996e-10,1.631191736606887
2.019999999999996e-10,0.5608955092719918,2.019999999999996e-10,1.631945817898657
2.029999999999996e-10,0.5612869896179549,2.029999999999996e-10,1.632684820623532
2.039999999999996e-10,0.5616704557135519,2.039999999999996e-10,1.63340871560695
2.049999999999996e-10,0.5620458002611894,2.049999999999996e-10,1.634117474270777
2.059999999999996e-10,0.5624131520495197,2.059999999999996e-10,1.634811068634434
2.069999999999996e-10,0.5627724459299607,2.069999999999996e-10,1.635489471316004
2.079999999999996e-10,0.5631236677930969,2.079999999999996e-10,1.636152655533309
2.089999999999996e-10,0.5634668038203429,2.089999999999996e-10,1.636800595104974
2.099999999999996e-10,0.5638018404948382,2.099999999999996e-10,1.637433264451452
2.109999999999996e-10,0.5641286595937212,2.109999999999996e-10,1.638050638596042
2.119999999999996e-10,0.5644474187552803,2.119999999999996e-10,1.638652693165869
2.129999999999995e-10,0.5647580411680617,2.129999999999995e-10,1.63923940439285
2.139999999999995e-10,0.5650605144583161,2.139999999999995e-10,1.639810749114631
2.149999999999995e-10,0.5653548266152267,2.149999999999995e-10,1.640366704775499
2.159999999999995e-10,0.5656409659760653,2.159999999999995e-10,1.640907249427277
2.169999999999995e-10,0.5659189212170254,2.169999999999995e-10,1.641432361730189
2.179999999999995e-10,0.5661886813476213,2.179999999999995e-10,1.641942020953699
2.189999999999995e-10,0.5664501044847758,2.189999999999995e-10,1.642436206977334
2.199999999999995e-10,0.5667034045123724,2.199999999999995e-10,1.642914900291475
2.209999999999995e-10,0.566948480809722,2.209999999999995e-10,1.643378081998132
2.219999999999995e-10,0.5671853232281998,2.219999999999995e-10,1.643825733811682
2.229999999999995e-10,0.5674139221201576,2.229999999999995e-10,1.644257838059599
2.239999999999995e-10,0.5676342682739394,2.239999999999995e-10,1.644674377683147
2.249999999999995e-10,0.5678463528731644,2.249999999999995e-10,1.645075336238055
2.259999999999995e-10,0.5680501674712617,2.259999999999995e-10,1.645460697895165
2.269999999999995e-10,0.5682456353397044,2.269999999999995e-10,1.64583044744106
2.279999999999995e-10,0.5684328678316181,2.279999999999995e-10,1.64618457027866
2.289999999999995e-10,0.5686118077283416,2.289999999999995e-10,1.646523052427803
2.299999999999995e-10,0.5687824479938886,2.299999999999995e-10,1.646845880525791
2.309999999999995e-10,0.5689447819094295,2.309999999999995e-10,1.647153041827925
2.319999999999995e-10,0.5690988030774596,2.319999999999995e-10,1.647444524208003
2.329999999999995e-10,0.5692445054244987,2.329999999999995e-10,1.647720316158799
2.339999999999995e-10,0.5693818832028757,2.339999999999995e-10,1.64798040679252
2.349999999999995e-10,0.5695108225371261,2.349999999999995e-10,1.648224785841232
2.359999999999995e-10,0.5696315388111102,2.359999999999995e-10,1.648453443657269
2.369999999999995e-10,0.569743910814444,2.369999999999995e-10,1.648666371213612
2.379999999999995e-10,0.5698479360309888,2.379999999999995e-10,1.648863560104246
2.389999999999995e-10,0.5699436115608267,2.389999999999995e-10,1.64904500254449
2.399999999999995e-10,0.5700309343853552,2.399999999999995e-10,1.649210691371308
2.409999999999995e-10,0.570109901533949,2.409999999999995e-10,1.64936062004359
2.419999999999995e-10,0.5701805101887527,2.419999999999995e-10,1.649494782642407
2.429999999999995e-10,0.5702427577505802,2.429999999999995e-10,1.64961317387125
2.439999999999995e-10,0.5702966418803675,2.439999999999995e-10,1.649715789056236
2.449999999999995e-10,0.5703421605252551,2.449999999999995e-10,1.649802624146293
2.459999999999995e-10,0.5703793119350015,2.459999999999995e-10,1.64987367571332
2.469999999999995e-10,0.570408094672321,2.469999999999995e-10,1.649928940952324
2.479999999999995e-10,0.5704285076193908,2.479999999999995e-10,1.649968417681527
2.489999999999995e-10,0.5704405499819514,2.489999999999995e-10,1.649992104342455
2.499999999999994e-10,0.5704442212918872,2.499999999999994e-10,1.65
2.509999999999994e-10,0.5704395214088475,2.509999999999994e-10,1.649992104342455
2.519999999999994e-10,0.5704264505212577,2.519999999999994e-10,1.649968417681527
2.529999999999994e-10,0.570405009146946,2.529999999999994e-10,1.649928940952324
2.539999999999994e-10,0.570375198133519,2.539999999999994e-10,1.64987367571332
2.549999999999994e-10,0.5703370186585806,2.549999999999994e-10,1.649802624146293
2.559999999999994e-10,0.5702904722298408,2.559999999999994e-10,1.649715789056236
2.569999999999994e-10,0.5702355606851554,2.569999999999994e-10,1.64961317387125
