;Version, 1, 0
;(VT("/out+") - VT("/out-")),;(VT("/+vin") - VT("/net54"))
;X, Y,;X, Y
;Re, Re,;Re, Re
;time, V,;time, V
;s, V,;s, V
0,0,0,0
1e-12,1.041582036176436e-07,1e-12,0.0006283143965559734
2e-12,1.30013642962723e-07,2e-12,0.00125660398833527
3e-12,6.179363820635331e-08,3e-12,0.001884843971540873
4e-12,-2.628985966701691e-07,4e-12,0.002513009544333755
5e-12,-9.049601588095868e-07,5e-12,0.003141075907812763
5.999999999999999e-12,-1.787512762918553e-06,5.999999999999999e-12,0.003769018266993385
6.999999999999999e-12,-2.721470402144988e-06,6.999999999999999e-12,0.004396811831786529
8e-12,-3.427712371051328e-06,8e-12,0.005024431817976849
9e-12,-3.556256768844079e-06,9e-12,0.005651853448202404
9.999999999999999e-12,-2.702782313956931e-06,9.999999999999999e-12,0.006279051952931436
1.1e-11,-4.228154735219647e-07,1.1e-11,0.006906002571440473
1.2e-11,3.75614363945509e-06,1.2e-11,0.007532680552793325
1.3e-11,1.032430220138103e-05,1.3e-11,0.008159061156815861
1.4e-11,1.978027217974798e-05,1.4e-11,0.008785119655074336
1.5e-11,3.262325218167383e-05,1.5e-11,0.009410831331851499
1.6e-11,4.935015130680398e-05,1.6e-11,0.01003617148512159
1.7e-11,7.045035289920953e-05,1.7e-11,0.01066111542752601
1.8e-11,9.639711328923717e-05,1.8e-11,0.01128563848734809
1.9e-11,0.000127646703889317,1.9e-11,0.01190971600948698
2e-11,0.0001646353823792079,2e-11,0.01253332335643043
2.1e-11,0.0002077759498084752,2.1e-11,0.01315643590922821
2.2e-11,0.0002574570297895207,2.2e-11,0.01377902906846384
2.3e-11,0.0003140430389281246,2.3e-11,0.0144010782552253
2.4e-11,0.0003778842913153557,2.4e-11,0.0150225589120756
2.5e-11,0.0004493021196192437,2.5e-11,0.01564344650402316
2.6e-11,0.0005285902225484751,2.6e-11,0.01626371651948832
2.7e-11,0.0006160133167525395,2.7e-11,0.01688334447127349
2.8e-11,0.0007118092384628127,2.8e-11,0.01750230589752766
2.9e-11,0.0008161949719278638,2.9e-11,0.01812057636271369
3e-11,0.0009293748664833679,3e-11,0.01873813145857239
3.1e-11,0.001051514313076485,3.1e-11,0.01935494680508598
3.200000000000001e-11,0.001182758360071423,3.200000000000001e-11,0.01997099805144065
3.300000000000001e-11,0.001323231805251623,3.300000000000001e-11,0.02058626087698823
3.400000000000001e-11,0.001473048744256689,3.400000000000001e-11,0.02120071099220544
3.500000000000001e-11,0.00163228776130242,3.500000000000001e-11,0.02181432413965423
3.600000000000002e-11,0.001801049069065641,3.600000000000002e-11,0.0224270760949381
3.700000000000002e-11,0.001979363324917882,3.700000000000002e-11,0.02303894266765916
3.800000000000002e-11,0.002167258989772103,3.800000000000002e-11,0.02364989970237241
3.900000000000003e-11,0.002364749955087619,3.900000000000003e-11,0.02425992307954083
4.000000000000003e-11,0.002571866398306755,4.000000000000003e-11,0.02486898871648546
4.100000000000003e-11,0.002788587797827979,4.100000000000003e-11,0.0254770725683382
4.200000000000004e-11,0.003014881359444166,4.200000000000004e-11,0.02608415062898972
4.300000000000004e-11,0.003250735487766443,4.300000000000004e-11,0.02669019893203761
4.400000000000004e-11,0.00349609814789642,4.400000000000004e-11,0.02729519355173249
4.500000000000004e-11,0.003750891241830923,4.500000000000004e-11,0.02789911060392303
4.600000000000005e-11,0.004015086217808106,4.600000000000005e-11,0.02850192624699766
4.700000000000005e-11,0.004288598455678638,4.700000000000005e-11,0.02910361668282713
4.800000000000005e-11,0.004571324909509844,4.800000000000005e-11,0.02970415815770355
4.900000000000006e-11,0.004863210857156686,4.900000000000006e-11,0.03030352696327743
5.000000000000006e-11,0.005164150178023297,5.000000000000006e-11,0.03090169943749488
5.100000000000006e-11,0.005474019743477054,5.100000000000006e-11,0.03149865196553048
5.200000000000007e-11,0.00579269837961216,5.200000000000007e-11,0.03209436098072094
5.300000000000007e-11,0.00612017505570539,5.300000000000007e-11,0.03268880296549437
5.400000000000007e-11,0.006456252702067289,5.400000000000007e-11,0.03328195445229865
5.500000000000008e-11,0.006800814251096909,5.500000000000008e-11,0.03387379202452911
5.600000000000008e-11,0.007153759661322256,5.600000000000008e-11,0.03446429231745185
5.700000000000008e-11,0.007515179959270091,5.700000000000008e-11,0.03505343201912603
5.800000000000008e-11,0.007884439720532654,5.800000000000008e-11,0.0356411878713252
5.900000000000008e-11,0.008261852571090467,5.900000000000008e-11,0.03622753667045453
6.000000000000008e-11,0.008646985319214373,6.000000000000008e-11,0.03681245526846788
6.100000000000007e-11,0.009039962379727928,6.100000000000007e-11,0.03739592057378016
6.200000000000007e-11,0.009440475619724387,6.200000000000007e-11,0.03797790955218017
6.300000000000007e-11,0.009848551071125478,6.300000000000007e-11,0.03855839922773963
6.400000000000006e-11,0.01026380709850816,6.400000000000006e-11,0.03913736668372025
6.500000000000006e-11,0.010686474853282,6.500000000000006e-11,0.03971478906347814
6.600000000000006e-11,0.01111602250243893,6.600000000000006e-11,0.04029064357136636
6.700000000000005e-11,0.01155263898977155,6.700000000000005e-11,0.04086490747363491
6.800000000000005e-11,0.01199597864013091,6.800000000000005e-11,0.04143755809932848
6.900000000000005e-11,0.01244609555148002,6.900000000000005e-11,0.04200857284118076
7.000000000000004e-11,0.01290258184896964,7.000000000000004e-11,0.04257792915650738
7.100000000000004e-11,0.01336571631864181,7.100000000000004e-11,0.04314560456809602
7.200000000000004e-11,0.01383491689059801,7.200000000000004e-11,0.04371157666509329
7.300000000000003e-11,0.01431043468815107,7.300000000000003e-11,0.04427582310389022
7.400000000000003e-11,0.01479188918783203,7.400000000000003e-11,0.04483832160900314
7.500000000000003e-11,0.01527937454572403,7.500000000000003e-11,0.04539904997395472
7.600000000000002e-11,0.01577246046502734,7.600000000000002e-11,0.04595798606214885
7.700000000000002e-11,0.01627147599746825,7.700000000000002e-11,0.04651510780774593
7.800000000000001e-11,0.01677579927960871,7.800000000000001e-11,0.04707039321653328
7.900000000000001e-11,0.01728573952162038,7.900000000000001e-11,0.04762382036679402
8.000000000000001e-11,0.01780088893688014,8.000000000000001e-11,0.04817536741017148
8.1e-11,0.01832138449475096,8.1e-11,0.04872501257253314
8.2e-11,0.01884677577426208,8.2e-11,0.04927273415482913
8.3e-11,0.01937744367109362,8.3e-11,0.04981851053394903
8.399999999999999e-11,0.01991273262979409,8.399999999999999e-11,0.05036232016357611
8.499999999999999e-11,0.02045301009908251,8.499999999999999e-11,0.05090414157503709
8.599999999999999e-11,0.02099784309910868,8.599999999999999e-11,0.05144395337815055
8.699999999999998e-11,0.02154741172360675,8.699999999999998e-11,0.05198173426207098
8.799999999999998e-11,0.02210124881069198,8.799999999999998e-11,0.05251746299612958
8.899999999999998e-11,0.02265978450845663,8.899999999999998e-11,0.05305111843067345
8.999999999999997e-11,0.02322233294859455,8.999999999999997e-11,0.05358267949789974
9.099999999999997e-11,0.02378931605837309,9.099999999999997e-11,0.05411212521268749
9.199999999999997e-11,0.02436021919395914,9.199999999999997e-11,0.05463943467342691
9.299999999999996e-11,0.02493540838474906,9.299999999999996e-11,0.055164587062843
9.399999999999996e-11,0.02551428167187475,9.399999999999996e-11,0.05568756164881883
9.499999999999996e-11,0.02609732258010977,9.499999999999996e-11,0.05620833778521295
9.599999999999995e-11,0.02668389901777202,9.599999999999995e-11,0.05672689491267557
9.699999999999995e-11,0.02727443228614113,9.699999999999995e-11,0.05724321255945908
9.799999999999995e-11,0.02786838217077281,9.799999999999995e-11,0.05775727034222666
9.899999999999994e-11,0.02846616387879397,9.899999999999994e-11,0.0582690479668575
9.999999999999994e-11,0.02906715209304656,9.999999999999994e-11,0.0587785252292472
1.009999999999999e-10,0.02967187577884056,1.009999999999999e-10,0.05928568201610585
1.019999999999999e-10,0.03027968022021721,1.019999999999999e-10,0.05979049830575178
1.029999999999999e-10,0.03089103356693457,1.029999999999999e-10,0.06029295416890235
1.039999999999999e-10,0.0315053696347003,1.039999999999999e-10,0.06079302976946055
1.049999999999999e-10,0.03212315041551728,1.049999999999999e-10,0.06129070536529757
1.059999999999999e-10,0.03274372724418528,1.059999999999999e-10,0.06178596130903347
1.069999999999999e-10,0.03336767094315607,1.069999999999999e-10,0.06227877804881121
1.079999999999999e-10,0.03399430437947704,1.079999999999999e-10,0.06276913612907009
1.089999999999999e-10,0.03462413969342171,1.089999999999999e-10,0.06325701619131241
1.099999999999999e-10,0.03525658380036467,1.099999999999999e-10,0.06374239897486889
1.109999999999999e-10,0.03589214283753561,1.109999999999999e-10,0.06422526531765849
1.119999999999999e-10,0.03653014444490599,1.119999999999999e-10,0.06470559615694427
1.129999999999999e-10,0.03717119792330204,1.129999999999999e-10,0.06518337253008788
1.139999999999999e-10,0.03781460350303267,1.139999999999999e-10,0.06565857557529564
1.149999999999999e-10,0.03846091438456223,1.149999999999999e-10,0.06613118653236505
1.159999999999999e-10,0.03910950972956662,1.159999999999999e-10,0.06660118674342508
1.169999999999999e-10,0.03976093702335848,1.169999999999999e-10,0.06706855765367203
1.179999999999999e-10,0.04041449976193823,1.179999999999999e-10,0.0675332808121023
1.189999999999999e-10,0.04107084240181735,1.189999999999999e-10,0.06799533787224177
1.199999999999999e-10,0.04172924222990604,1.199999999999999e-10,0.06845471059286878
1.209999999999999e-10,0.04239029051204524,1.209999999999999e-10,0.06891138083873471
1.219999999999999e-10,0.04305333798046562,1.219999999999999e-10,0.06936533058128047
1.229999999999999e-10,0.04371897053591645,1.229999999999999e-10,0.06981654189934727
1.239999999999999e-10,0.04438646722357253,1.239999999999999e-10,0.07026499697988475
1.249999999999999e-10,0.04505650435580377,1.249999999999999e-10,0.07071067811865461
1.259999999999998e-10,0.04572833612495564,1.259999999999998e-10,0.07115356772092851
1.269999999999998e-10,0.04640258876922188,1.269999999999998e-10,0.07159364830218307
1.279999999999998e-10,0.0470785842969017,1.279999999999998e-10,0.07203090248879063
1.289999999999998e-10,0.04775694517203366,1.289999999999998e-10,0.07246531301870451
1.299999999999998e-10,0.04843692538915212,1.299999999999998e-10,0.07289686274214113
1.309999999999998e-10,0.04911922776056721,1.309999999999998e-10,0.07332553462225588
1.319999999999998e-10,0.04980308628998253,1.319999999999998e-10,0.07375131173581728
1.329999999999998e-10,0.05048915790730413,1.329999999999998e-10,0.07417417727387376
1.339999999999998e-10,0.05117673455884053,1.339999999999998e-10,0.07459411454241804
1.349999999999998e-10,0.05186647164677805,1.349999999999998e-10,0.07501110696304591
1.359999999999998e-10,0.05255759938701954,1.359999999999998e-10,0.0754251380736104
1.369999999999998e-10,0.05325084582135853,1.369999999999998e-10,0.07583619152887211
1.379999999999998e-10,0.05394542264184032,1.379999999999998e-10,0.07624425110114474
1.389999999999998e-10,0.05464201502518251,1.389999999999998e-10,0.07664930068093501
1.399999999999998e-10,0.0553398876058524,1.399999999999998e-10,0.07705132427757877
1.409999999999998e-10,0.05603972393469125,1.409999999999998e-10,0.07745030601987324
1.419999999999998e-10,0.05674073158700033,1.419999999999998e-10,0.07784623015670222
1.429999999999998e-10,0.05744366010290669,1.429999999999998e-10,0.07823908105765875
1.439999999999998e-10,0.05814770024128912,1.439999999999998e-10,0.0786288432136617
1.449999999999998e-10,0.05885356151682219,1.449999999999998e-10,0.07901550123756884
1.459999999999998e-10,0.05956048300359362,1.459999999999998e-10,0.07939903986478347
1.469999999999998e-10,0.06026917229658202,1.469999999999998e-10,0.07977944395385705
1.479999999999998e-10,0.06097881632944269,1.479999999999998e-10,0.08015669848708762
1.489999999999998e-10,0.06169018199815102,1.489999999999998e-10,0.08053078857111218
1.499999999999998e-10,0.06240244135015383,1.499999999999998e-10,0.0809016994374947
1.509999999999998e-10,0.06311632389210176,1.509999999999998e-10,0.08126941644330943
1.519999999999998e-10,0.06383104578009591,1.519999999999998e-10,0.08163392507171841
1.529999999999998e-10,0.06454733408704239,1.529999999999998e-10,0.08199521093254525
1.539999999999998e-10,0.06526435795789909,1.539999999999998e-10,0.08235325976284269
1.549999999999997e-10,0.06598289708246052,1.549999999999997e-10,0.08270805742745613
1.559999999999997e-10,0.06670210787075237,1.559999999999997e-10,0.08305958991958118
1.569999999999997e-10,0.06742273499523233,1.569999999999997e-10,0.08340784336131701
1.579999999999997e-10,0.06814397524619675,1.579999999999997e-10,0.08375280400421414
1.589999999999997e-10,0.06886657011169572,1.589999999999997e-10,0.08409445822981687
1.599999999999997e-10,0.06958967466551758,1.599999999999997e-10,0.08443279255020153
1.609999999999997e-10,0.07031407637766862,1.609999999999997e-10,0.08476779360850828
1.619999999999997e-10,0.07103891994579414,1.619999999999997e-10,0.08509944817946913
1.629999999999997e-10,0.07176495989302478,1.629999999999997e-10,0.08542774316992952
1.639999999999997e-10,0.07249137807588779,1.639999999999997e-10,0.08575266561936523
1.649999999999997e-10,0.0732189248323396,1.649999999999997e-10,0.08607420270039423
1.659999999999997e-10,0.07394674810854629,1.659999999999997e-10,0.08639234171928356
1.669999999999997e-10,0.07467560525895811,1.669999999999997e-10,0.08670707011644896
1.679999999999997e-10,0.07540469599375688,1.679999999999997e-10,0.08701837546695246
1.689999999999997e-10,0.07613475436526129,1.689999999999997e-10,0.08732624548099199
1.699999999999997e-10,0.0768649257653149,1.699999999999997e-10,0.08763066800438635
1.709999999999997e-10,0.07759596913622224,1.709999999999997e-10,0.08793163101905543
1.719999999999997e-10,0.07832707715793075,1.719999999999997e-10,0.08822912264349525
1.729999999999997e-10,0.07905898297967662,1.729999999999997e-10,0.0885231311332455
1.739999999999997e-10,0.07979083420770339,1.739999999999997e-10,0.08881364488135435
1.749999999999997e-10,0.08052338587346797,1.749999999999997e-10,0.08910065241883669
1.759999999999997e-10,0.08125582465217218,1.759999999999997e-10,0.08938414241512627
1.769999999999997e-10,0.08198888700948803,1.769999999999997e-10,0.08966410367852351
1.779999999999997e-10,0.0827217193554366,1.779999999999997e-10,0.08994052515663697
1.789999999999997e-10,0.08345506983367845,1.789999999999997e-10,0.0902133959368201
1.799999999999997e-10,0.08418812933492692,1.799999999999997e-10,0.09048270524660196
1.809999999999997e-10,0.08492162712711093,1.809999999999997e-10,0.09074844245411162
1.819999999999997e-10,0.08565471175551642,1.819999999999997e-10,0.09101059706849957
1.829999999999997e-10,0.08638812870561607,1.829999999999997e-10,0.09126915874035024
1.839999999999996e-10,0.08712107044821882,1.839999999999996e-10,0.09152411726209175
1.849999999999996e-10,0.0878542545771428,1.849999999999996e-10,0.09177546256839797
1.859999999999996e-10,0.0885868400324159,1.859999999999996e-10,0.09202318473658688
1.869999999999996e-10,0.08931956140041497,1.869999999999996e-10,0.0922672739870114
1.879999999999996e-10,0.09005161360698466,1.879999999999996e-10,0.0925077206834457
1.889999999999996e-10,0.09078370760330889,1.889999999999996e-10,0.09274451533346606
1.899999999999996e-10,0.09151501187017286,1.899999999999996e-10,0.09297764858882518
1.909999999999996e-10,0.09224624490393674,1.909999999999996e-10,0.09320711124582104
1.919999999999996e-10,0.0929766136301986,1.919999999999996e-10,0.09343289424566104
1.929999999999996e-10,0.09370681523488722,1.929999999999996e-10,0.09365498867481925
1.939999999999996e-10,0.09443602824180664,1.939999999999996e-10,0.09387338576538728
1.949999999999996e-10,0.09516496149526632,1.949999999999996e-10,0.09408807689542242
1.959999999999996e-10,0.09589280165322855,1.959999999999996e-10,0.09429905358928625
1.969999999999996e-10,0.09662028394279432,1.969999999999996e-10,0.09450630751798039
1.979999999999996e-10,0.09734658004691354,1.979999999999996e-10,0.09470983049947446
1.989999999999996e-10,0.09807237915182898,1.989999999999996e-10,0.09490961449902935
1.999999999999996e-10,0.09879688545561183,1.999999999999996e-10,0.09510565162951523
2.009999999999996e-10,0.09952077290330452,2.009999999999996e-10,0.09529793415172172
2.019999999999996e-10,0.1002432943872427,2.019999999999996e-10,0.09548645447466431
2.029999999999996e-10,0.1009650917281137,2.029999999999996e-10,0.09567120515588301
2.039999999999996e-10,0.1016853921097201,2.039999999999996e-10,0.09585217890173747
2.049999999999996e-10,0.1024048500931936,2.049999999999996e-10,0.09602936856769428
2.059999999999996e-10,0.1031226994363483,2.059999999999996e-10,0.09620276715860854
2.069999999999996e-10,0.1038395820150453,2.069999999999996e-10,0.09637236782900094
2.079999999999996e-10,0.104554792332529,2.079999999999996e-10,0.09653816388332737
2.089999999999996e-10,0.1052688327824507,2.089999999999996e-10,0.09670014877624356
2.099999999999996e-10,0.1059813395613818,2.099999999999996e-10,0.09685831611286311
2.109999999999996e-10,0.106692362990451,2.109999999999996e-10,0.0970126596490104
2.119999999999996e-10,0.1074017350198233,2.119999999999996e-10,0.09716317329146729
2.129999999999995e-10,0.1081095314720621,2.129999999999995e-10,0.09730985109821266
2.139999999999995e-10,0.1088155709311804,2.139999999999995e-10,0.09745268727865763
2.149999999999995e-10,0.1095198954838321,2.149999999999995e-10,0.09759167619387465
2.159999999999995e-10,0.110222346348851,2.159999999999995e-10,0.09772681235681935
2.169999999999995e-10,0.1109230110280979,2.169999999999995e-10,0.09785809043254723
2.179999999999995e-10,0.1116217184165993,2.179999999999995e-10,0.09798550523842464
2.189999999999995e-10,0.1123183708369553,2.189999999999995e-10,0.09810905174433326
2.199999999999995e-10,0.1130130265100853,2.199999999999995e-10,0.09822872507286884
2.209999999999995e-10,0.1137056279557858,2.209999999999995e-10,0.09834452049953302
2.219999999999995e-10,0.1143959392546363,2.219999999999995e-10,0.09845643345292054
2.229999999999995e-10,0.1150841165760883,2.229999999999995e-10,0.09856445951489978
2.239999999999995e-10,0.1157699902663274,2.239999999999995e-10,0.09866859442078679
2.249999999999995e-10,0.1164534672015161,2.249999999999995e-10,0.09876883405951364
2.259999999999995e-10,0.1171345621537141,2.259999999999995e-10,0.0988651744737914
2.269999999999995e-10,0.1178132468416104,2.269999999999995e-10,0.09895761186026508
2.279999999999995e-10,0.1184892890412386,2.279999999999995e-10,0.09904614256966515
2.289999999999995e-10,0.1191628915654537,2.289999999999995e-10,0.09913076310695068
2.299999999999995e-10,0.119833847884274,2.299999999999995e-10,0.09921147013144771
2.309999999999995e-10,0.1205020633113136,2.309999999999995e-10,0.09928826045698136
2.319999999999995e-10,0.1211675511310459,2.319999999999995e-10,0.09936113105200084
2.329999999999995e-10,0.1218302727529761,2.329999999999995e-10,0.0994300790396998
2.339999999999995e-10,0.1224900113008862,2.339999999999995e-10,0.09949510169813003
2.349999999999995e-10,0.1231469045047404,2.349999999999995e-10,0.099556196460308
2.359999999999995e-10,0.1238007986709375,2.359999999999995e-10,0.09961336091431727
2.369999999999995e-10,0.1244515954416856,2.369999999999995e-10,0.09966659280340306
2.379999999999995e-10,0.1250993505445479,2.379999999999995e-10,0.09971589002606129
2.389999999999995e-10,0.1257439976897534,2.389999999999995e-10,0.09976125063612251
2.399999999999995e-10,0.1263853229247947,2.399999999999995e-10,0.09980267284282718
2.409999999999995e-10,0.1270234535734887,2.409999999999995e-10,0.09984015501089738
2.419999999999995e-10,0.127658245760639,2.419999999999995e-10,0.09987369566060167
2.429999999999995e-10,0.1282896056352349,2.429999999999995e-10,0.09990329346781257
2.439999999999995e-10,0.1289175370617339,2.439999999999995e-10,0.09992894726405899
2.449999999999995e-10,0.1295420117205051,2.449999999999995e-10,0.09995065603657327
2.459999999999995e-10,0.1301628263270009,2.459999999999995e-10,0.09996841892833008
