LTspice 24.0.11 for Windows
Circuit: * C:\Users\wada\Desktop\reserch\opcon\2024\desing\basic.asc
Start Time: Fri Apr 12 10:53:59 2024
m2: all pins shorted together -- ignoring.
m3: all pins shorted together -- ignoring.
Ignoring BSIM parameter XL
Ignoring BSIM parameter XW
Ignoring BSIM parameter HDIF
Ignoring BSIM parameter XL
Ignoring BSIM parameter XW
Ignoring BSIM parameter HDIF
solver = Normal
Maximum thread count: 16
tnom = 27
temp = 27
method = modified trap
WARNING: Less than two connections to node n001.  This node is used by v1.
Warning: Pd = 0 is less than W.
Warning: Ps = 0 is less than W.
Warning: Pd = 0 is less than W.
Warning: Ps = 0 is less than W.
Warning: Pd = 0 is less than W.
Warning: Ps = 0 is less than W.
Warning: Pd = 0 is less than W.
Warning: Ps = 0 is less than W.
Warning: Pd = 0 is less than W.
Warning: Ps = 0 is less than W.
Warning: Pd = 0 is less than W.
Warning: Ps = 0 is less than W.
Warning: Pd = 0 is less than W.
Warning: Ps = 0 is less than W.
v1: Missing value, assumed 0V @ DC
Direct Newton iteration for .op point succeeded.
Semiconductor Device Operating Points:
                        --- BSIM3 MOSFETS ---
Name:        m1          m4          m9          m10         m12
Model:    bsim3v3p    bsim3v3p    bsim3v3p    bsim3v3p    bsim3v3p
Id:        8.82e-07    8.82e-07    2.57e-04    2.57e-04    3.80e-16
Vgs:       1.49e+00    1.49e+00   -1.50e+00    1.01e+00    5.00e+00
Vds:       2.59e+00    2.59e+00    8.25e-06    5.00e+00    5.00e+00
Vbs:       2.59e+00    2.59e+00    8.25e-06    5.00e+00    5.00e+00
Vth:      -8.97e-01   -8.97e-01   -8.77e-01   -8.43e-01   -8.93e-01
Vdsat:    -2.12e-01   -2.12e-01   -5.56e-01   -2.40e+00   -4.20e-02
Gm:        6.83e-06    6.83e-06    3.90e-04    1.26e-04    8.83e-15
Gds:       6.47e-08    6.47e-08    3.12e+01    7.03e-06    5.25e-17
Gmb        2.06e-06    2.06e-06    1.39e-04    3.22e-05    4.00e-15
Cbd:       0.00e+00    0.00e+00    0.00e+00    0.00e+00    0.00e+00
Cbs:       0.00e+00    0.00e+00    0.00e+00    0.00e+00    0.00e+00
Cgsov:     2.71e-16    2.71e-16    4.59e-10    7.05e-16    2.71e-16
Cgdov:     2.71e-16    2.71e-16    4.59e-10    7.05e-16    2.71e-16
Cgbov:     9.98e-16    9.98e-16    9.98e-16    9.98e-16    9.98e-16
dQgdVgb:   2.45e-15    2.45e-15    2.85e-09    4.77e-15    2.01e-15
dQgdVdb:  -2.70e-16   -2.70e-16   -1.38e-09   -7.02e-16   -2.71e-16
dQgdVsb:  -1.03e-15   -1.03e-15   -1.34e-09   -2.94e-15   -2.71e-16
dQddVgb:  -5.73e-16   -5.73e-16   -1.42e-09   -1.50e-15   -2.71e-16
dQddVdb:   2.71e-16    2.71e-16    1.40e-09    7.04e-16    2.71e-16
dQddVsb:   3.93e-16    3.93e-16    2.97e-10    1.02e-15    4.52e-25
dQbdVgb:  -1.15e-15   -1.15e-15   -4.04e-12   -1.38e-15   -1.47e-15
dQbdVdb:   3.10e-19    3.10e-19   -5.01e-10    7.46e-19    5.52e-28
dQbdVsb:  -2.20e-16   -2.20e-16   -1.91e-10   -3.18e-16    1.56e-20

Name:        m7          m13         m5          m6          m11
Model:    bsim3v3p    bsim3v3p    bsim3v3n    bsim3v3n    bsim3v3n
Id:        3.61e-06    1.76e-06    8.82e-07    8.82e-07    5.01e-12
Vgs:      -1.10e+00   -6.08e-01    1.01e+00    1.01e+00    1.01e+00
Vds:       1.40e+00    1.39e+00    1.01e+00    1.01e+00    1.64e-07
Vbs:       1.40e+00    1.39e+00    0.00e+00    0.00e+00    0.00e+00
Vth:      -9.34e-01   -9.34e-01    6.42e-01    6.42e-01    7.68e-01
Vdsat:    -1.21e+00   -8.32e-01    2.78e-01    2.78e-01    2.00e-01
Gm:        4.21e-06    3.11e-06    4.42e-06    4.42e-06    2.16e-11
Gds:       1.55e-07    2.42e-08    8.17e-09    8.17e-09    3.05e-05
Gmb        1.32e-06    9.81e-07    2.09e-06    2.09e-06    1.12e-11
Cbd:       0.00e+00    0.00e+00    0.00e+00    0.00e+00    0.00e+00
Cbs:       0.00e+00    0.00e+00    0.00e+00    0.00e+00    0.00e+00
Cgsov:     2.71e-16    2.71e-16    2.95e-16    2.95e-16    2.95e-16
Cgdov:     2.71e-16    2.71e-16    2.95e-16    2.95e-16    2.95e-16
Cgbov:     8.20e-15    8.20e-15    6.55e-15    6.55e-15    9.75e-16
dQgdVgb:   1.61e-14    1.60e-14    1.32e-14    1.32e-14    2.69e-15
dQgdVdb:  -3.33e-16   -2.81e-16   -2.97e-16   -2.97e-16   -7.83e-16
dQgdVsb:  -7.29e-15   -7.15e-15   -5.70e-15   -5.70e-15   -9.04e-16
dQddVgb:  -2.83e-15   -2.78e-15   -2.31e-15   -2.31e-15   -8.57e-16
dQddVdb:   3.43e-16    2.82e-16    2.97e-16    2.97e-16    8.95e-16
dQddVsb:   3.31e-15    3.31e-15    3.04e-15    3.04e-15    2.35e-16
dQbdVgb:  -9.20e-15   -9.22e-15   -7.59e-15   -7.59e-15   -9.79e-16
dQbdVdb:  -2.97e-17   -4.46e-18   -1.06e-18   -1.06e-18   -4.12e-16
dQbdVsb:  -1.26e-15   -1.40e-15   -2.18e-15   -2.18e-15   -1.61e-16

Name:        m8
Model:    bsim3v3n
Id:        4.54e-08
Vgs:       7.50e-01
Vds:       7.50e-01
Vbs:       0.00e+00
Vth:       6.31e-01
Vdsat:     1.17e-01
Gm:        5.27e-07
Gds:       3.64e-10
Gmb        2.62e-07
Cbd:       0.00e+00
Cbs:       0.00e+00
Cgsov:     2.95e-16
Cgdov:     2.95e-16
Cgbov:     1.71e-14
dQgdVgb:   3.31e-14
dQgdVdb:  -2.97e-16
dQgdVsb:  -1.36e-14
dQddVgb:  -5.37e-15
dQddVdb:   2.98e-16
dQddVsb:   7.68e-15
dQbdVgb:  -1.98e-14
dQbdVdb:  -1.37e-18
dQbdVsb:  -5.84e-15


Total elapsed time: 0.138 seconds.

