;Version, 1, 0
;(VS("/out+") - VS("/out-")) (VCTRL=0.02),;(VS("/out+") - VS("/out-")) (VCTRL=0.04),;(VS("/out+") - VS("/out-")) (VCTRL=0.06),;(VS("/out+") - VS("/out-")) (VCTRL=0.08),;(VS("/out+") - VS("/out-")) (VCTRL=0.1),;(VS("/out+") - VS("/out-")) (VCTRL=0.12),;(VS("/out+") - VS("/out-")) (VCTRL=0.14),;(VS("/out+") - VS("/out-")) (VCTRL=0.16),;(VS("/out+") - VS("/out-")) (VCTRL=0.18),;(VS("/out+") - VS("/out-")) (VCTRL=0.2),;(VS("/out+") - VS("/out-")) (VCTRL=0.22),;(VS("/out+") - VS("/out-")) (VCTRL=0.24),;(VS("/out+") - VS("/out-")) (VCTRL=0.26),;(VS("/out+") - VS("/out-")) (VCTRL=0.28),;(VS("/out+") - VS("/out-")) (VCTRL=0.3),;(VS("/out+") - VS("/out-")) (VCTRL=0.32),;(VS("/out+") - VS("/out-")) (VCTRL=0.34),;(VS("/out+") - VS("/out-")) (VCTRL=0.36),;(VS("/out+") - VS("/out-")) (VCTRL=0.38),;(VS("/out+") - VS("/out-")) (VCTRL=0.4)
;X, Y,;X, Y,;X, Y,;X, Y,;X, Y,;X, Y,;X, Y,;X, Y,;X, Y,;X, Y,;X, Y,;X, Y,;X, Y,;X, Y,;X, Y,;X, Y,;X, Y,;X, Y,;X, Y,;X, Y
;Re, Re,;Re, Re,;Re, Re,;Re, Re,;Re, Re,;Re, Re,;Re, Re,;Re, Re,;Re, Re,;Re, Re,;Re, Re,;Re, Re,;Re, Re,;Re, Re,;Re, Re,;Re, Re,;Re, Re,;Re, Re,;Re, Re,;Re, Re
;vin, V,;vin, V,;vin, V,;vin, V,;vin, V,;vin, V,;vin, V,;vin, V,;vin, V,;vin, V,;vin, V,;vin, V,;vin, V,;vin, V,;vin, V,;vin, V,;vin, V,;vin, V,;vin, V,;vin, V
;xunit, V,;xunit, V,;xunit, V,;xunit, V,;xunit, V,;xunit, V,;xunit, V,;xunit, V,;xunit, V,;xunit, V,;xunit, V,;xunit, V,;xunit, V,;xunit, V,;xunit, V,;xunit, V,;xunit, V,;xunit, V,;xunit, V,;xunit, V
-0.4,-0.08697640526775197,-0.4,-0.1740815645285529,-0.4,-0.2608702164413619,-0.4,-0.346462513583996,-0.4,-0.4298518748357714,-0.4,-0.5100123476056515,-0.4,-0.5858848149906666,-0.4,-0.6563317483790116,-0.4,-0.7201230546978649,-0.4,-0.7760050724011869,-0.4,-0.8228930057606557,-0.4,-0.8601950732152041,-0.4,-0.8881703734699943,-0.4,-0.9080632001344136,-0.4,-0.9217800319914419,-0.4,-0.9312638862335068,-0.4,-0.9380307695458137,-0.4,-0.9430798795649358,-0.4,-0.9470193278130902,-0.4,-0.9502156799513723
-0.399,-0.08695579723868607,-0.399,-0.1740448250416204,-0.399,-0.2608228092588423,-0.399,-0.3464084854429572,-0.399,-0.4297936332967129,-0.399,-0.5099510596225629,-0.399,-0.5858208077817639,-0.399,-0.6562648713166537,-0.399,-0.7200529009707277,-0.399,-0.7759310799147697,-0.399,-0.8228145267463362,-0.399,-0.8601115961764652,-0.399,-0.888081686552054,-0.399,-0.9079696545178495,-0.399,-0.9216824888238477,-0.399,-0.9311633158114808,-0.399,-0.9379279916970176,-0.399,-0.9429754711550367,-0.399,-0.9469136720871026,-0.399,-0.9501090371606075
-0.398,-0.08693484563372955,-0.398,-0.1740074754798446,-0.398,-0.2607746156707846,-0.398,-0.3463535670510967,-0.398,-0.4297344454286542,-0.398,-0.5098887869852811,-0.398,-0.58575577638676,-0.398,-0.6561969222847321,-0.398,-0.7199816183369135,-0.398,-0.7758558936288585,-0.398,-0.8227347955299148,-0.398,-0.8600267681118658,-0.398,-0.8879915611540663,-0.398,-0.9078745994015718,-0.398,-0.9215833612605511,-0.398,-0.9310611120619465,-0.398,-0.9378235451711777,-0.398,-0.9428693681091926,-0.398,-0.9468063017404291,-0.398,-0.9500006636722941
-0.397,-0.08691356393932526,-0.397,-0.1739695357272246,-0.397,-0.2607256588145692,-0.397,-0.3462977761328072,-0.397,-0.429674313202933,-0.397,-0.50982551721466,-0.397,-0.5856897012345372,-0.397,-0.6561278807840092,-0.397,-0.7199091877628927,-0.397,-0.7757794944160153,-0.397,-0.8226537756901069,-0.397,-0.8599405666718235,-0.397,-0.8878999747084619,-0.397,-0.9077780022939239,-0.397,-0.9214826254750297,-0.397,-0.9309572505021054,-0.397,-0.9377174049124843,-0.397,-0.9427615449000606,-0.397,-0.9466971910591275,-0.397,-0.9498905339163556
-0.396,-0.08689194662679101,-0.396,-0.1739309958474744,-0.396,-0.2606759258415092,-0.396,-0.3462410980494912,-0.396,-0.4296132208360763,-0.396,-0.5097612337342941,-0.396,-0.5856225651125153,-0.396,-0.6560577289803255,-0.396,-0.7198355907230001,-0.396,-0.7757018629442075,-0.396,-0.8225714469578367,-0.396,-0.8598529705460469,-0.396,-0.8878069048451205,-0.396,-0.9076798398709786,-0.396,-0.9213802573861369,-0.396,-0.9308517064990324,-0.396,-0.9376095458954342,-0.396,-0.9426519762156921,-0.396,-0.9465863145132086,-0.396,-0.9497786221906859
-0.395,-0.08686998808459068,-0.395,-0.1738918457516863,-0.395,-0.2606254037031686,-0.395,-0.3461835179348915,-0.395,-0.429551152299759,-0.395,-0.5096959197116133,-0.395,-0.5855543505441541,-0.395,-0.6559864487691029,-0.395,-0.7197608084144913,-0.395,-0.7756229795966795,-0.395,-0.822487788770501,-0.395,-0.8597639581211832,-0.395,-0.8877123288816976,-0.395,-0.9075800884891079,-0.395,-0.9212762325878079,-0.395,-0.9307444550915662,-0.395,-0.9374999427641593,-0.395,-0.9425406364123128,-0.395,-0.9464736462397694,-0.395,-0.9496649024594205
-0.394,-0.08684768261725861,-0.394,-0.1738520751961334,-0.394,-0.2605740791482851,-0.394,-0.3461250206914834,-0.394,-0.4294880913168488,-0.394,-0.5096295580536752,-0.394,-0.5854850397845348,-0.394,-0.6559140217707489,-0.394,-0.7196848217527627,-0.394,-0.775542824466969,-0.394,-0.8224027802667412,-0.394,-0.8596735074753327,-0.394,-0.8876162238178791,-0.394,-0.9074787241790194,-0.394,-0.9211705263429554,-0.394,-0.9306354709841043,-0.394,-0.9373885698261587,-0.394,-0.9424274995080024,-0.394,-0.9463591600366413,-0.394,-0.9495493483465559
-0.393,-0.08682502444429696,-0.393,-0.1738116737800257,-0.393,-0.2605219387196316,-0.393,-0.3460655909867809,-0.393,-0.4294240213573741,-0.393,-0.5095621314028607,-0.393,-0.5854146148158517,-0.393,-0.6558404293259661,-0.393,-0.7196076113664619,-0.393,-0.7754613773537986,-0.393,-0.8223164002810789,-0.393,-0.8595815963724054,-0.393,-0.8875185663294762,-0.393,-0.9073757226396374,-0.393,-0.9210631135771817,-0.393,-0.9305247285402131,-0.393,-0.9372754010458378,-0.393,-0.9423125391761906,-0.393,-0.9462428293558479,-0.393,-0.9494319331293837
-0.392,-0.08680200769907609,-0.392,-0.1737706309432552,-0.392,-0.260468968750831,-0.392,-0.3460052132495901,-0.392,-0.4293589256344084,-0.392,-0.5094936221324942,-0.392,-0.5853430573428102,-0.392,-0.6557656524909545,-0.392,-0.7195291575925005,-0.392,-0.7753786177558563,-0.392,-0.8222286273384345,-0.392,-0.859488202256351,-0.392,-0.8874193327623705,-0.392,-0.9072710592318094,-0.392,-0.9209539688723251,-0.392,-0.9304122017760585,-0.392,-0.9371604100378699,-0.392,-0.9421957287389567,-0.392,-0.9461246272968716,-0.392,-0.949312629731726
-0.391,-0.08677862642772283,-0.391,-0.1737289359640957,-0.391,-0.2604151553631235,-0.391,-0.3459438716661913,-0.391,-0.4292927870998928,-0.391,-0.5094240123423788,-0.391,-0.5852703487879367,-0.391,-0.6556896720325258,-0.391,-0.7194494404709545,-0.391,-0.7752945248664557,-0.391,-0.8221394396485115,-0.391,-0.8593933022452445,-0.391,-0.8873184991263124,-0.391,-0.9071647089718656,-0.391,-0.9208430664598405,-0.391,-0.9302978643536741,-0.391,-0.9370435700603726,-0.391,-0.9420770411601715,-0.391,-0.9460045265997498,-0.391,-0.9491914107170004
-0.39,-0.08675487458799624,-0.39,-0.1736865779568872,-0.39,-0.2603604844620755,-0.39,-0.3458815501764529,-0.39,-0.4292255884403706,-0.39,-0.5093532838542432,-0.39,-0.585196470286794,-0.39,-0.6556124684231079,-0.39,-0.7193684397398512,-0.39,-0.7752090775680766,-0.39,-0.8220488151000439,-0.39,-0.8592968731252217,-0.39,-0.8872160410885508,-0.39,-0.9070566465249899,-0.39,-0.9207303802139828,-0.39,-0.9301816895740174,-0.39,-0.9369248540079004,-0.39,-0.941956449038409,-0.39,-0.945882499637948,-0.39,-0.9490682482810686
-0.389,-0.08673074604816322,-0.389,-0.1736435458696834,-0.389,-0.2603049417342445,-0.389,-0.3458182324698835,-0.389,-0.4291573120726524,-0.389,-0.509281418207113,-0.389,-0.5851214026831064,-0.389,-0.6555340218356571,-0.389,-0.7192861348298569,-0.389,-0.7751222544267905,-0.389,-0.8219567312549281,-0.389,-0.8591988913442801,-0.389,-0.887111933967314,-0.389,-0.9069468461984397,-0.389,-0.9206158836448423,-0.389,-0.9300636503698729,-0.389,-0.9368042344042466,-0.389,-0.9418339245997085,-0.389,-0.9457585184110815,-0.389,-0.9489431142449082
-0.388,-0.08670623458586002,-0.388,-0.1735998284818838,-0.388,-0.2602485126437957,-0.388,-0.3457539019816191,-0.388,-0.4290879401394032,-0.388,-0.5092083966525847,-0.388,-0.5850451265237899,-0.388,-0.6554543121384602,-0.388,-0.7192025048588454,-0.388,-0.7750340336865614,-0.388,-0.8218631653422045,-0.388,-0.8590993330059258,-0.388,-0.8870061527251303,-0.388,-0.9068352819345866,-0.388,-0.9204995498911706,-0.388,-0.9299437192985534,-0.388,-0.9366816833950613,-0.388,-0.9417094396901132,-0.388,-0.9456325545373969,-0.388,-0.9488159800470775
-0.387,-0.0866813338869501,-0.387,-0.1735554144018265,-0.387,-0.2601911824290635,-0.387,-0.3456885418883362,-0.387,-0.4290174545046541,-0.387,-0.5091342001500303,-0.387,-0.5849676220538866,-0.387,-0.6553733188898434,-0.387,-0.7191175286263577,-0.387,-0.7749443932634263,-0.387,-0.8217680942519189,-0.387,-0.8589981738626793,-0.387,-0.8868986719619854,-0.387,-0.9067219273037854,-0.387,-0.920381351713053,-0.387,-0.9298218685344171,-0.387,-0.9365571727402713,-0.387,-0.9415829657680359,-0.387,-0.9455045792460982,-0.387,-0.9486868167359911
-0.386,-0.08665603754437723,-0.386,-0.1735102920643656,-0.386,-0.2601329360990636,-0.386,-0.345622135104104,-0.386,-0.4289458367492285,-0.386,-0.5090588093616946,-0.386,-0.5848888692114074,-0.386,-0.6552910213327663,-0.386,-0.7190311846079488,-0.386,-0.7748533107395458,-0.386,-0.8216714945288345,-0.386,-0.8588953893094252,-0.386,-0.8867894659083204,-0.386,-0.9066067554970728,-0.386,-0.920261261484378,-0.386,-0.9296980698612001,-0.386,-0.9364306738063125,-0.386,-0.9414544738964136,-0.386,-0.9453745633694487,-0.386,-0.9485555949619862
-0.385,-0.08663033905701134,-0.385,-0.1734644497284166,-0.385,-0.2600737584299591,-0.385,-0.3455546642761662,-0.385,-0.4288730681660999,-0.385,-0.5089822046477228,-0.385,-0.5848088476220743,-0.385,-0.6552073983893192,-0.385,-0.7189434509494209,-0.385,-0.7747607633571418,-0.385,-0.8215733423660208,-0.385,-0.8587909543766152,-0.385,-0.8866785084178613,-0.385,-0.9064897393186875,-0.385,-0.9201392511851344,-0.385,-0.9295722946641504,-0.385,-0.9363021575581644,-0.385,-0.9413239347346741,-0.385,-0.9452424773346796,-0.385,-0.948422284969192
-0.384,-0.08660423182848831,-0.384,-0.1734178754744846,-0.384,-0.2600136339614758,-0.384,-0.3454861117806587,-0.384,-0.428799129755665,-0.384,-0.5089043660610917,-0.384,-0.5847275365939728,-0.384,-0.6551224286551167,-0.384,-0.7188543054609436,-0.384,-0.7746667280123016,-0.384,-0.8214736135982957,-0.384,-0.8586848437233237,-0.384,-0.8865657729602902,-0.384,-0.9063708511784145,-0.384,-0.9200152923935194,-0.384,-0.929444513921985,-0.384,-0.9361715945511923,-0.384,-0.9411913185305021,-0.384,-0.9451082911557058,-0.384,-0.9482868565872037
-0.383,-0.08657770916604779,-0.383,-0.1733705572021569,-0.383,-0.2599525469932624,-0.383,-0.3454164597182525,-0.383,-0.4287240022209391,-0.383,-0.5088252733424545,-0.383,-0.5846449151120978,-0.383,-0.6550360903935775,-0.383,-0.7187637256110524,-0.383,-0.7745711812486552,-0.383,-0.8213722836955304,-0.383,-0.8585770316301402,-0.383,-0.8864512326137426,-0.383,-0.9062500630837532,-0.383,-0.9198893562778568,-0.383,-0.9293146981986327,-0.383,-0.9360389549227885,-0.383,-0.9410565951113997,-0.383,-0.9449719744246258,-0.383,-0.948149279222536
-0.382,-0.08655076427936526,-0.382,-0.1733224826275865,-0.382,-0.2598904815812124,-0.382,-0.3453456899097376,-0.382,-0.4286476659626737,-0.382,-0.5087449059148978,-0.382,-0.5845609618328125,-0.382,-0.6549483615301062,-0.382,-0.7186716885205413,-0.382,-0.7744740992509317,-0.382,-0.8212693277558163,-0.382,-0.8584674919919181,-0.382,-0.8863348600571439,-0.382,-0.9061273466319015,-0.382,-0.9197614135883324,-0.382,-0.9291828176348085,-0.382,-0.9359042083838166,-0.382,-0.9409197338760523,-0.382,-0.9448334963030315,-0.382,-0.9480095218498859
-0.381,-0.0865233902793856,-0.381,-0.173273639280942,-0.381,-0.2598274215337264,-0.381,-0.345273783891529,-0.381,-0.4285701010743901,-0.381,-0.5086632428786084,-0.381,-0.584475655078202,-0.381,-0.6548592196461611,-0.381,-0.7185781709562309,-0.381,-0.7743754578383836,-0.381,-0.8211647204984909,-0.381,-0.8583561983103639,-0.381,-0.8862166275623728,-0.381,-0.906002673001569,-0.381,-0.9196314346485411,-0.381,-0.9290488419393668,-0.381,-0.9357673242098612,-0.381,-0.9407807037854942,-0.381,-0.9446928255131036,-0.381,-0.9478675530031838
-0.38,-0.08649558017714742,-0.38,-0.1732240145038426,-0.38,-0.2597633504079317,-0.38,-0.3452007229111174,-0.38,-0.4284912873373383,-0.38,-0.5085802630054506,-0.38,-0.5843889728303275,-0.38,-0.6547686419732202,-0.38,-0.7184831493246205,-0.38,-0.7742752324580818,-0.38,-0.8210584362570189,-0.38,-0.8582431236864693,-0.38,-0.8860965069862596,-0.38,-0.9058760129445953,-0.38,-0.9194993893468333,-0.38,-0.9289127403804804,-0.38,-0.935628271232268,-0.38,-0.9406394733540565,-0.38,-0.944549930328506,-0.38,-0.9477233407664398
-0.379,-0.08646732688261149,-0.379,-0.1731735954467675,-0.379,-0.2596982515058572,-0.379,-0.3451264879224367,-0.379,-0.4284112042153694,-0.379,-0.5084959447334529,-0.379,-0.5843008927253877,-0.379,-0.6546766053866331,-0.379,-0.7183865996654234,-0.379,-0.7741733981780823,-0.379,-0.8209504489717333,-0.379,-0.8581282408127886,-0.379,-0.8859744697624036,-0.379,-0.9057473367773962,-0.379,-0.9193652471274845,-0.379,-0.9287744817766052,-0.379,-0.9354870178289896,-0.379,-0.940496010640127,-0.379,-0.9444047785650735,-0.379,-0.9475768527643744
-0.378,-0.08643862320348816,-0.378,-0.1731223690664532,-0.378,-0.2596321078705539,-0.378,-0.3450510595811747,-0.378,-0.4283298308497365,-0.378,-0.5084102661612084,-0.378,-0.5842113920477752,-0.378,-0.6545830863993676,-0.378,-0.7182884976449816,-0.378,-0.7740699296804603,-0.378,-0.8208407321824324,-0.378,-0.8580115219655572,-0.378,-0.8858504868928291,-0.378,-0.9056166143722191,-0.378,-0.9192289769816573,-0.378,-0.9286340344872576,-0.378,-0.935343531915223,-0.378,-0.9403502832366979,-0.378,-0.9442573375712868,-0.378,-0.9474280561528488
-0.377,-0.08640946184406118,-0.377,-0.1730703221232626,-0.377,-0.259564902282168,-0.377,-0.344974418240011,-0.377,-0.4282471460538031,-0.377,-0.5083232050421773,-0.377,-0.5841204477240323,-0.377,-0.6544880611556472,-0.377,-0.7181888185495638,-0.377,-0.7739648012542203,-0.377,-0.8207292590208308,-0.377,-0.8578929389966516,-0.377,-0.8857245289394653,-0.377,-0.905483815148223,-0.377,-0.919090547438184,-0.377,-0.9284913664035831,-0.377,-0.9351977809338503,-0.377,-0.9402022582617032,-0.377,-0.9441075742185503,-0.377,-0.9472769176090833
-0.376,-0.08637983540401795,-0.376,-0.1730174411785412,-0.376,-0.2594966172539777,-0.376,-0.3448965439437877,-0.376,-0.4281631283076803,-0.376,-0.5082347387789063,-0.376,-0.5840280363167116,-0.376,-0.654391505424474,-0.376,-0.718087537278539,-0.376,-0.7738579867880637,-0.376,-0.8206160022028683,-0.376,-0.8577724633253876,-0.376,-0.8855965660154472,-0.376,-0.9053489080623588,-0.376,-0.9189499265541456,-0.376,-0.928346444938737,-0.376,-0.9350497318456693,-0.376,-0.9400519023481553,-0.376,-0.9439554548912471,-0.376,-0.9471234033216601
-0.375,-0.08634973637727672,-0.375,-0.1729637125919605,-0.375,-0.2594272350283733,-0.375,-0.3448174164246121,-0.375,-0.4280777557527764,-0.375,-0.5081448444171506,-0.375,-0.5839341340181312,-0.375,-0.6542933945930498,-0.375,-0.7179846283374333,-0.375,-0.7737494597630338,-0.375,-0.8205009340225997,-0.375,-0.85765006593016,-0.375,-0.8854665677762504,-0.375,-0.9052118616000756,-0.375,-0.9188070819052557,-0.375,-0.9281992370180497,-0.375,-0.9348993511194216,-0.375,-0.9398991816340712,-0.375,-0.9438009454765973,-0.375,-0.9469674789803235
-0.374,-0.08631915715082239,-0.374,-0.1729091225188364,-0.374,-0.2593567375727994,-0.374,-0.3447370150968927,-0.374,-0.4279910061862706,-0.374,-0.5080534986399088,-0.374,-0.5838387166440266,-0.374,-0.6541937036600742,-0.374,-0.7178800658308621,-0.374,-0.7736391932450191,-0.374,-0.8203840263490645,-0.374,-0.8575257173399217,-0.374,-0.8853345034106411,-0.374,-0.9050726437658333,-0.374,-0.9186619805760553,-0.374,-0.9280497090690017,-0.374,-0.934746604721617,-0.374,-0.9397440617521923,-0.374,-0.9436440113542937,-0.374,-0.9468091097655582
-0.373,-0.08628809000353899,-0.373,-0.1728536569074426,-0.373,-0.2592851065756467,-0.373,-0.3446553190523016,-0.373,-0.427902857055499,-0.373,-0.5079606777613626,-0.373,-0.5837417596271079,-0.373,-0.6540924072289431,-0.373,-0.7177738234553467,-0.373,-0.7735271598771334,-0.373,-0.8202652506047912,-0.373,-0.8573993876254987,-0.373,-0.8852003416314584,-0.373,-0.9049312220734298,-0.373,-0.9185145891499047,-0.373,-0.9278978270109908,-0.373,-0.9345914581061459,-0.373,-0.9395865078194953,-0.373,-0.9434846173859415,-0.373,-0.9466482603379681
-0.372,-0.08625652710505283,-0.372,-0.1727973014963069,-0.372,-0.259212323442106,-0.372,-0.344572307054682,-0.372,-0.4278132854522665,-0.372,-0.5078663577207281,-0.372,-0.5836432380105119,-0.372,-0.653989479500831,-0.372,-0.7176658744920006,-0.372,-0.7734133318719506,-0.372,-0.8201445777633007,-0.372,-0.8572710463907403,-0.372,-0.8850640506662112,-0.372,-0.9047875635361357,-0.372,-0.9183648736987798,-0.372,-0.9277435562448972,-0.372,-0.9344338762036963,-0.372,-0.9394264844264896,-0.372,-0.9433227279042724,-0.372,-0.9464848948274297
-0.371,-0.08622446051458099,-0.371,-0.1727400418114939,-0.371,-0.2591383692899736,-0.371,-0.3444879575348714,-0.371,-0.4277222681070698,-0.371,-0.5077705140760103,-0.371,-0.5835431264411477,-0.371,-0.6538848942676545,-0.371,-0.7175561917990961,-0.371,-0.7732976810036117,-0.371,-0.820021978341685,-0.371,-0.8571406627635106,-0.371,-0.8849255982475031,-0.371,-0.9046416346566408,-0.371,-0.91821279977287,-0.371,-0.9275868616424463,-0.371,-0.9342738234109479,-0.371,-0.939263955626306,-0.371,-0.9431583067021569,-0.371,-0.9463189768220406
-0.37,-0.08619188217978491,-0.37,-0.1726818631638809,-0.37,-0.2590632249454226,-0.37,-0.3444022485854772,-0.37,-0.4276297813832437,-0.37,-0.5076731219976702,-0.37,-0.583441399162945,-0.37,-0.653778624904938,-0.37,-0.7174447478045155,-0.37,-0.773180178599799,-0.37,-0.8198974223920332,-0.37,-0.857008205386514,-0.37,-0.88478495160328,-0.37,-0.9044934014168181,-0.37,-0.9180583323899842,-0.37,-0.9274277075353693,-0.37,-0.9341112635795744,-0.37,-0.9390988849235923,-0.37,-0.9429913170214029,-0.37,-0.94615046935686
-0.369,-0.0861587839356277,-0.369,-0.1726227506464224,-0.369,-0.2589868709387217,-0.369,-0.3443151579555652,-0.369,-0.4275358012710229,-0.369,-0.507574156262198,-0.369,-0.58333803001,-0.369,-0.6536706443645512,-0.369,-0.7173315144980631,-0.369,-0.7730607955335632,-0.369,-0.8197708794927002,-0.369,-0.8568736424079502,-0.369,-0.8846420774468874,-0.369,-0.9043428292672802,-0.369,-0.9179014360247436,-0.369,-0.9272660577043516,-0.369,-0.9339461600050286,-0.369,-0.9389312352631668,-0.369,-0.9428217215413377,-0.369,-0.9459793349024191
-0.368,-0.08612515750325334,-0.368,-0.1725626891314076,-0.368,-0.2589092874999277,-0.368,-0.3442266630452979,-0.368,-0.4274403033815233,-0.368,-0.5074735912455883,-0.368,-0.5832329923996138,-0.368,-0.6535609251673424,-0.368,-0.717216463423669,-0.368,-0.7729395022150253,-0.368,-0.8196423187394286,-0.368,-0.8567369414720146,-0.368,-0.8844969419669628,-0.368,-0.9041898831167607,-0.368,-0.9177420745975871,-0.368,-0.9271018753677875,-0.368,-0.9337784754151196,-0.368,-0.9387609690184895,-0.368,-0.9426494823671876,-0.368,-0.9458055353530356
-0.367,-0.08609099448886015,-0.367,-0.1725016632677128,-0.367,-0.2588304545545257,-0.367,-0.3441367409005029,-0.367,-0.4273432629406417,-0.367,-0.507371400916736,-0.367,-0.5831262593252342,-0.367,-0.6534494393956594,-0.367,-0.7170995656714613,-0.367,-0.7728162685829398,-0.367,-0.8195117087363228,-0.367,-0.8565980697092221,-0.367,-0.884349510817138,-0.367,-0.9040345273212973,-0.367,-0.9175802114635778,-0.367,-0.926935123170324,-0.367,-0.9336081719583905,-0.367,-0.9385880479799105,-0.367,-0.9424745610182363,-0.367,-0.9456290320149099
