;Version, 1, 0
;vout_dc (VCTRL=0.02),;vout_dc (VCTRL=0.04),;vout_dc (VCTRL=0.06),;vout_dc (VCTRL=0.08),;vout_dc (VCTRL=0.1),;vout_dc (VCTRL=0.12),;vout_dc (VCTRL=0.14),;vout_dc (VCTRL=0.16),;vout_dc (VCTRL=0.18),;vout_dc (VCTRL=0.2),;vout_dc (VCTRL=0.22),;vout_dc (VCTRL=0.24),;vout_dc (VCTRL=0.26),;vout_dc (VCTRL=0.28),;vout_dc (VCTRL=0.3),;vout_dc (VCTRL=0.32),;vout_dc (VCTRL=0.34),;vout_dc (VCTRL=0.36),;vout_dc (VCTRL=0.38),;vout_dc (VCTRL=0.4)
;X, Y,;X, Y,;X, Y,;X, Y,;X, Y,;X, Y,;X, Y,;X, Y,;X, Y,;X, Y,;X, Y,;X, Y,;X, Y,;X, Y,;X, Y,;X, Y,;X, Y,;X, Y,;X, Y,;X, Y
;Re, Re,;Re, Re,;Re, Re,;Re, Re,;Re, Re,;Re, Re,;Re, Re,;Re, Re,;Re, Re,;Re, Re,;Re, Re,;Re, Re,;Re, Re,;Re, Re,;Re, Re,;Re, Re,;Re, Re,;Re, Re,;Re, Re,;Re, Re
;vin, V,;vin, V,;vin, V,;vin, V,;vin, V,;vin, V,;vin, V,;vin, V,;vin, V,;vin, V,;vin, V,;vin, V,;vin, V,;vin, V,;vin, V,;vin, V,;vin, V,;vin, V,;vin, V,;vin, V
;xunit, V,;xunit, V,;xunit, V,;xunit, V,;xunit, V,;xunit, V,;xunit, V,;xunit, V,;xunit, V,;xunit, V,;xunit, V,;xunit, V,;xunit, V,;xunit, V,;xunit, V,;xunit, V,;xunit, V,;xunit, V,;xunit, V,;xunit, V
-0.3,-0.03120301430014882,-0.3,-0.06239002671435212,-0.3,-0.09354496092013909,-0.3,-0.1246515887035943,-0.3,-0.1556934467441611,-0.3,-0.1866537418902275,-0.3,-0.2175152473938109,-0.3,-0.2482604390144871,-0.3,-0.2788703441443069,-0.3,-0.3093258709477236,-0.3,-0.3396065071461222,-0.3,-0.3696897624937638,-0.3,-0.3995534449858003,-0.3,-0.4291717872547318,-0.3,-0.4585165649349476,-0.3,-0.4875579336713309,-0.3,-0.5162634570133022,-0.3,-0.5445933886064398,-0.3,-0.5725086070917262,-0.3,-0.5999647578288783
-0.288,-0.0311962742783175,-0.288,-0.06237654186295494,-0.288,-0.09352472120906841,-0.288,-0.1246245778614823,-0.288,-0.1556596397475521,-0.288,-0.1866131018846445,-0.288,-0.2174677158239092,-0.288,-0.2482056578711672,-0.288,-0.2788083684152586,-0.288,-0.3092563526931948,-0.288,-0.3395289294977644,-0.288,-0.3696039104643767,-0.288,-0.3994571942073357,-0.288,-0.4290622468100657,-0.288,-0.4583894553646675,-0.288,-0.4874053889498954,-0.288,-0.5160720007083117,-0.288,-0.5443460101317954,-0.288,-0.5721790223655574,-0.288,-0.5995423441214075
-0.276,-0.03118042223020245,-0.276,-0.06234224714300751,-0.276,-0.09346656779697571,-0.276,-0.1245546183605402,-0.276,-0.1555524991910356,-0.276,-0.1864207548840349,-0.276,-0.2172016037403187,-0.276,-0.2478491059414283,-0.276,-0.2783545431755766,-0.276,-0.3086718021006495,-0.276,-0.3388062871916832,-0.276,-0.3687339735971119,-0.276,-0.3984036829100546,-0.276,-0.4278221751405988,-0.276,-0.4569628499222687,-0.276,-0.4857573474623936,-0.276,-0.5141967203433135,-0.276,-0.542243405351408,-0.276,-0.5699094237763455,-0.276,-0.5970277167809283
-0.264,-0.02949566977935392,-0.264,-0.05939856796271958,-0.264,-0.08978383585031502,-0.264,-0.120450724173659,-0.264,-0.1512015940759239,-0.264,-0.1819265235437715,-0.264,-0.2125758168398578,-0.264,-0.2430976046385376,-0.264,-0.2734811502333188,-0.264,-0.3037032080594871,-0.264,-0.3337412879139444,-0.264,-0.3635842295892588,-0.264,-0.3931786513504146,-0.264,-0.422516601994448,-0.264,-0.45156894055757,-0.264,-0.480304167812442,-0.264,-0.5086874649539963,-0.264,-0.5367858622088102,-0.264,-0.5643518023837444,-0.264,-0.5914136685333886
-0.2519999999999999,-0.02744568981260509,-0.2519999999999999,-0.0554364856665216,-0.2519999999999999,-0.08434852395784354,-0.2519999999999999,-0.1141464035322288,-0.2519999999999999,-0.1444682148667368,-0.2519999999999999,-0.1749765096516476,-0.2519999999999999,-0.205486384228653,-0.2519999999999999,-0.2359114685927133,-0.2519999999999999,-0.2662066406020364,-0.2519999999999999,-0.2963429740744463,-0.2519999999999999,-0.3262964303553109,-0.2519999999999999,-0.3560432986866635,-0.2519999999999999,-0.3855599615364846,-0.2519999999999999,-0.4148197917982734,-0.2519999999999999,-0.4437945618490193,-0.2519999999999999,-0.4724535854423401,-0.2519999999999999,-0.5007635365846093,-0.2519999999999999,-0.528688233724758,-0.2519999999999999,-0.5561897082746039,-0.2519999999999999,-0.5832271451872966
-0.2399999999999999,-0.02568131629471482,-0.2399999999999999,-0.05178630092671532,-0.2399999999999999,-0.0787334703185979,-0.2399999999999999,-0.1068263917999389,-0.2399999999999999,-0.136030407737761,-0.2399999999999999,-0.1659532258901789,-0.2399999999999999,-0.1961663537577266,-0.2399999999999999,-0.2264142195557834,-0.2399999999999999,-0.2565768801775467,-0.2399999999999999,-0.2865963984192124,-0.2399999999999999,-0.3164384060800459,-0.2399999999999999,-0.3460761913164869,-0.2399999999999999,-0.3754845374793808,-0.2399999999999999,-0.4046373829476724,-0.2399999999999999,-0.433506864558907,-0.2399999999999999,-0.4620628519407723,-0.2399999999999999,-0.4902727083002518,-0.2399999999999999,-0.5181012458124514,-0.2399999999999999,-0.5455109281737291,-0.2399999999999999,-0.5724623852044005
-0.2279999999999999,-0.0241020501089807,-0.2279999999999999,-0.04848797193111543,-0.2279999999999999,-0.07347614977357941,-0.2279999999999999,-0.09942424860396581,-0.2279999999999999,-0.1266380366317196,-0.2279999999999999,-0.1551445756214371,-0.2279999999999999,-0.1845718504206756,-0.2279999999999999,-0.2144176759339212,-0.2279999999999999,-0.2443463921146089,-0.2279999999999999,-0.2741961136140719,-0.2279999999999999,-0.3038913665787823,-0.2279999999999999,-0.3333905017067679,-0.2279999999999999,-0.3626633767523528,-0.2279999999999999,-0.3916826166009507,-0.2279999999999999,-0.4204203139138566,-0.2279999999999999,-0.4488467697817274,-0.2279999999999999,-0.4769299952025167,-0.2279999999999999,-0.5046355726745475,-0.2279999999999999,-0.5319268054962584,-0.2279999999999999,-0.5587651856004274
-0.2159999999999999,-0.02270651632581933,-0.2159999999999999,-0.04558794993549409,-0.2159999999999999,-0.06884837125762711,-0.2159999999999999,-0.09274802467767207,-0.2159999999999999,-0.1176127977680501,-0.2159999999999999,-0.143773738895606,-0.2159999999999999,-0.1713651514076128,-0.2159999999999999,-0.2001113372841741,-0.2159999999999999,-0.2294703328060985,-0.2159999999999999,-0.2590033256128879,-0.2159999999999999,-0.2884816896972762,-0.2159999999999999,-0.3178006106929228,-0.2159999999999999,-0.3469064199953862,-0.2159999999999999,-0.375763716386736,-0.2159999999999999,-0.4043422800914887,-0.2159999999999999,-0.4326121151558088,-0.2159999999999999,-0.46054164980249,-0.2159999999999999,-0.4880971516458401,-0.2159999999999999,-0.5152427027111619,-0.2159999999999999,-0.5419405670622512
-0.2039999999999999,-0.02142549282886153,-0.2039999999999999,-0.04295747399960659,-0.2039999999999999,-0.06471978905681519,-0.2039999999999999,-0.08687359199492972,-0.2039999999999999,-0.1096400069932497,-0.2039999999999999,-0.133316372886202,-0.2039999999999999,-0.1582491392169303,-0.2039999999999999,-0.1846840046476423,-0.2039999999999999,-0.2125072015503788,-0.2039999999999999,-0.2412103214818209,-0.2039999999999999,-0.2702459609705122,-0.2039999999999999,-0.2992839710967748,-0.2039999999999999,-0.3281697935191143,-0.2039999999999999,-0.3568292755272999,-0.2039999999999999,-0.3852184850868202,-0.2039999999999999,-0.4133031656707571,-0.2039999999999999,-0.4410508609588912,-0.2039999999999999,-0.4684281089009823,-0.2039999999999999,-0.4953996291298749,-0.2039999999999999,-0.5219283823858873
-0.1919999999999999,-0.02018869652653066,-0.1919999999999999,-0.0404466022144514,-0.1919999999999999,-0.06085159633587389,-0.1919999999999999,-0.08150113256454228,-0.1919999999999999,-0.1025274620354861,-0.1919999999999999,-0.1241180189061837,-0.1919999999999999,-0.1465364185627728,-0.1919999999999999,-0.1701213772053815,-0.1919999999999999,-0.1951979710309828,-0.1919999999999999,-0.2218382422539678,-0.1919999999999999,-0.2496650735708837,-0.1919999999999999,-0.2780660024387877,-0.1919999999999999,-0.3065783785364256,-0.1919999999999999,-0.3349672313841772,-0.1919999999999999,-0.3631238155318573,-0.1919999999999999,-0.3909901201343984,-0.1919999999999999,-0.4185258112739553,-0.1919999999999999,-0.4456953402649768,-0.1919999999999999,-0.4724633067390469,-0.1919999999999999,-0.4987931259361935
-0.1799999999999999,-0.01894987297404527,-0.1799999999999999,-0.0379505168797587,-0.1799999999999999,-0.05705645434470508,-0.1799999999999999,-0.07633100167174844,-0.1799999999999999,-0.09585409849991233,-0.1799999999999999,-0.1157346668675505,-0.1799999999999999,-0.1361288978008551,-0.1799999999999999,-0.1572629880564671,-0.1799999999999999,-0.1794478701536798,-0.1799999999999999,-0.203041492368877,-0.1799999999999999,-0.2282735202962163,-0.1799999999999999,-0.2549715552706651,-0.1799999999999999,-0.2825562092469884,-0.1799999999999999,-0.310433345838028,-0.1799999999999999,-0.3382505384147572,-0.1799999999999999,-0.3658424302389359,-0.1799999999999999,-0.3931278908237921,-0.1799999999999999,-0.4200571097803917,-0.1799999999999999,-0.4465903405230887,-0.1799999999999999,-0.4726900735045338
-0.1679999999999999,-0.01769043674055315,-0.1679999999999999,-0.03542268682442973,-0.1679999999999999,-0.05323995950476201,-0.1679999999999999,-0.07118887680339903,-0.1679999999999999,-0.08932290520944031,-0.1679999999999999,-0.1077083349987092,-0.1679999999999999,-0.1264343666985764,-0.1679999999999999,-0.1456290225364539,-0.1679999999999999,-0.1654812802050699,-0.1679999999999999,-0.1862634626376776,-0.1679999999999999,-0.2083270958756581,-0.1679999999999999,-0.2320000931091165,-0.1679999999999999,-0.2573269030817285,-0.1679999999999999,-0.2838739135163553,-0.1679999999999999,-0.3109734767606205,-0.1679999999999999,-0.3381284020224598,-0.1679999999999999,-0.3650861977054298,-0.1679999999999999,-0.3917285109125803,-0.1679999999999999,-0.4179906099749575,-0.1679999999999999,-0.443826670848616
-0.1559999999999999,-0.0164100960217326,-0.1559999999999999,-0.03285706576762926,-0.1559999999999999,-0.0493782098488279,-0.1559999999999999,-0.06601194195741411,-0.1559999999999999,-0.08279909124574936,-0.1559999999999999,-0.09978539030508249,-0.1559999999999999,-0.1170260688896376,-0.1559999999999999,-0.1345939486722713,-0.1559999999999999,-0.1525928491694724,-0.1559999999999999,-0.1711777314628909,-0.1559999999999999,-0.1905795275777834,-0.1559999999999999,-0.2111197211124975,-0.1559999999999999,-0.2331646382659063,-0.1559999999999999,-0.2569317849651222,-0.1559999999999999,-0.2822047188343903,-0.1559999999999999,-0.3083482315581464,-0.1559999999999999,-0.3347283958407783,-0.1559999999999999,-0.3609719579112728,-0.1559999999999999,-0.3869027672224672,-0.1559999999999999,-0.4124328126950454
-0.1439999999999999,-0.01511628031108125,-0.1439999999999999,-0.03026590414312025,-0.1439999999999999,-0.04548231126408475,-0.1439999999999999,-0.06079922592806142,-0.1439999999999999,-0.07625107563016764,-0.1439999999999999,-0.09187388556905396,-0.1439999999999999,-0.1077070880001391,-0.1439999999999999,-0.1237970029692119,-0.1439999999999999,-0.1402032082676774,-0.1439999999999999,-0.1570095425728111,-0.1439999999999999,-0.1743416433040419,-0.1439999999999999,-0.1923912338217116,-0.1439999999999999,-0.2114396257024937,-0.1439999999999999,-0.2318489130801222,-0.1439999999999999,-0.2539427017360937,-0.1439999999999999,-0.277727254391614,-0.1439999999999999,-0.3027085120553042,-0.1439999999999999,-0.3281745934741066,-0.1439999999999999,-0.3536093153598237,-0.1439999999999999,-0.3787521076600291
-0.1319999999999998,-0.01381753657985774,-0.1319999999999998,-0.02766526530355318,-0.1319999999999998,-0.0415733971950405,-0.1319999999999998,-0.05557220468268831,-0.1319999999999998,-0.06969213127167584,-0.1319999999999998,-0.08396405906481141,-0.1319999999999998,-0.09841991584093146,-0.1319999999999998,-0.1130939659040341,-0.1319999999999998,-0.1280254016952271,-0.1319999999999998,-0.143263273878076,-0.1319999999999998,-0.1588753503826229,-0.1319999999999998,-0.1749629418540778,-0.1319999999999998,-0.1916831372960153,-0.1319999999999998,-0.2092754222977091,-0.1319999999999998,-0.228073956479674,-0.1319999999999998,-0.2484477519730602,-0.1319999999999998,-0.2705814513773018,-0.1319999999999998,-0.2941881103099265,-0.1319999999999998,-0.3185735777600596,-0.1319999999999998,-0.3430865445549887
-0.1199999999999998,-0.01252073556683564,-0.1199999999999998,-0.02506857563029385,-0.1199999999999998,-0.03767064874977022,-0.1199999999999998,-0.05035413109503373,-0.1199999999999998,-0.0631462765855636,-0.1199999999999998,-0.0760744795393532,-0.1199999999999998,-0.08916643396997093,-0.1199999999999998,-0.1024505264113867,-0.1199999999999998,-0.1159567314643098,-0.1199999999999998,-0.1297185084332445,-0.1199999999999998,-0.1437765680657935,-0.1199999999999998,-0.1581859112064025,-0.1199999999999998,-0.1730281219184662,-0.1199999999999998,-0.1884309487589314,-0.1199999999999998,-0.20459482270485,-0.1199999999999998,-0.2218159149476719,-0.1199999999999998,-0.2404665259422844,-0.1199999999999998,-0.2608472240516425,-0.1199999999999998,-0.2828869274069622,-0.1199999999999998,-0.3060053494526936
-0.1079999999999998,-0.01123045206981077,-0.1079999999999998,-0.02248493861333634,-0.1079999999999998,-0.03378753975325099,-0.1079999999999998,-0.04516241997928583,-0.1079999999999998,-0.05663385548809952,-0.1079999999999998,-0.0682262522362056,-0.1079999999999998,-0.07996417110666354,-0.1079999999999998,-0.0918724058709246,-0.1079999999999998,-0.1039762167376541,-0.1079999999999998,-0.1163019290261228,-0.1079999999999998,-0.1288782969541502,-0.1079999999999998,-0.1417393525999565,-0.1079999999999998,-0.1549299500878992,-0.1079999999999998,-0.1685158373757411,-0.1079999999999998,-0.1826004997946808,-0.1079999999999998,-0.1973499475005912,-0.1079999999999998,-0.2130203511911766,-0.1079999999999998,-0.22996312598472,-0.1079999999999998,-0.2485381136712719,-0.1079999999999998,-0.2688565946979994
-0.09599999999999985,-0.00994923942731929,-0.09599999999999985,-0.01991949048352248,-0.09599999999999985,-0.02993182709762721,-0.09599999999999985,-0.04000744073211071,-0.09599999999999985,-0.05016768198950072,-0.09599999999999985,-0.06043408369504621,-0.09599999999999985,-0.0708283649495256,-0.09599999999999985,-0.08137242593100291,-0.09599999999999985,-0.09208836534565668,-0.09599999999999985,-0.1029985971539206,-0.09599999999999985,-0.1141262291906574,-0.09599999999999985,-0.1254960239145559,-0.09599999999999985,-0.1371365349344885,-0.09599999999999985,-0.1490844516259969,-0.09599999999999985,-0.1613927966080185,-0.09599999999999985,-0.174145217166161,-0.09599999999999985,-0.1874783504988797,-0.09599999999999985,-0.2016104859849335,-0.09599999999999985,-0.2168607243637293,-0.09599999999999985,-0.2336069837359198
-0.08399999999999985,-0.008678132601623312,-0.08399999999999985,-0.01737433582785419,-0.08399999999999985,-0.0261067500366009,-0.08399999999999985,-0.03489364957984309,-0.08399999999999985,-0.04375349596250666,-0.08399999999999985,-0.05270497420438414,-0.08399999999999985,-0.06176700735791163,-0.08399999999999985,-0.07095874679543956,-0.08399999999999985,-0.08029954312395815,-0.08399999999999985,-0.08980891928175794,-0.08399999999999985,-0.09950660250632715,-0.08399999999999985,-0.1094127413348288,-0.08399999999999985,-0.1195485642977455,-0.08399999999999985,-0.1299379694747198,-0.08399999999999985,-0.1406109209866242,-0.08399999999999985,-0.1516101049211467,-0.08399999999999985,-0.1630029719146755,-0.08399999999999985,-0.174901519170838,-0.08399999999999985,-0.1874900668206931,-0.08399999999999985,-0.201051731896959
-0.07199999999999986,-0.007417114898037869,-0.07199999999999986,-0.01484946160036738,-0.07199999999999986,-0.02231234106354907,-0.07199999999999986,-0.02982118878113249,-0.07199999999999986,-0.03739163232077924,-0.07199999999999986,-0.04503953639081415,-0.07199999999999986,-0.05278103026224834,-0.07199999999999986,-0.06063251230105626,-0.07199999999999986,-0.0686106278190638,-0.07199999999999986,-0.07673222149312253,-0.07199999999999986,-0.08501427825569985,-0.07199999999999986,-0.09347389433931741,-0.07199999999999986,-0.1021283766264809,-0.07199999999999986,-0.110995676944626,-0.07199999999999986,-0.1200955657186655,-0.07199999999999986,-0.1294522882505209,-0.07199999999999986,-0.1390999762210847,-0.07199999999999986,-0.1490927784354509,-0.07199999999999986,-0.159522180514262,-0.07199999999999986,-0.170542971532415
-0.05999999999999986,-0.006165475864176928,-0.05999999999999986,-0.01234345174941798,-0.05999999999999986,-0.01854649056975322,-0.05999999999999986,-0.02478727860906704,-0.05999999999999986,-0.03107868087371712,-0.05999999999999986,-0.03743378804672715,-0.05999999999999986,-0.04386595099069857,-0.05999999999999986,-0.05038879791441264,-0.05999999999999986,-0.05701622881209478,-0.05999999999999986,-0.06376238243039911,-0.05999999999999986,-0.07064157450667385,-0.05999999999999986,-0.077668215694915,-0.05999999999999986,-0.08485673979153752,-0.05999999999999986,-0.09222161921046945,-0.05999999999999986,-0.09977763551166519,-0.05999999999999986,-0.1075407416895391,-0.05999999999999986,-0.1155301492283977,-0.05999999999999986,-0.1237727526295787,-0.05999999999999986,-0.1323116780027346,-0.05999999999999986,-0.1412213976410138
-0.04799999999999986,-0.004922062431970908,-0.04799999999999986,-0.009853993305425579,-0.04799999999999986,-0.01480571407767661,-0.04799999999999986,-0.01978725077086529,-0.04799999999999986,-0.02480878236285977,-0.04799999999999986,-0.02988068387649967,-0.04799999999999986,-0.03501356134610722,-0.04799999999999986,-0.04021827497212394,-0.04799999999999986,-0.04550594582447109,-0.04799999999999986,-0.05088794072732317,-0.04799999999999986,-0.05637583010882397,-0.04799999999999986,-0.06198131604221879,-0.04799999999999986,-0.06771613524409237,-0.04799999999999986,-0.07359195983114564,-0.04799999999999986,-0.07962035718253968,-0.04799999999999986,-0.08581294713847054,-0.04799999999999986,-0.09218203998407026,-0.04799999999999986,-0.09874229819474134,-0.04799999999999986,-0.105514396585319,-0.04799999999999986,-0.112532293434942
-0.03599999999999987,-0.003685446598429287,-0.03599999999999987,-0.007378215839558555,-0.03599999999999987,-0.01108567136789274,-0.03599999999999987,-0.01481525798848149,-0.03599999999999987,-0.01857453998491954,-0.03599999999999987,-0.02237123628135651,-0.03599999999999987,-0.02621325063931057,-0.03599999999999987,-0.03010869440172337,-0.03599999999999987,-0.03406589844978869,-0.03599999999999987,-0.03809341010770417,-0.03599999999999987,-0.04219996995622111,-0.03599999999999987,-0.04639446344907383,-0.03599999999999987,-0.05068584405531151,-0.03599999999999987,-0.05508303076397136,-0.03599999999999987,-0.05959479781758847,-0.03599999999999987,-0.06422970714739995,-0.03599999999999987,-0.06899619974533788,-0.03599999999999987,-0.07390308774868448,-0.03599999999999987,-0.07896091627008739,-0.03599999999999987,-0.08418504919631442
-0.02399999999999987,-0.002454034033686159,-0.02399999999999987,-0.004912911791906338,-0.02399999999999987,-0.007381504809851669,-0.02399999999999987,-0.009864739797098343,-0.02399999999999987,-0.01236762501275135,-0.02399999999999987,-0.01489527491378984,-0.02399999999999987,-0.0174529320266692,-0.02399999999999987,-0.02004598454955375,-0.02399999999999987,-0.02267997760959772,-0.02399999999999987,-0.02536061538557788,-0.02399999999999987,-0.02809375053758456,-0.02399999999999987,-0.03088535675676829,-0.02399999999999987,-0.03374148023320123,-0.02399999999999987,-0.03666816743713008,-0.02399999999999987,-0.03967137183820102,-0.02399999999999987,-0.04275685496545134,-0.02399999999999987,-0.04593012487530812,-0.02399999999999987,-0.04919651089903221,-0.02399999999999987,-0.05256158029588232,-0.02399999999999987,-0.05603229655293307
