;Version, 1, 0
;vout_dc_sweep (VCTRL=0.02),;vout_dc_sweep (VCTRL=0.04),;vout_dc_sweep (VCTRL=0.06),;vout_dc_sweep (VCTRL=0.08),;vout_dc_sweep (VCTRL=0.1),;vout_dc_sweep (VCTRL=0.12),;vout_dc_sweep (VCTRL=0.14),;vout_dc_sweep (VCTRL=0.16),;vout_dc_sweep (VCTRL=0.18),;vout_dc_sweep (VCTRL=0.2),;vout_dc_sweep (VCTRL=0.22),;vout_dc_sweep (VCTRL=0.24),;vout_dc_sweep (VCTRL=0.26),;vout_dc_sweep (VCTRL=0.28),;vout_dc_sweep (VCTRL=0.3),;vout_dc_sweep (VCTRL=0.32),;vout_dc_sweep (VCTRL=0.34),;vout_dc_sweep (VCTRL=0.36),;vout_dc_sweep (VCTRL=0.38),;vout_dc_sweep (VCTRL=0.4)
;X, Y,;X, Y,;X, Y,;X, Y,;X, Y,;X, Y,;X, Y,;X, Y,;X, Y,;X, Y,;X, Y,;X, Y,;X, Y,;X, Y,;X, Y,;X, Y,;X, Y,;X, Y,;X, Y,;X, Y
;Re, Re,;Re, Re,;Re, Re,;Re, Re,;Re, Re,;Re, Re,;Re, Re,;Re, Re,;Re, Re,;Re, Re,;Re, Re,;Re, Re,;Re, Re,;Re, Re,;Re, Re,;Re, Re,;Re, Re,;Re, Re,;Re, Re,;Re, Re
;vin, V,;vin, V,;vin, V,;vin, V,;vin, V,;vin, V,;vin, V,;vin, V,;vin, V,;vin, V,;vin, V,;vin, V,;vin, V,;vin, V,;vin, V,;vin, V,;vin, V,;vin, V,;vin, V,;vin, V
;xunit, V,;xunit, V,;xunit, V,;xunit, V,;xunit, V,;xunit, V,;xunit, V,;xunit, V,;xunit, V,;xunit, V,;xunit, V,;xunit, V,;xunit, V,;xunit, V,;xunit, V,;xunit, V,;xunit, V,;xunit, V,;xunit, V,;xunit, V
-0.4,-0.07469623368077505,-0.4,-0.148991818860958,-0.4,-0.2222006365508986,-0.4,-0.2935768790939202,-0.4,-0.3618603488139274,-0.4,-0.4251948752426187,-0.4,-0.4816207319484745,-0.4,-0.5316375093203981,-0.4,-0.5767602172009625,-0.4,-0.6180624602108578,-0.4,-0.6562924110120278,-0.4,-0.6919832585576468,-0.4,-0.7255283893330678,-0.4,-0.7572231087788872,-0.4,-0.787292024251923,-0.4,-0.8159069118399641,-0.4,-0.8431993649232326,-0.4,-0.8692686026431977,-0.4,-0.8941878805229556,-0.4,-0.9180093464162205
-0.399,-0.07468374626585739,-0.399,-0.1489712723020979,-0.399,-0.222175440644218,-0.399,-0.2935483326300545,-0.399,-0.3618325828701938,-0.399,-0.4251691820765501,-0.399,-0.4815975295571332,-0.399,-0.5316147449284476,-0.399,-0.5767366888490606,-0.399,-0.6180388054831172,-0.399,-0.6562665691424291,-0.399,-0.6919543632306436,-0.399,-0.7254955749669424,-0.399,-0.7571854788088677,-0.399,-0.7872485912592151,-0.399,-0.8158567229867283,-0.399,-0.8431412066155135,-0.399,-0.8692013349261944,-0.399,-0.8941102479867308,-0.399,-0.9179190491987937
-0.398,-0.07467091362733247,-0.398,-0.148950047630926,-0.398,-0.222149550968471,-0.398,-0.29351894476245,-0.398,-0.3618039823165642,-0.398,-0.4251426712195037,-0.398,-0.4815735322381312,-0.398,-0.5315917972481935,-0.398,-0.5767134855198561,-0.398,-0.6180142904340837,-0.398,-0.6562398108090547,-0.398,-0.6919244792031719,-0.398,-0.7254616843109971,-0.398,-0.7571466694838815,-0.398,-0.7872038963768424,-0.398,-0.8158051027952936,-0.398,-0.8430815347420965,-0.398,-0.869132388328272,-0.398,-0.894030700586485,-0.398,-0.9178274694441573
-0.397,-0.07465773915265306,-0.397,-0.1489281014440511,-0.397,-0.2221229423736488,-0.397,-0.2934886917592305,-0.397,-0.3617745201656291,-0.397,-0.4251153193129559,-0.397,-0.4815487179354963,-0.397,-0.5315680317198745,-0.397,-0.5766894409091774,-0.397,-0.6179888922231648,-0.397,-0.6562121110963106,-0.397,-0.6918935801777745,-0.397,-0.7254266898826256,-0.397,-0.7571066522908674,-0.397,-0.7871578738199955,-0.397,-0.8157520189404109,-0.397,-0.8430202466048691,-0.397,-0.8690616559826858,-0.397,-0.8939491810586325,-0.397,-0.917733714616814
-0.396,-0.07464421433409929,-0.396,-0.1489054158996683,-0.396,-0.2220955922851247,-0.396,-0.2934575506747892,-0.396,-0.3617441732920477,-0.396,-0.4250871036738797,-0.396,-0.4815230645674282,-0.396,-0.5315434263615697,-0.396,-0.5766645326725641,-0.396,-0.6179625877819906,-0.396,-0.6561834459097278,-0.396,-0.6918616407685999,-0.396,-0.7253905647657853,-0.396,-0.7570653985683972,-0.396,-0.7871104929927792,-0.396,-0.8156974387355164,-0.396,-0.8429573073124451,-0.396,-0.8689891007321014,-0.396,-0.8938656499825409,-0.396,-0.9176377431071144
-0.395,-0.07463033045651235,-0.395,-0.1488819776002421,-0.395,-0.2220674775387259,-0.395,-0.2934254980741724,-0.395,-0.3617129180168632,-0.395,-0.4250580010770655,-0.395,-0.4814965495278732,-0.395,-0.5315179586754194,-0.395,-0.5766387379486766,-0.395,-0.6179353535178084,-0.395,-0.6561537906184109,-0.395,-0.691828635038409,-0.395,-0.7253532814767837,-0.395,-0.7570228790716242,-0.395,-0.7870617227026702,-0.395,-0.8156413288888866,-0.395,-0.8428926813669643,-0.395,-0.8689146848210096,-0.395,-0.8937800673592733,-0.395,-0.9175395127603629
-0.394,-0.07461607859254094,-0.394,-0.148857777868197,-0.394,-0.2220385743669437,-0.394,-0.2933925100422352,-0.394,-0.3616807300947387,-0.394,-0.4250279877426612,-0.394,-0.4814691496746282,-0.394,-0.5314916056361516,-0.394,-0.57661203334807,-0.394,-0.6179071653025009,-0.394,-0.6561231200443151,-0.394,-0.6917945364882175,-0.394,-0.7253148119544924,-0.394,-0.7569790639633311,-0.394,-0.787011531152688,-0.394,-0.8155836554974186,-0.394,-0.8428263326598471,-0.394,-0.8688383698938063,-0.394,-0.8936923926124575,-0.394,-0.9174389808806375
-0.393,-0.07460144959783443,-0.393,-0.14883281206336,-0.393,-0.2220088583848048,-0.393,-0.293358562200988,-0.393,-0.3616475847009097,-0.393,-0.4249970393234311,-0.393,-0.4814408413171867,-0.393,-0.5314643436793756,-0.393,-0.5765843949417935,-0.393,-0.6178779984614435,-0.393,-0.6560914084514048,-0.393,-0.6917593180468882,-0.393,-0.7252751275505658,-0.393,-0.7569339228050617,-0.393,-0.7869598859337951,-0.393,-0.8155243840406823,-0.393,-0.8427582244679189,-0.393,-0.868760116993379,-0.393,-0.8936025845896862,-0.393,-0.9173361042352335
-0.392,-0.07458643410620636,-0.392,-0.1488070779973734,-0.392,-0.221978304575446,-0.392,-0.2933236297388266,-0.392,-0.3616134564178484,-0.392,-0.4249651308917349,-0.392,-0.4814116002043325,-0.392,-0.5314361486896573,-0.392,-0.5765557982497984,-0.392,-0.617847827762212,-0.392,-0.6560586295347119,-0.392,-0.6917229520606737,-0.392,-0.7252341990196888,-0.392,-0.7568874245483662,-0.392,-0.786906754017481,-0.392,-0.8154634793752495,-0.392,-0.8426883194499054,-0.392,-0.8686798865601709,-0.392,-0.8935106015644628,-0.392,-0.9172308390596982
-0.391,-0.07457102252476866,-0.391,-0.1487805739416892,-0.391,-0.2219468872754309,-0.391,-0.2932876874570134,-0.391,-0.3615783192216411,-0.391,-0.4249322369262245,-0.391,-0.481381401511477,-0.391,-0.5314069959883647,-0.391,-0.5765262182291584,-0.391,-0.6178166274031417,-0.391,-0.6560247564092996,-0.391,-0.6916854102827256,-0.391,-0.7251919965098645,-0.391,-0.7568395375261562,-0.391,-0.7868521017485643,-0.391,-0.8154009057293492,-0.391,-0.8426165796433449,-0.391,-0.8685976384317293,-0.391,-0.8934164012387026,-0.391,-0.9171231410634689
-0.39,-0.074555205029051,-0.39,-0.1487532968809462,-0.39,-0.2219145801597946,-0.39,-0.2932507098411845,-0.39,-0.361542146468075,-0.39,-0.4248983312982629,-0.39,-0.4813502198277421,-0.39,-0.5313768603212982,-0.39,-0.5764956292621101,-0.39,-0.6177843710017561,-0.39,-0.6559897615991406,-0.39,-0.6916466638625856,-0.39,-0.7251484895527492,-0.39,-0.7567902294442145,-0.39,-0.7867958948382331,-0.39,-0.8153366266978418,-0.39,-0.8425429664619168,-0.39,-0.8685133318427682,-0.39,-0.8933199407458098,-0.39,-0.9170129654361209
-0.389,-0.07453897155811529,-0.389,-0.1487252414271918,-0.389,-0.2218813562268531,-0.389,-0.2932126711690457,-0.389,-0.3615049108784443,-0.389,-0.4248633872580645,-0.389,-0.4813180291427983,-0.389,-0.5313457158461113,-0.389,-0.5764640051439194,-0.389,-0.6177510315830615,-0.389,-0.6559536170259272,-0.389,-0.6916066833356792,-0.389,-0.7251036470540799,-0.389,-0.7567394673728601,-0.389,-0.7867380983573399,-0.389,-0.8152706052375572,-0.389,-0.8424674406932272,-0.389,-0.8684269254257576,-0.389,-0.8932211766543456,-0.389,-0.9169002668542362
-0.388,-0.0745223118096765,-0.388,-0.1486963994295976,-0.388,-0.2218471877827803,-0.388,-0.2931735456698294,-0.388,-0.3614665845250691,-0.388,-0.4248273774205666,-0.388,-0.4812848028334582,-0.388,-0.5313135361195165,-0.388,-0.5764313190705841,-0.388,-0.617716581567734,-0.388,-0.6559162939978287,-0.388,-0.6915654386128184,-0.388,-0.7250574372841813,-0.388,-0.7566872177388045,-0.388,-0.7866786767299779,-0.388,-0.8152028036630062,-0.388,-0.8423899624970582,-0.388,-0.868338377212062,-0.388,-0.893120064972296,-0.388,-0.9167849994889014
-0.387,-0.07450521523523723,-0.387,-0.1486667600705893,-0.387,-0.221812053823951,-0.387,-0.2931333077560816,-0.387,-0.3614271388165375,-0.387,-0.4247902737510239,-0.387,-0.4812505136500262,-0.387,-0.5312802940842991,-0.387,-0.5763975436263822,-0.387,-0.6176809927601986,-0.387,-0.6558777631982045,-0.387,-0.6915228989697332,-0.387,-0.7250098278685944,-0.387,-0.7566334463172062,-0.387,-0.7866175937273651,-0.387,-0.8151331836424935,-0.387,-0.842310491404109,-0.387,-0.8682476446336412,-0.387,-0.8930165611519612,-0.387,-0.9166671170138398
-0.386,-0.07448767103524623,-0.386,-0.1486363101983499,-0.386,-0.2217760064280845,-0.386,-0.2930919323523413,-0.386,-0.3613865444826814,-0.386,-0.424752047550343,-0.386,-0.4812151337024226,-0.386,-0.5312459620561346,-0.386,-0.5763626507712676,-0.386,-0.6176442363366215,-0.386,-0.655837994674289,-0.386,-0.6914790330366624,-0.386,-0.7249607857788393,-0.386,-0.7565781182239617,-0.386,-0.7865548124620467,-0.386,-0.8150617061946579,-0.386,-0.8422289863152511,-0.386,-0.8681546845253417,-0.386,-0.8929106200954661,-0.386,-0.9165465726141828
-0.385,-0.07446966815429912,-0.385,-0.1486050347163699,-0.385,-0.2217390416351268,-0.385,-0.2930493953435696,-0.385,-0.3613447715592741,-0.385,-0.4247126694401564,-0.385,-0.4811786344460721,-0.385,-0.5312105117102222,-0.385,-0.5763266118281446,-0.385,-0.6176062828328198,-0.385,-0.6557969578258726,-0.385,-0.6914338087880008,-0.385,-0.7249102773233345,-0.385,-0.7565211979082445,-0.385,-0.7864902953824574,-0.385,-0.8149883316854519,-0.385,-0.8421454055013157,-0.385,-0.8680594531277799,-0.385,-0.8928021961609174,-0.385,-0.9164233189958887
-0.384,-0.0744511952763951,-0.384,-0.148572916937187,-0.384,-0.2217011331154426,-0.384,-0.293005674149537,-0.384,-0.3613017893724797,-0.384,-0.4246721093476437,-0.384,-0.4811409866675818,-0.384,-0.5311739140677434,-0.384,-0.5762893974700051,-0.384,-0.6175671021321152,-0.384,-0.6557546213939861,-0.384,-0.691387193532047,-0.384,-0.7248582681384943,-0.384,-0.7564626491453207,-0.384,-0.786424004267851,-0.384,-0.8149130198256015,-0.384,-0.8420597066034319,-0.384,-0.8679619060908462,-0.384,-0.8926912431692097,-0.384,-0.9162973083958059
-0.383,-0.07443224082024225,-0.383,-0.1485399388677069,-0.383,-0.221662253498137,-0.383,-0.2929607483846783,-0.383,-0.3612575665230493,-0.383,-0.4246303364901128,-0.383,-0.4811021604702073,-0.383,-0.5311361394821703,-0.383,-0.5762509777069696,-0.383,-0.6175266634531392,-0.383,-0.6557109534496165,-0.383,-0.6913391539008518,-0.383,-0.7248047231800265,-0.383,-0.7564024350296632,-0.383,-0.7863559002236361,-0.383,-0.8148357296685506,-0.383,-0.841971846633947,-0.383,-0.8678619984778418,-0.383,-0.8925777144114861,-0.383,-0.9161684925923872
-0.382,-0.07441279293465275,-0.382,-0.1485060814247776,-0.382,-0.2216223743210917,-0.382,-0.2929146004729413,-0.382,-0.3612120708702724,-0.382,-0.424587319359337,-0.382,-0.4810621252591166,-0.382,-0.5310971576254008,-0.382,-0.5762113218732279,-0.382,-0.6174849353376068,-0.382,-0.6556659213824629,-0.382,-0.6912896558402021,-0.382,-0.7247496067144608,-0.382,-0.7563405179683924,-0.382,-0.7862859436771303,-0.382,-0.8147564196089262,-0.382,-0.841881781977928,-0.382,-0.8677596847702577,-0.382,-0.8924615626572696,-0.382,-0.9160368229170482
-0.381,-0.0743928394940172,-0.381,-0.1484713245918576,-0.381,-0.2215814659787489,-0.381,-0.2928672159662575,-0.381,-0.3611652695157068,-0.381,-0.4245430257056776,-0.381,-0.4810208497264703,-0.381,-0.5310569374737796,-0.381,-0.5761703986138998,-0.381,-0.6174418856380867,-0.381,-0.6556194918897664,-0.381,-0.6912386645997604,-0.381,-0.7246928823109225,-0.381,-0.7562768596750691,-0.381,-0.7862140943737672,-0.381,-0.8146750473815444,-0.381,-0.8417894683952861,-0.381,-0.8676549188732213,-0.381,-0.8923427401632695,-0.381,-0.9159022502661771
-0.38,-0.07437236809389414,-0.38,-0.1484356475300874,-0.38,-0.2215394976676233,-0.38,-0.2928185832386954,-0.38,-0.3611171287866941,-0.38,-0.4244974225219846,-0.38,-0.4809783018363262,-0.38,-0.5310154472939835,-0.38,-0.5761281758718402,-0.38,-0.6173974815057661,-0.38,-0.6555716309652223,-0.38,-0.6911861447233812,-0.38,-0.7246345128331827,-0.38,-0.7562114211638559,-0.38,-0.7861403113737747,-0.38,-0.8145915700609706,-0.38,-0.8416948610235288,-0.38,-0.8675476541216046,-0.38,-0.8922211986828581,-0.38,-0.9157647251137866
-0.379,-0.07435136604670611,-0.379,-0.1483990286556436,-0.379,-0.2214964373294797,-0.379,-0.292768692328967,-0.379,-0.3610676142196612,-0.379,-0.4244504760273065,-0.379,-0.4809344488093792,-0.379,-0.5309726546288011,-0.379,-0.5760846208743906,-0.379,-0.6173516893782617,-0.379,-0.6555223038880066,-0.379,-0.6911320600396312,-0.379,-0.7245744604320133,-0.379,-0.7561441627440912,-0.379,-0.7860645530493555,-0.379,-0.8145059440616741,-0.379,-0.8415979143811555,-0.379,-0.867437843286825,-0.379,-0.8920968894762378,-0.379,-0.9156241975248003
-0.378,-0.0743298203775753,-0.378,-0.1483614456927715,-0.378,-0.2214522515921376,-0.378,-0.2927175330468452,-0.378,-0.361016690543265,-0.378,-0.4244021516504073,-0.378,-0.4808892571075564,-0.378,-0.5309285262828243,-0.378,-0.576039700120115,-0.378,-0.6173044749674655,-0.378,-0.6554714752119378,-0.378,-0.6910763736525334,-0.378,-0.7245126865378648,-0.378,-0.7560750440152828,-0.378,-0.7859867770823843,-0.378,-0.814418125138782,-0.378,-0.8414985823717315,-0.378,-0.8673254385843351,-0.378,-0.8919697633212869,-0.378,-0.9154806171689758
-0.377,-0.07430771782031131,-0.377,-0.1483228757094848,-0.377,-0.2214069057078805,-0.377,-0.2926650928681003,-0.377,-0.3609643216613445,-0.377,-0.4243524140131086,-0.377,-0.4808426924184843,-0.377,-0.5308830283080687,-0.377,-0.5759933793655221,-0.377,-0.6172558032474655,-0.377,-0.6554191087547948,-0.377,-0.6910190479325755,-0.377,-0.7244491518539012,-0.377,-0.7560040238625603,-0.377,-0.7859069404626657,-0.377,-0.8143280683894596,-0.377,-0.8413968182886236,-0.377,-0.8672103916818173,-0.377,-0.8918397705250896,-0.377,-0.9153339333354455
-0.376,-0.07428504481355835,-0.376,-0.148283295140974,-0.376,-0.2213603634894761,-0.376,-0.2926113552778542,-0.376,-0.3609104706357464,-0.376,-0.4243012269134995,-0.376,-0.4807947196398399,-0.376,-0.5308361259895351,-0.376,-0.5759456236118106,-0.376,-0.6172056384425731,-0.376,-0.6553651675878224,-0.376,-0.6909600445079883,-0.376,-0.7243838163494211,-0.376,-0.7559310604526114,-0.376,-0.7858249994867529,-0.376,-0.8142357282549425,-0.376,-0.8412925748204531,-0.376,-0.8670926537080872,-0.376,-0.891706860936154,-0.376,-0.9151840949478807
-0.375,-0.07426178749712875,-0.375,-0.1482426798043213,-0.375,-0.2213125872438668,-0.375,-0.2925562989537693,-0.375,-0.3608550996690227,-0.375,-0.4242485533089799,-0.375,-0.4807453028636068,-0.375,-0.5307877838307473,-0.375,-0.5758963970916476,-0.375,-0.617153944015456,-0.375,-0.6553096140254462,-0.375,-0.6908993242563415,-0.375,-0.7243166392536781,-0.375,-0.7558561112301221,-0.375,-0.7857409097573715,-0.375,-0.8141410585232339,-0.375,-0.8411858040572409,-0.375,-0.8669721752627124,-0.375,-0.8915709839573035,-0.375,-0.9150310505802417
-0.374,-0.07423793170853932,-0.374,-0.148201004907073,-0.374,-0.2212635377036558,-0.374,-0.292499897755035,-0.374,-0.3607981700870384,-0.374,-0.424194355299213,-0.374,-0.4806944053602656,-0.374,-0.5307379655392601,-0.374,-0.575845663256017,-0.374,-0.6171006826554244,-0.374,-0.6552524096152285,-0.374,-0.6908368472964739,-0.374,-0.7242475790501552,-0.374,-0.7557791329147593,-0.374,-0.785654626183465,-0.374,-0.8140440123324877,-0.374,-0.8410764574972854,-0.374,-0.8668489064263523,-0.374,-0.8914320885592486,-0.374,-0.9148747484731301
-0.373,-0.07421346297976061,-0.373,-0.148158245051452,-0.373,-0.2212131739566068,-0.373,-0.2924421212189847,-0.373,-0.360739642321513,-0.373,-0.4241385941089747,-0.373,-0.4806419895629219,-0.373,-0.5306866340122205,-0.373,-0.5757933847611462,-0.373,-0.6170458162668926,-0.373,-0.6551935151280871,-0.373,-0.6907725729807894,-0.373,-0.724176593471295,-0.373,-0.7557000814987114,-0.373,-0.7855661029808788,-0.373,-0.8139445421750992,-0.373,-0.8409644860547714,-0.373,-0.86672279677182,-0.373,-0.8912901232948269,-0.373,-0.9147151365507064
-0.372,-0.07418836653420935,-0.372,-0.1481143742355138,-0.372,-0.2211614533735362,-0.372,-0.2923829352457252,-0.372,-0.3606794758925256,-0.372,-0.4240812300709299,-0.372,-0.4805880170514145,-0.372,-0.5306337513219155,-0.372,-0.5757395234555569,-0.372,-0.6169893059580372,-0.372,-0.6551328905488163,-0.372,-0.6907064598879545,-0.372,-0.7241036394937299,-0.372,-0.7556189122448206,-0.372,-0.7854752936737229,-0.372,-0.8138425999025158,-0.372,-0.8408498400681156,-0.372,-0.8665937953758704,-0.372,-0.8911450363139057,-0.372,-0.9145521624381645
-0.371,-0.0741626272839897,-0.371,-0.1480693658521479,-0.371,-0.2211083315351845,-0.371,-0.2923223027599677,-0.371,-0.3606176293910237,-0.371,-0.4240222226083695,-0.371,-0.4805324485364155,-0.371,-0.5305792787014157,-0.371,-0.5756840403672465,-0.371,-0.6169311120296864,-0.371,-0.6550704950669273,-0.371,-0.6906384658160128,-0.371,-0.7240286733340403,-0.371,-0.7555355796853322,-0.371,-0.7853821510964155,-0.371,-0.8137381367307864,-0.371,-0.8407324693090764,-0.371,-0.8664618508317105,-0.371,-0.8909967753789316,-0.371,-0.9143857734797427
-0.37,-0.07413622982742396,-0.37,-0.1480231926866047,-0.37,-0.2210537621589561,-0.37,-0.2922601842565244,-0.37,-0.3605540604613822,-0.37,-0.4239615302179169,-0.37,-0.4804752438435532,-0.37,-0.530523176530303,-0.37,-0.5756268956910531,-0.37,-0.6168711939644691,-0.37,-0.6550062870678512,-0.37,-0.6905685477759681,-0.37,-0.7239516504450639,-0.37,-0.7554500376212856,-0.37,-0.7852866273964419,-0.37,-0.8136311032468648,-0.37,-0.8406123229926111,-0.37,-0.866326911262228,-0.37,-0.8908452878811245,-0.37,-0.9142159167572503
-0.369,-0.07410915844686627,-0.369,-0.1479758269130333,-0.369,-0.2209976970269338,-0.369,-0.292196538211388,-0.369,-0.3604887257840466,-0.369,-0.4238991104522501,-0.369,-0.4804163618975856,-0.369,-0.5304654043205115,-0.369,-0.5755680487762076,-0.369,-0.616809510416258,-0.369,-0.6549402241245262,-0.369,-0.6904966619858447,-0.369,-0.7238725255127928,-0.369,-0.7553622391225744,-0.369,-0.7851886740378478,-0.369,-0.8135214494156779,-0.369,-0.8404893497874968,-0.369,-0.8661889243339426,-0.369,-0.8906905208572978,-0.369,-0.9140425391090895
-0.368,-0.07408139710684303,-0.368,-0.1479272400903899,-0.368,-0.2209400859172197,-0.368,-0.2921313213748518,-0.368,-0.3604215810583287,-0.368,-0.4238349199028577,-0.368,-0.4803557607066514,-0.368,-0.5304059207023246,-0.368,-0.5755074581141245,-0.368,-0.6167460191999307,-0.368,-0.6548722629894088,-0.368,-0.6904227638652776,-0.368,-0.7237912524538797,-0.368,-0.7552721365286991,-0.368,-0.785088241805481,-0.368,-0.8134091245879759,-0.368,-0.8403634978277268,-0.368,-0.8660478372716643,-0.368,-0.8905324210072803,-0.368,-0.913865587149744
-0.367,-0.07405292945253361,-0.367,-0.1478774031580068,-0.367,-0.220880876541782,-0.367,-0.2920644889728397,-0.367,-0.3603525809854016,-0.367,-0.4237689141828576,-0.367,-0.480293397346629,-0.367,-0.5303446834105447,-0.367,-0.5754450813264557,-0.367,-0.6166806772814865,-0.367,-0.6548023595869347,-0.367,-0.6903468080306452,-0.367,-0.7237077844137921,-0.367,-0.7551796814502409,-0.367,-0.7849852808100065,-0.367,-0.8132940775089689,-0.367,-0.8402347147246685,-0.367,-0.865903596873854,-0.367,-0.890370934711944,-0.367,-0.9136850072897141
-0.366,-0.07402373880860358,-0.366,-0.1478262864310294,-0.366,-0.2208200144955299,-0.366,-0.2919959948411854,-0.366,-0.3602816792515873,-0.366,-0.4237010479099221,-0.366,-0.4802292279456458,-0.366,-0.5302816492708827,-0.366,-0.5753808751534352,-0.366,-0.6166134407685611,-0.366,-0.6547304690064689,-0.366,-0.6902687482907881,-0.366,-0.7236220737656291,-0.366,-0.7550848247710756,-0.366,-0.7848797404937088,-0.366,-0.8131762563277638,-0.366,-0.8401029475799886,-0.366,-0.8657561495286763,-0.366,-0.890206008051791,-0.366,-0.9135007457558674
