;Version, 1, 0
;/Q0:gm,;/Q0/C
;X, Y,;X, Y
;Re, Re,;Re, Re
;bias, S,;bias, I
;xunit, yunit,;xunit, A
0,1.893950080367977e-16,0,3.801354434115503e-13
0.001,1.966660428993022e-16,0.001,3.801356392116499e-13
0.002,2.042162231797326e-16,0.002,3.80135842522627e-13
0.003,2.120562658219044e-16,0.003,3.801360536325602e-13
0.004,2.201972992197163e-16,0.004,3.801362728405787e-13
0.005,2.286508790139458e-16,0.005,3.801365004572936e-13
0.006,2.374290044955073e-16,0.006,3.801367368052214e-13
0.007,2.465441356385172e-16,0.007,3.801369822192538e-13
0.008,2.560092107873009e-16,0.008,3.801372370471243e-13
0.009000000000000001,2.658376650224681e-16,0.009000000000000001,3.801375016499085e-13
0.01,2.760434492321247e-16,0.01,3.80137776402534e-13
0.011,2.866410499152946e-16,0.011,3.80138061694304e-13
0.012,2.976455097456625e-16,0.012,3.801383579294595e-13
0.013,3.090724489248323e-16,0.013,3.801386655277477e-13
0.01400000000000001,3.209380873554093e-16,0.01400000000000001,3.801389849250145e-13
0.01500000000000001,3.332592676653871e-16,0.01500000000000001,3.801393165738238e-13
0.01600000000000001,3.460534791165202e-16,0.01600000000000001,3.80139660944103e-13
0.01700000000000001,3.593388824306242e-16,0.01700000000000001,3.801400185238007e-13
0.01800000000000001,3.731343355690456e-16,0.01800000000000001,3.801403898195876e-13
0.01900000000000001,3.874594205018978e-16,0.01900000000000001,3.801407753575651e-13
0.02000000000000001,4.023344710050551e-16,0.02000000000000001,3.801411756840149e-13
0.02100000000000001,4.177806015244116e-16,0.02100000000000001,3.801415913661842e-13
0.02200000000000001,4.338197371482686e-16,0.02200000000000001,3.801420229930684e-13
0.02300000000000001,4.504746447305427e-16,0.02300000000000001,3.801424711762585e-13
0.02400000000000001,4.67768965208873e-16,0.02400000000000001,3.801429365508063e-13
0.02500000000000002,4.857272471635419e-16,0.02500000000000002,3.801434197761258e-13
0.02600000000000002,5.043749816648484e-16,0.02600000000000002,3.801439215369246e-13
0.02700000000000002,5.237386384583994e-16,0.02700000000000002,3.801444425441742e-13
0.02800000000000002,5.438457035396848e-16,0.02800000000000002,3.801449835361211e-13
0.02900000000000002,5.647247181712839e-16,0.02900000000000002,3.801455452793283e-13
0.03000000000000002,5.864053193980833e-16,0.03000000000000002,3.801461285697681e-13
0.03100000000000002,6.089182821180259e-16,0.03100000000000002,3.801467342339411e-13
0.03200000000000002,6.322955627681139e-16,0.03200000000000002,3.801473631300582e-13
0.03300000000000002,6.565703446876795e-16,0.03300000000000002,3.801480161492452e-13
0.03400000000000002,6.817770852233235e-16,0.03400000000000002,3.801486942168183e-13
0.03500000000000002,7.079515646423887e-16,0.03500000000000002,3.801493982935832e-13
0.03600000000000003,7.351309369244073e-16,0.03600000000000003,3.80150129377207e-13
0.03700000000000003,7.633537825026248e-16,0.03700000000000003,3.80150888503626e-13
0.03800000000000003,7.926601630304714e-16,0.03800000000000003,3.801516767485143e-13
0.03900000000000003,8.230916782507274e-16,0.03900000000000003,3.801524952288113e-13
0.04000000000000003,8.54691525048115e-16,0.04000000000000003,3.801533451043041e-13
0.04100000000000003,8.875045587691434e-16,0.04100000000000003,3.801542275792669e-13
0.04200000000000003,9.215773568962624e-16,0.04200000000000003,3.801551439041736e-13
0.04300000000000003,9.569582851667098e-16,0.04300000000000003,3.801560953774676e-13
0.04400000000000003,9.936975662299203e-16,0.04400000000000003,3.801570833473992e-13
0.04500000000000003,1.031847350940958e-15,0.04500000000000003,3.801581092139426e-13
0.04600000000000003,1.071461792391184e-15,0.04600000000000003,3.801591744307731e-13
0.04700000000000003,1.112597122781268e-15,0.04700000000000003,3.801602805073403e-13
0.04800000000000004,1.155311733245561e-15,0.04800000000000004,3.801614290109801e-13
0.04900000000000004,1.199666256741431e-15,0.04900000000000004,3.80162621569168e-13
0.05000000000000004,1.245723654120864e-15,0.05000000000000004,3.80163859871809e-13
0.05100000000000004,1.293549303506775e-15,0.05100000000000004,3.801651456736358e-13
0.05200000000000004,1.343211093100827e-15,0.05200000000000004,3.801664807966947e-13
0.05300000000000004,1.394779517554499e-15,0.05300000000000004,3.801678671329279e-13
0.05400000000000004,1.448327778040238e-15,0.05400000000000004,3.801693066468579e-13
0.05500000000000004,1.503931886164725e-15,0.05500000000000004,3.801708013783701e-13
0.05600000000000004,1.561670771871812e-15,0.05600000000000004,3.801723534456012e-13
0.05700000000000004,1.621626395488283e-15,0.05700000000000004,3.801739650479516e-13
0.05800000000000004,1.683883864071423e-15,0.05800000000000004,3.801756384691798e-13
0.05900000000000005,1.748531552223831e-15,0.05900000000000005,3.801773760806689e-13
0.06000000000000005,1.815661227546608e-15,0.06000000000000005,3.801791803447698e-13
0.06100000000000005,1.885368180909303e-15,0.06100000000000005,3.801810538182931e-13
0.06200000000000005,1.957751361721435e-15,0.06200000000000005,3.801829991561371e-13
0.06300000000000004,2.03291351839767e-15,0.06300000000000004,3.801850191150516e-13
0.06400000000000004,2.110961344215875e-15,0.06400000000000004,3.801871165575299e-13
0.06500000000000004,2.192005628775586e-15,0.06500000000000004,3.801892944558896e-13
0.06600000000000004,2.276161415271266e-15,0.06600000000000004,3.801915558964733e-13
0.06700000000000005,2.363548163804131e-15,0.06700000000000005,3.801939040840274e-13
0.06800000000000005,2.454289920963993e-15,0.06800000000000005,3.801963423462285e-13
0.06900000000000005,2.548515495922383e-15,0.06900000000000005,3.801988741384257e-13
0.07000000000000005,2.646358643286294e-15,0.07000000000000005,3.802015030485212e-13
0.07100000000000005,2.747958252972658e-15,0.07100000000000005,3.802042328020664e-13
0.07200000000000005,2.853458547372626e-15,0.07200000000000005,3.802070672675209e-13
0.07300000000000005,2.963009286086289e-15,0.07300000000000005,3.802100104617656e-13
0.07400000000000005,3.076765978517571e-15,0.07400000000000005,3.802130665557823e-13
0.07500000000000005,3.194890104631623e-15,0.07500000000000005,3.802162398805568e-13
0.07600000000000005,3.317549344188351e-15,0.07600000000000005,3.80219534933235e-13
0.07700000000000005,3.444917814776623e-15,0.07700000000000005,3.802229563834819e-13
0.07800000000000006,3.577176318988324e-15,0.07800000000000006,3.802265090801202e-13
0.07900000000000006,3.714512601081619e-15,0.07900000000000006,3.802301980579706e-13
0.08000000000000006,3.857121613499551e-15,0.08000000000000006,3.802340285450293e-13
0.08100000000000006,4.005205793620712e-15,0.08100000000000006,3.802380059698558e-13
0.08200000000000006,4.158975351135768e-15,0.08200000000000006,3.802421359692595e-13
0.08300000000000006,4.318648566457625e-15,0.08300000000000006,3.802464243963016e-13
0.08400000000000006,4.484452100589153e-15,0.08400000000000006,3.802508773286045e-13
0.08500000000000006,4.656621316887299e-15,0.08500000000000006,3.802555010769383e-13
0.08600000000000006,4.835400615182038e-15,0.08600000000000006,3.802603021941939e-13
0.08700000000000006,5.021043778722789e-15,0.08700000000000006,3.802652874846492e-13
0.08800000000000006,5.213814334445974e-15,0.08800000000000006,3.802704640136212e-13
0.08900000000000007,5.41398592707519e-15,0.08900000000000007,3.802758391175017e-13
0.09000000000000007,5.621842707583826e-15,0.09000000000000007,3.802814204141233e-13
0.09100000000000007,5.837679736573142e-15,0.09100000000000007,3.802872158135775e-13
0.09200000000000007,6.061803403137586e-15,0.09200000000000007,3.802932335294212e-13
0.09300000000000007,6.29453185981241e-15,0.09300000000000007,3.802994820903349e-13
0.09400000000000007,6.536195474220216e-15,0.09400000000000007,3.803059703521894e-13
0.09500000000000007,6.787137298058763e-15,0.09500000000000007,3.803127075106085e-13
0.09600000000000007,7.047713554095259e-15,0.09600000000000007,3.803197031140135e-13
0.09700000000000007,7.3182941418581e-15,0.09700000000000007,3.803269670771439e-13
0.09800000000000007,7.599263162744878e-15,0.09800000000000007,3.803345096951243e-13
0.09900000000000007,7.891019465291062e-15,0.09900000000000007,3.803423416580517e-13
0.1000000000000001,8.193977211374465e-15,0.1000000000000001,3.80350474066151e-13
0.1010000000000001,8.508566464158644e-15,0.1010000000000001,3.803589184455161e-13
0.1020000000000001,8.835233798609435e-15,0.1020000000000001,3.803676867644311e-13
0.1030000000000001,9.17444293545321e-15,0.1030000000000001,3.803767914503571e-13
0.1040000000000001,9.526675399474671e-15,0.1040000000000001,3.803862454075454e-13
0.1050000000000001,9.892431203089882e-15,0.1050000000000001,3.803960620353265e-13
0.1060000000000001,1.02722295561643e-14,0.1060000000000001,3.804062552470908e-13
0.1070000000000001,1.066660960308517e-14,0.1070000000000001,3.804168394900446e-13
0.1080000000000001,1.107613118813174e-14,0.1080000000000001,3.804278297656583e-13
0.1090000000000001,1.150137565023324e-14,0.1090000000000001,3.804392416509602e-13
0.1100000000000001,1.194294664823934e-14,0.1100000000000001,3.804510913205965e-13
0.1110000000000001,1.240147101787803e-14,0.1110000000000001,3.804633955697714e-13
0.1120000000000001,1.287759966161523e-14,0.1120000000000001,3.804761718380551e-13
0.1130000000000001,1.337200847268058e-14,0.1130000000000001,3.804894382341161e-13
0.1140000000000001,1.388539929456979e-14,0.1140000000000001,3.805032135613742e-13
0.1150000000000001,1.441850091738799e-14,0.1150000000000001,3.805175173446707e-13
0.1160000000000001,1.497207011244634e-14,0.1160000000000001,3.805323698579448e-13
0.1170000000000001,1.554689270658123e-14,0.1170000000000001,3.805477921529681e-13
0.1180000000000001,1.614378469772295e-14,0.1180000000000001,3.80563806089204e-13
0.1190000000000001,1.67635934132948e-14,0.1190000000000001,3.805804343647874e-13
0.1200000000000001,1.740719871308803e-14,0.1200000000000001,3.805977005486951e-13
0.1210000000000001,1.807551423832299e-14,0.1210000000000001,3.806156291141827e-13
0.1220000000000001,1.876948870866451e-14,0.1220000000000001,3.80634245473455e-13
0.1230000000000001,1.949010726903718e-14,0.1230000000000001,3.806535760136974e-13
0.1240000000000001,2.023839288815265e-14,0.1240000000000001,3.806736481345146e-13
0.1250000000000001,2.101540781072878e-14,0.1250000000000001,3.806944902867289e-13
0.1260000000000001,2.182225506546938e-14,0.1260000000000001,3.807161320127405e-13
0.1270000000000001,2.266008003094188e-14,0.1270000000000001,3.807386039884099e-13
0.1280000000000001,2.353007206157562e-14,0.1280000000000001,3.807619380665496e-13
0.1290000000000001,2.443346617608884e-14,0.1290000000000001,3.807861673220646e-13
0.1300000000000001,2.537154481074488e-14,0.1300000000000001,3.808113260988669e-13
0.1310000000000001,2.634563963992088e-14,0.1310000000000001,3.808374500585496e-13
0.1320000000000001,2.735713346657858e-14,0.1320000000000001,3.808645762309476e-13
0.1330000000000001,2.840746218531862e-14,0.1330000000000001,3.808927430666428e-13
0.1340000000000001,2.949811682080559e-14,0.1340000000000001,3.809219904914727e-13
0.1350000000000001,3.063064564445766e-14,0.1350000000000001,3.809523599631401e-13
0.1360000000000001,3.180665637240483e-14,0.1360000000000001,3.809838945299738e-13
0.1370000000000001,3.302781844783873e-14,0.1370000000000001,3.810166388919765e-13
0.1380000000000001,3.429586541099278e-14,0.1380000000000001,3.810506394642048e-13
0.1390000000000001,3.56125973601141e-14,0.1390000000000001,3.810859444425528e-13
0.1400000000000001,3.697988350692505e-14,0.1400000000000001,3.811226038720904e-13
0.1410000000000001,3.839966483020453e-14,0.1410000000000001,3.811606697180365e-13
0.1420000000000001,3.98739568312452e-14,0.1420000000000001,3.81200195939398e-13
0.1430000000000001,4.140485239511327e-14,0.1430000000000001,3.812412385655031e-13
0.1440000000000001,4.299452476175983e-14,0.1440000000000001,3.81283855775421e-13
0.1450000000000001,4.464523061121179e-14,0.1450000000000001,3.813281079804629e-13
0.1460000000000001,4.635931326721193e-14,0.1460000000000001,3.813740579098132e-13
0.1470000000000001,4.813920602386846e-14,0.1470000000000001,3.814217706994795e-13
0.1480000000000001,4.998743560002491e-14,0.1480000000000001,3.814713139846458e-13
0.1490000000000001,5.190662572626383e-14,0.1490000000000001,3.815227579955607e-13
0.1500000000000001,5.389950086962759e-14,0.1500000000000001,3.815761756571036e-13
0.1510000000000001,5.596889010135384e-14,0.1510000000000001,3.816316426921974e-13
0.1520000000000001,5.81177311131086e-14,0.1520000000000001,3.816892377291558e-13
0.1530000000000001,6.034907438742169e-14,0.1530000000000001,3.817490424131644e-13
0.1540000000000001,6.266608752824617e-14,0.1540000000000001,3.818111415220488e-13
0.1550000000000001,6.507205975778802e-14,0.1550000000000001,3.818756230864734e-13
0.1560000000000001,6.757040658598836e-14,0.1560000000000001,3.819425785147467e-13
0.1570000000000001,7.016467465929278e-14,0.1570000000000001,3.82012102722431e-13
0.1580000000000001,7.285854679558702e-14,0.1580000000000001,3.820842942669259e-13
0.1590000000000001,7.565584721244235e-14,0.1590000000000001,3.821592554871878e-13
0.1600000000000001,7.856054695610863e-14,0.1600000000000001,3.822370926488582e-13
0.1610000000000001,8.157676953894039e-14,0.1610000000000001,3.823179160949063e-13
0.1620000000000001,8.470879679328064e-14,0.1620000000000001,3.82401840402107e-13
0.1630000000000001,8.796107495009598e-14,0.1630000000000001,3.824889845434737e-13
0.1640000000000001,9.133822095100234e-14,0.1640000000000001,3.825794720569599e-13
0.1650000000000001,9.48450290026428e-14,0.1650000000000001,3.826734312206292e-13
0.1660000000000001,9.848647738271034e-14,0.1660000000000001,3.827709952345194e-13
0.1670000000000001,1.022677355072931e-13,0.1670000000000001,3.828723024095118e-13
0.1680000000000001,1.061941712695708e-13,0.1680000000000001,3.829774963634549e-13
0.1690000000000001,1.102713586602682e-13,0.1690000000000001,3.830867262247777e-13
0.1700000000000001,1.145050856807085e-13,0.1700000000000001,3.832001468439646e-13
0.1710000000000001,1.189013625596737e-13,0.1710000000000001,3.83317919013099e-13
0.1720000000000001,1.234664302857532e-13,0.1720000000000001,3.834402096938515e-13
0.1730000000000001,1.282067694672986e-13,0.1730000000000001,3.835671922542385e-13
0.1740000000000001,1.331291095325414e-13,0.1740000000000001,3.836990467144248e-13
0.1750000000000001,1.382404382829549e-13,0.1750000000000001,3.838359600019858e-13
0.1760000000000001,1.435480118134099e-13,0.1760000000000001,3.839781262169486e-13
0.1770000000000001,1.490593648132268e-13,0.1770000000000001,3.841257469070326e-13
0.1780000000000001,1.547823212627112e-13,0.1780000000000001,3.842790313534146e-13
0.1790000000000001,1.607250055403985e-13,0.1790000000000001,3.8443819686748e-13
0.1800000000000001,1.668958539567522e-13,0.1800000000000001,3.846034690989591e-13
0.1810000000000001,1.733036267307037e-13,0.1810000000000001,3.84775082355899e-13
0.1820000000000001,1.799574204260115e-13,0.1820000000000001,3.849532799368831e-13
0.1830000000000001,1.868666808651246e-13,0.1830000000000001,3.851383144760246e-13
0.1840000000000001,1.940412165388741e-13,0.1840000000000001,3.853304483011962e-13
0.1850000000000001,2.014912125310205e-13,0.1850000000000001,3.855299538060077e-13
0.1860000000000001,2.092272449774267e-13,0.1860000000000001,3.857371138360371e-13
0.1870000000000001,2.172602960803947e-13,0.1870000000000001,3.859522220899068e-13
0.1880000000000001,2.256017696994788e-13,0.1880000000000001,3.861755835357476e-13
0.1890000000000001,2.34263507540884e-13,0.1890000000000001,3.864075148436199e-13
0.1900000000000001,2.432578059684884e-13,0.1900000000000001,3.866483448345758e-13
0.1910000000000001,2.52597433460283e-13,0.1910000000000001,3.868984149469018e-13
0.1920000000000001,2.622956487350684e-13,0.1920000000000001,3.871580797202802e-13
0.1930000000000001,2.723662195751222e-13,0.1930000000000001,3.87427707298534e-13
0.1940000000000001,2.828234423715551e-13,0.1940000000000001,3.877076799516538e-13
0.1950000000000001,2.936821624200986e-13,0.1950000000000001,3.879983946178535e-13
0.1960000000000001,3.049577949961637e-13,0.1960000000000001,3.883002634664422e-13
0.1970000000000001,3.166663472390525e-13,0.1970000000000001,3.886137144822846e-13
0.1980000000000001,3.288244408764166e-13,0.1980000000000001,3.889391920726812e-13
0.1990000000000001,3.414493358212177e-13,0.1990000000000001,3.892771576975587e-13
0.2000000000000001,3.54558954674698e-13,0.2000000000000001,3.896280905238407e-13
0.2010000000000002,3.681719081701099e-13,0.2010000000000002,3.89992488104904e-13
0.2020000000000002,3.823075215933696e-13,0.2020000000000002,3.903708670861343e-13
0.2030000000000002,3.96985862218135e-13,0.2030000000000002,3.907637639375567e-13
0.2040000000000002,4.122277677942181e-13,0.2040000000000002,3.911717357145618e-13
0.2050000000000002,4.280548761298371e-13,0.2050000000000002,3.915953608478443e-13
0.2060000000000002,4.444896558096486e-13,0.2060000000000002,3.920352399636497e-13
0.2070000000000002,4.615554380921893e-13,0.2070000000000002,3.924919967354845e-13
0.2080000000000002,4.792764500320326e-13,0.2080000000000002,3.929662787685335e-13
0.2090000000000002,4.976778488736574e-13,0.2090000000000002,3.934587585180066e-13
0.2100000000000002,5.167857577658249e-13,0.2100000000000002,3.939701342427068e-13
0.2110000000000002,5.36627302847254e-13,0.2110000000000002,3.9450113099523e-13
0.2120000000000002,5.572306517561697e-13,0.2120000000000002,3.950525016501399e-13
0.2130000000000002,5.78625053618396e-13,0.2130000000000002,3.956250279716007e-13
0.2140000000000002,6.008408805707921e-13,0.2140000000000002,3.962195217219683e-13
0.2150000000000002,6.239096708790171e-13,0.2150000000000002,3.968368258129775e-13
0.2160000000000002,6.478641737107084e-13,0.2160000000000002,3.97477815501029e-13
0.2170000000000002,6.727383956277533e-13,0.2170000000000002,3.981433996283965e-13
0.2180000000000002,6.985676488636508e-13,0.2180000000000002,3.988345219120653e-13
0.2190000000000002,7.253886014544118e-13,0.2190000000000002,3.995521622820043e-13
0.2200000000000002,7.532393292942748e-13,0.2200000000000002,4.002973382708224e-13
0.2210000000000002,7.821593701900277e-13,0.2210000000000002,4.010711064567274e-13
0.2220000000000002,8.121897799907815e-13,0.2220000000000002,4.01874563961885e-13
0.2230000000000002,8.43373190872795e-13,0.2230000000000002,4.027088500082481e-13
0.2240000000000002,8.757538718621635e-13,0.2240000000000002,4.035751475331372e-13
0.2250000000000002,9.093777916812242e-13,0.2250000000000002,4.044746848667683e-13
0.2260000000000002,9.4429268400793e-13,0.2260000000000002,4.054087374741882e-13
0.2270000000000002,9.805481152409153e-13,0.2270000000000002,4.063786297640693e-13
0.2280000000000002,1.01819555486619e-12,0.2280000000000002,4.073857369668574e-13
0.2290000000000002,1.057288448525825e-12,0.2290000000000002,4.084314870850952e-13
0.2300000000000002,1.097882293891781e-12,0.2300000000000002,4.09517362918478e-13
0.2310000000000002,1.140034719453142e-12,0.2310000000000002,4.10644904166722e-13
0.2320000000000002,1.183805566328165e-12,0.2320000000000002,4.118157096130606e-13
0.2330000000000002,1.229256973217633e-12,0.2330000000000002,4.130314393915802e-13
0.2340000000000002,1.276453464619873e-12,0.2340000000000002,4.142938173415479e-13
0.2350000000000002,1.325462042432712e-12,0.2350000000000002,4.156046334520768e-13
0.2360000000000002,1.376352281072643e-12,0.2360000000000002,4.169657464006471e-13
0.2370000000000002,1.429196426245818e-12,0.2370000000000002,4.183790861890063e-13
0.2380000000000002,1.484069497511517e-12,0.2380000000000002,4.198466568802433e-13
0.2390000000000002,1.541049394783366e-12,0.2390000000000002,4.213705394408987e-13
0.2400000000000002,1.60021700891975e-12,0.2400000000000002,4.229528946921561e-13
0.2410000000000002,1.661656336560156e-12,0.2410000000000002,4.245959663742621e-13
0.2420000000000002,1.725454599370763e-12,0.2420000000000002,4.263020843285761e-13
0.2430000000000002,1.791702367868318e-12,0.2430000000000002,4.280736678017199e-13
0.2440000000000002,1.860493689998249e-12,0.2440000000000002,4.29913228876546e-13
