;Version, 1, 0
;tranIn,;tranOut
;X, Y,;X, Y
;Re, Re,;Re, Re
;time, V,;time, V
;s, V,;s, V
0,1.56,0,0.673995311962012
2.5e-12,1.561570731731182,2.5e-12,0.6744761023223198
6.339140788113302e-12,1.563981946585446,6.339140788113302e-12,0.6753783279636073
1.02685086527702e-11,1.566447418990711,1.02685086527702e-11,0.6763454890872875
1.384021262193975e-11,1.568685106049203,1.384021262193975e-11,0.6772425485880785
2.098362056027887e-11,1.573146233791636,2.098362056027887e-11,0.6790525216282286
2.888426250748037e-11,1.578049055431386,2.888426250748037e-11,0.6810722745474233
3.720763034599456e-11,1.583165871505969,3.720763034599456e-11,0.683213963977333
4.763258335602424e-11,1.589483644246476,4.763258335602424e-11,0.6859038017431186
6.172617784097469e-11,1.597818696168098,6.172617784097469e-11,0.6895250123504899
8.398852596933489e-11,1.610356091709794,8.398852596933489e-11,0.6951158372714377
1.274783441104839e-10,1.631803159967629,1.274783441104839e-10,0.7050396638460572
1.694962141952527e-10,1.647477735922467,1.694962141952527e-10,0.712558891768026
2.051968384095614e-10,1.656063799959862,2.051968384095614e-10,0.7167818452135474
2.380365731046048e-10,1.659717618370045,2.380365731046048e-10,0.7186276508200435
2.687691950798227e-10,1.659305427398846,2.687691950798227e-10,0.7184815982439481
2.979317400230167e-10,1.655499185510965,2.979317400230167e-10,0.7166728896369507
3.26519260470642e-10,1.648663229480065,3.26519260470642e-10,0.7134033653306677
3.55309243904377e-10,1.638896262061967,3.55309243904377e-10,0.7087642824725129
3.85030010312213e-10,1.626117041236012,3.85030010312213e-10,0.7027856974902272
4.16705897784223e-10,1.60997865126838,4.16705897784223e-10,0.6954165392982413
4.521127057666455e-10,1.589636531866417,4.521127057666455e-10,0.6864714753183867
4.957189620283473e-10,1.56268953113383,4.957189620283473e-10,0.6753491957111409
5.387413532870105e-10,1.535897766607188,5.387413532870105e-10,0.6653383647959089
5.805553717034166e-10,1.511519139009461,5.805553717034166e-10,0.657408512653508
6.20220021655492e-10,1.491444579544132,6.20220021655492e-10,0.6519400973667433
6.564162788846951e-10,1.476795040345087,6.564162788846951e-10,0.6486531378717495
6.919490386642822e-10,1.466578522834975,6.919490386642822e-10,0.6467382483224483
7.295133148987741e-10,1.460827319728367,7.295133148987741e-10,0.6457963932917213
7.707967876725421e-10,1.460852519292773,7.707967876725421e-10,0.6457898071491855
8.161958910556658e-10,1.468525542573091,8.161958910556658e-10,0.647029642189671
8.628197444181137e-10,1.484090031792346,8.628197444181137e-10,0.6500770828440926
9.060139209974096e-10,1.504319703637549,9.060139209974096e-10,0.6550731667767217
9.445533084872315e-10,1.525862269856083,9.445533084872315e-10,0.6615562379977928
9.804696165503082e-10,1.547759472855211,9.804696165503082e-10,0.669179993658871
1.016589211909552e-09,1.570404445430519,1.016589211909552e-09,0.6779534797422915
1.056555051605906e-09,1.594791464757091,1.056555051605906e-09,0.6882174075172212
1.100445883811337e-09,1.619004946086138,1.100445883811337e-09,0.6990841449149291
1.142554298688391e-09,1.63806436751521,1.142554298688391e-09,0.7080383727524932
1.184262094981851e-09,1.651590343411888,1.184262094981851e-09,0.7145927647449466
1.220552143677452e-09,1.658293140547354,1.220552143677452e-09,0.7179204770567376
1.252660807646023e-09,1.659986025168338,1.252660807646023e-09,0.7188083000017543
1.282804401568171e-09,1.657883316651465,1.282804401568171e-09,0.7178328812558618
1.311854463753131e-09,1.652542410187559,1.311854463753131e-09,0.7152800512266655
1.340547295411606e-09,1.644248035808439,1.340547295411606e-09,0.7113218179292914
1.369729469921417e-09,1.633013116050726,1.369729469921417e-09,0.706019332311123
1.40029059249699e-09,1.618630713250542,1.40029059249699e-09,0.6993613752328075
1.433515266156422e-09,1.600569208762981,1.433515266156422e-09,0.6912478691156783
1.472035991266039e-09,1.577480040532615,1.472035991266039e-09,0.6813600306702436
1.515150538830668e-09,1.550495006332535,1.515150538830668e-09,0.6706638951982447
1.557451861258948e-09,1.524680811111835,1.557451861258948e-09,0.6615484653317472
1.600080990582665e-09,1.50118031322022,1.600080990582665e-09,0.6544751992134652
1.638091261017704e-09,1.483718658606914,1.638091261017704e-09,0.6501405311747377
1.673590094125243e-09,1.471305015012995,1.673590094125243e-09,0.6475953883536134
1.709983899586108e-09,1.463144200176495,1.709983899586108e-09,0.6461736503609651
1.749257385931068e-09,1.460001088567336,1.749257385931068e-09,0.6456746451462975
1.792667737979284e-09,1.463572122059815,1.792667737979284e-09,0.6462174127142838
1.839275778355233e-09,1.475324258803568,1.839275778355233e-09,0.6482827407690284
1.884665757607295e-09,1.493711428074864,1.884665757607295e-09,0.6523246594468014
1.925439728893114e-09,1.514847299017055,1.925439728893114e-09,0.6581175310350273
1.962357143218084e-09,1.53656819353078,1.962357143218084e-09,0.6651825432654159
1.998013560913326e-09,1.558751915916603,1.998013560913326e-09,0.6733536404358932
2.035453579504513e-09,1.58209236404235,2.035453579504513e-09,0.6827969518156115
2.079798292788217e-09,1.608064268814533,2.079798292788217e-09,0.6941178542521622
2.12285548545527e-09,1.629751505259195,2.12285548545527e-09,0.7041119792199062
2.16422535372268e-09,1.645825421143127,2.16422535372268e-09,0.7117980073106323
2.20279609636978e-09,1.655633840135094,2.20279609636978e-09,0.7166101377386547
2.236615259676012e-09,1.659646577935456,2.236615259676012e-09,0.7186324684950299
2.267484736775044e-09,1.659397147458815,2.267484736775044e-09,0.7185664196878021
2.296923364838285e-09,1.655685207831946,2.296923364838285e-09,0.7168038144680345
2.325668849997411e-09,1.648909076282485,2.325668849997411e-09,0.7135623666653516
2.354477889388559e-09,1.639216140948117,2.354477889388559e-09,0.708956495324309
2.384187493186803e-09,1.62651326462121,2.384187493186803e-09,0.7030097980930932
2.415814852109807e-09,1.610462787872664,2.415814852109807e-09,0.695673980597646
2.451091821100877e-09,1.590248541782025,2.451091821100877e-09,0.6867726724243385
2.494360528750942e-09,1.563542642848826,2.494360528750942e-09,0.675722733674532
2.537381976583134e-09,1.536727577381971,2.537381976583134e-09,0.6656628392271293
2.579221467837321e-09,1.512253866853014,2.579221467837321e-09,0.6576573055782149
2.619039102254995e-09,1.491986649070447,2.619039102254995e-09,0.6520983898080842
2.655315854861616e-09,1.477180555879142,2.655315854861616e-09,0.6487525430472389
2.690825046349405e-09,1.466832768768066,2.690825046349405e-09,0.6468002229798006
2.72829700861935e-09,1.460928316036425,2.72829700861935e-09,0.6458285709269217
2.769435895444379e-09,1.460744730358469,2.769435895444379e-09,0.6457899136086616
2.814705532311923e-09,1.468151214451176,2.814705532311923e-09,0.6469831126662854
2.861341315782834e-09,1.483488609784933,2.861341315782834e-09,0.6499679403988595
2.904670335669604e-09,1.503620466237545,2.904670335669604e-09,0.6549079992688025
2.943331010530818e-09,1.525141427346086,2.943331010530818e-09,0.6613515469200774
2.979290735574147e-09,1.547024672615761,2.979290735574147e-09,0.6689417441457626
3.015361763115891e-09,1.569637100518843,3.015361763115891e-09,0.6776775512106538
3.05512634563219e-09,1.593948473446979,3.05512634563219e-09,0.6878861796085652
3.099108964456618e-09,1.618324674914092,3.099108964456618e-09,0.698807480208571
3.141286752175853e-09,1.637564151494377,3.141286752175853e-09,0.7078364669267683
3.182959132791682e-09,1.651258662594188,3.182959132791682e-09,0.7144674243282119
3.219375806553558e-09,1.658154480300153,3.219375806553558e-09,0.7178881103829138
3.251582944740264e-09,1.659995053959488,3.251582944740264e-09,0.7188482572687618
3.28176442443819e-09,1.658014958260516,3.28176442443819e-09,0.7179327450535108
3.310831786219252e-09,1.652783987959639,3.310831786219252e-09,0.7154327236746701
3.339520634554109e-09,1.644593797246929,3.339520634554109e-09,0.7115228981994869
3.368669487233366e-09,1.633466580489557,3.368669487233366e-09,0.7062679719671221
3.399161551305253e-09,1.619203908164389,3.399161551305253e-09,0.6996591647357704
3.432257248752423e-09,1.601290399821937,3.432257248752423e-09,0.6916006052017402
3.470503821860656e-09,1.578427084637514,3.470503821860656e-09,0.6817866658550483
3.513646103019334e-09,1.551436402181079,3.513646103019334e-09,0.6710497150979388
3.55599798042655e-09,1.525536898877967,3.55599798042655e-09,0.661857867852177
3.598547125919194e-09,1.501962439073697,3.598547125919194e-09,0.654712813422245
3.636653182625697e-09,1.484306030664118,3.636653182625697e-09,0.6502925809581952
3.67218091492271e-09,1.471717428419298,3.67218091492271e-09,0.647689829505726
3.708478536267349e-09,1.463383844556601,3.708478536267349e-09,0.6462277917506395
3.747583127378506e-09,1.460011529989697,3.747583127378506e-09,0.6456908795883962
3.790798144981808e-09,1.463267616627021,3.790798144981808e-09,0.6461841152979889
3.837317367844459e-09,1.474676082394462,3.837317367844459e-09,0.6481758246583511
3.882822004041632e-09,1.492848529273191,3.882822004041632e-09,0.6521346317726059
3.923783827807924e-09,1.513921425239641,3.923783827807924e-09,0.6578647920135794
3.960809829931139e-09,1.535624176382681,3.960809829931139e-09,0.6648823269425564
3.99646105863936e-09,1.557776600794465,3.99646105863936e-09,0.6730060878348931
4.033753716872789e-09,1.581049459043782,4.033753716872789e-09,0.6823901200161597
4.07760069507181e-09,1.606848886653004,4.07760069507181e-09,0.6936037076172082
4.120681096595224e-09,1.628766041735973,4.120681096595224e-09,0.7036811790541583
4.162113236519093e-09,1.645136792078531,4.162113236519093e-09,0.7114971502989652
4.200960683361235e-09,1.655290445250781,4.200960683361235e-09,0.7164728759802022
4.234982297010035e-09,1.659555149066691,4.234982297010035e-09,0.7186179636564864
4.265952798821583e-09,1.659498073787512,4.265952798821583e-09,0.7186462892346831
4.295448643321338e-09,1.655950342078027,4.295448643321338e-09,0.7169635707017317
4.324212694344711e-09,1.649324140772245,4.324212694344711e-09,0.7137933297660234
4.352998450774741e-09,1.639780030845877,4.352998450774741e-09,0.7092553348965449
4.382640874643644e-09,1.627235757178062,4.382640874643644e-09,0.7033767704692238
4.41413833234947e-09,1.611369400501307,4.41413833234947e-09,0.696113653465502
4.449162098897415e-09,1.591401970448283,4.449162098897415e-09,0.6872994431985643
4.491798446776895e-09,1.565150907428841,4.491798446776895e-09,0.6763902709995148
4.534809827148391e-09,1.538302302847082,4.534809827148391e-09,0.6662457450529217
4.576688927568047e-09,1.513658001667741,4.576688927568047e-09,0.6581040490856335
4.616796866962102e-09,1.493026167120722,4.616796866962102e-09,0.6523766402080998
4.653224640592305e-09,1.477924074353156,4.653224640592305e-09,0.64892188075331
4.688689438935669e-09,1.467328632323524,4.688689438935669e-09,0.6469008136192436
4.72599291465068e-09,1.461135494406911,4.72599291465068e-09,0.6458740252541871
4.766871133579693e-09,1.460561321338852,4.766871133579693e-09,0.6457753427083931
4.811911012966677e-09,1.467471059491908,4.811911012966677e-09,0.6468807505028472
4.858580910351394e-09,1.48238339317759,4.858580910351394e-09,0.6497467632898737
4.902174399184072e-09,1.502332217333171,4.902174399184072e-09,0.6545790603234239
4.941070321666283e-09,1.523813649872975,4.941070321666283e-09,0.660945810331896
4.977113359252326e-09,1.545669408662142,4.977113359252326e-09,0.6684703521534191
5.013093043462392e-09,1.568217325777874,5.013093043462392e-09,0.6771325491827412
5.05248799886301e-09,1.592384607736306,5.05248799886301e-09,0.6872355057311377
5.09663940476407e-09,1.617057290336228,5.09663940476407e-09,0.6982535570193195
5.138938356133424e-09,1.636624419212943,5.138938356133424e-09,0.7074169703633276
5.180537574180092e-09,1.650626003370848,5.180537574180092e-09,0.7141865690241292
5.217190858820156e-09,1.657882707134086,5.217190858820156e-09,0.7177808105849741
5.249580172183997e-09,1.659999652085997,5.249580172183997e-09,0.718876335877053
5.279833332866343e-09,1.658248293789419,5.279833332866343e-09,0.7180728221473124
5.308934893573856e-09,1.653221923253009,5.308934893573856e-09,0.7156714889841069
5.337618268147746e-09,1.645225165993343,5.337618268147746e-09,0.711852117747397
5.366707899502212e-09,1.634297144650049,5.366707899502212e-09,0.7066859412473461
5.397076189452894e-09,1.620254755848672,5.397076189452894e-09,0.7001686461332556
5.429941380355094e-09,1.602611252685049,5.429941380355094e-09,0.6922118728140786
5.467704814219965e-09,1.580152697995916,5.467704814219965e-09,0.6825326882582607
5.510899858086266e-09,1.553156769588045,5.510899858086266e-09,0.671726559992494
5.553343022176303e-09,1.52710758632634,5.553343022176303e-09,0.6624007015739338
5.595751673083923e-09,1.503401668561663,5.595751673083923e-09,0.655129421066923
5.634041974248647e-09,1.485388323188957,5.634041974248647e-09,0.6505543821649389
5.669631656105602e-09,1.47248106235198,5.669631656105602e-09,0.6478479610472581
5.705768084669018e-09,1.463837108617987,5.705768084669018e-09,0.6463140724499341
5.744585794832312e-09,1.460057857181901,5.744585794832312e-09,0.645709841041255
5.787467593863107e-09,1.462758256707015,5.787467593863107e-09,0.6461156367629514
5.833836262712827e-09,1.473555891671382,5.833836262712827e-09,0.6479770818968481
5.879553913701066e-09,1.491341240109467,5.879553913701066e-09,0.6517868257611104
5.920865985295662e-09,1.512302154643209,5.920865985295662e-09,0.6574034748626217
5.95810037261161e-09,1.533976737285481,5.95810037261161e-09,0.6643359077253698
5.993754816927889e-09,1.556077042657573,5.993754816927889e-09,0.6723755503209603
6.03080415916068e-09,1.57923420857401,6.03080415916068e-09,0.681655501990633
6.073834953269558e-09,1.604745604444737,6.073834953269558e-09,0.6926870057782581
6.116965747119986e-09,1.627052592542356,6.116965747119986e-09,0.702902836341783
6.158507128211262e-09,1.643926480568568,6.158507128211262e-09,0.7109371500714702
6.197864174802482e-09,1.654682406208015,6.197864174802482e-09,0.7161975020314091
6.232252657332965e-09,1.659378921713162,6.232252657332965e-09,0.7185527889807137
6.263404166710768e-09,1.659645551896216,6.263404166710768e-09,0.7187400549432785
6.29300486906401e-09,1.656371551244468,6.29300486906401e-09,0.7171908271988808
6.321807163749797e-09,1.649993421203817,6.321807163749797e-09,0.714138892628978
6.350560070886236e-09,1.640694355594682,6.350560070886236e-09,0.7097133386368696
6.380097759010057e-09,1.628409921660704,6.380097759010057e-09,0.7039473415121917
6.411390422322372e-09,1.612843015498573,6.411390422322372e-09,0.6968038051678597
6.446017412373547e-09,1.593271637449182,6.446017412373547e-09,0.688131354055425
6.487692872427108e-09,1.567725092095033,6.487692872427108e-09,0.6774433953540496
6.530698349061293e-09,1.540831036753693,6.530698349061293e-09,0.6671703745241482
6.572646749422794e-09,1.515923298752174,6.572646749422794e-09,0.6588160074165291
6.613267874178368e-09,1.494689079727875,6.613267874178368e-09,0.6528125340474293
6.649969781678873e-09,1.479109462141223,6.649969781678873e-09,0.6491822359506376
6.685388653780554e-09,1.468127828300975,6.685388653780554e-09,0.6470529456883757
6.722454813292324e-09,1.461493952704983,6.722454813292324e-09,0.645940818427149
6.76295024646847e-09,1.460330861457139,6.76295024646847e-09,0.6457512856413298
6.807636579647585e-09,1.466485964986521,6.807636579647585e-09,0.6467252350242391
6.854341654284065e-09,1.480731645988726,6.854341654284065e-09,0.6494103016503557
6.89834176099449e-09,1.500381763710818,6.89834176099449e-09,0.654074049023355
6.937617522048053e-09,1.521799887638028,6.937617522048053e-09,0.6603205620294763
6.973808483854484e-09,1.54361756426317,6.973808483854484e-09,0.6677442384681368
7.009670311482562e-09,1.566072297985972,7.009670311482562e-09,0.6762949744380655
7.048546919814898e-09,1.590032111639561,7.048546919814898e-09,0.6862417650535826
7.092982989182012e-09,1.615155671940505,7.092982989182012e-09,0.6974046278592092
7.135473877885299e-09,1.635207677307366,7.135473877885299e-09,0.7067648290010896
7.176969999614457e-09,1.649655756182332,7.176969999614457e-09,0.7137346158001598
7.213996880235391e-09,1.657452247643063,7.213996880235391e-09,0.7175878884656162
7.246670452865674e-09,1.659978118139933,7.246670452865674e-09,0.7188836462675583
7.277037297837598e-09,1.658560500209682,7.277037297837598e-09,0.7182437369887408
7.306196510694507e-09,1.653830760706951,7.306196510694507e-09,0.7159858790263492
7.334879109566165e-09,1.646112843481137,7.334879109566165e-09,0.7122974905321559
7.363890159229321e-09,1.635470434367705,7.363890159229321e-09,0.7072594012471463
7.394089342579198e-09,1.621741812804928,7.394089342579198e-09,0.7008736434027854
7.426639672148355e-09,1.604478709585825,7.426639672148355e-09,0.693062017074923
7.463754746809887e-09,1.58257722119635,7.463754746809887e-09,0.6835709919689876
7.50703523691655e-09,1.555581069679356,7.50703523691655e-09,0.6726734178285253
7.549614173770679e-09,1.529328947942269,7.549614173770679e-09,0.6631636634680229
7.591844123208922e-09,1.50544261924703,7.591844123208922e-09,0.6557162581059547
7.630436273625281e-09,1.486915764136847,7.630436273625281e-09,0.6509199909129021
7.666125033728452e-09,1.473568119798086,7.666125033728452e-09,0.6480677144647572
7.702069136251967e-09,1.46450065117088,7.702069136251967e-09,0.6464335338031421
7.740519110477161e-09,1.460177377888498,7.740519110477161e-09,0.6457378139816465
7.782950533561932e-09,1.462135515944341,7.782950533561932e-09,0.64602771573588
7.829087422012179e-09,1.472094541471405,7.829087422012179e-09,0.6477158238587412
7.875070801338551e-09,1.489320785082984,7.875070801338551e-09,0.6513209638287898
7.916869715158924e-09,1.510110527428958,7.916869715158924e-09,0.6567779081968652
7.954413143510101e-09,1.531746988075107,7.954413143510101e-09,0.6635925027741161
7.990097288787177e-09,1.553781956941391,7.990097288787177e-09,0.6715208735194127
8.026829314791989e-09,1.576777629644088,8.026829314791989e-09,0.6806542347321974
8.068934473452359e-09,1.601971206746769,8.068934473452359e-09,0.6914712624940471
8.112337809664067e-09,1.624867280285668,8.112337809664067e-09,0.7019012790868217
8.154011012290433e-09,1.642357184627847,8.154011012290433e-09,0.7101996800701365
8.194076827477373e-09,1.65389001147476,8.194076827477373e-09,0.7158259294081735
8.228980380362146e-09,1.659129140509622,8.228980380362146e-09,0.7184450152349208
8.260375887851852e-09,1.659787564812951,8.260375887851852e-09,0.7188247043341207
8.290119779819005e-09,1.656839572313079,8.290119779819005e-09,0.717434746316297
8.318982705310396e-09,1.65075300681095,8.318982705310396e-09,0.7145223232638019
8.347707515401975e-09,1.641739929715228,8.347707515401975e-09,0.7102286538532692
8.377132325746626e-09,1.629756992869514,8.377132325746626e-09,0.7045942076115812
8.408199433783135e-09,1.614534442888533,8.408199433783135e-09,0.6975895447033518
8.442391352142947e-09,1.595411334655551,8.442391352142947e-09,0.6890796244920699
8.483050163344803e-09,1.570629775970269,8.483050163344803e-09,0.6786352235587173
8.526067047103565e-09,1.543694718867682,8.526067047103565e-09,0.6682245854254641
8.568106937446374e-09,1.518501300529664,8.568106937446374e-09,0.6596346318893026
8.609392507397235e-09,1.496552168680798,8.609392507397235e-09,0.6533051532357256
8.646458094211558e-09,1.480426309250105,8.646458094211558e-09,0.6494724279571392
8.681862651346762e-09,1.469025196892586,8.681862651346762e-09,0.6472224738619309
8.718705107435507e-09,1.461926978740871,8.718705107435507e-09,0.6460177342882559
8.758810928752244e-09,1.460153201210914,8.758810928752244e-09,0.645733220853798
8.803107413975158e-09,1.465515775739378,8.803107413975158e-09,0.646572388331491
8.849807428310438e-09,1.479027239923776,8.849807428310438e-09,0.6490677873011347
8.894224357481928e-09,1.498324941523598,8.894224357481928e-09,0.6535478133542166
8.93392289578562e-09,1.519665021378534,8.93392289578562e-09,0.6596623845675162
8.970297060593475e-09,1.541445243689094,8.970297060593475e-09,0.6669782479755161
9.006062105969797e-09,1.563808012584298,9.006062105969797e-09,0.6754123196172205
