;Version, 1, 0
;/M2/D (vb=0),;/M2/D (vb=0.1),;/M2/D (vb=0.2),;/M2/D (vb=0.3),;/M2/D (vb=0.4),;/M2/D (vb=0.5),;/M2/D (vb=0.6),;/M2/D (vb=0.7),;/M2/D (vb=0.8),;/M2/D (vb=0.9)
;X, Y,;X, Y,;X, Y,;X, Y,;X, Y,;X, Y,;X, Y,;X, Y,;X, Y,;X, Y
;Re, Re,;Re, Re,;Re, Re,;Re, Re,;Re, Re,;Re, Re,;Re, Re,;Re, Re,;Re, Re,;Re, Re
;vtest, I,;vtest, I,;vtest, I,;vtest, I,;vtest, I,;vtest, I,;vtest, I,;vtest, I,;vtest, I,;vtest, I
;xunit, A,;xunit, A,;xunit, A,;xunit, A,;xunit, A,;xunit, A,;xunit, A,;xunit, A,;xunit, A,;xunit, A
0,3.182951537908324e-12,0,1.999210279573532e-12,0,1.448657923453905e-12,0,1.182646732529582e-12,0,1.049746824335284e-12,0,9.813521046749397e-13,0,9.452082516362604e-13,0,9.256457569059294e-13,0,9.148256043281639e-13,0,9.087211174183112e-13
0.02,5.282730892344992e-12,0.02,3.023101556018014e-12,0.02,1.965214593576533e-12,0.02,1.451212894738367e-12,0.02,1.193177673221611e-12,0.02,1.059824279782507e-12,0.02,9.890895391632059e-13,0.02,9.506774708049136e-13,0.02,9.293676563327841e-13,0.02,9.17312336488283e-13
0.04,9.307410584873146e-12,0.04,4.998459100917482e-12,0.04,2.967268029431486e-12,0.04,1.974647329543474e-12,0.04,1.473866799742404e-12,0.04,1.213944542858879e-12,0.04,1.075549268250447e-12,0.04,1.000139884878642e-12,0.04,9.581776787417541e-13,0.04,9.343734320069803e-13
0.06,1.701104030822624e-11,0.06,8.805643052380628e-12,0.06,4.909689481697301e-12,0.06,2.994257785892967e-12,0.06,2.022937847582333e-12,0.06,1.516543131309952e-12,0.06,1.245860550760483e-12,0.06,1.097858863388648e-12,0.06,1.015246427496603e-12,0.06,9.682507899806122e-13
0.08,3.17288615136881e-11,0.08,1.613325805125707e-11,0.08,8.671107198800764e-12,0.08,4.978860221375923e-12,0.08,3.096383645250819e-12,0.08,2.110400981701322e-12,0.08,1.581231787594311e-12,0.08,1.290863886173687e-12,0.08,1.128268764842626e-12,0.08,1.035508554923757e-12
0.1,5.977504843149816e-11,0.1,3.020977542018916e-11,0.1,1.594461686879698e-11,0.1,8.837641145192395e-12,0.1,5.193300053578351e-12,0.1,3.275144447262426e-12,0.1,2.241320053885363e-12,0.1,1.671928296763693e-12,0.1,1.352040553024207e-12,0.1,1.169007292473806e-12
0.12,1.13032442712418e-10,0.12,5.718051139341058e-11,0.12,2.998199238152399e-11,0.12,1.632941609959796e-11,0.12,9.284906858901061e-12,0.12,5.557608817062126e-12,0.12,3.539663349175115e-12,0.12,2.423904035792342e-12,0.12,1.794905058390847e-12,0.12,1.43390226331779e-12
0.14,2.136841044059909e-10,0.14,1.086723635092538e-10,0.14,5.700021833895634e-11,0.14,3.084487456054773e-11,0.14,1.725618766447984e-11,0.14,1.002502175439496e-11,0.14,6.091033036826907e-12,0.14,3.906745886640355e-12,0.14,2.670876494788518e-12,0.14,1.959285121048622e-12
0.16,4.026957522564821e-10,0.16,2.065032824629294e-10,0.16,1.088113901860646e-10,0.16,5.888961697836824e-11,0.16,3.275226747165845e-11,0.16,1.875437964508477e-11,0.16,1.109821849798213e-11,0.16,6.827840951766963e-12,0.16,4.402140231484042e-12,0.16,3.000654680179053e-12
0.18,7.546412474106836e-10,0.18,3.911643611584962e-10,0.18,2.076682027304595e-10,0.18,1.1286440386512e-10,0.18,6.278653852553525e-11,0.18,3.577209926701662e-11,0.18,2.090731431289475e-11,0.18,1.257405126584405e-11,0.18,7.819983025374609e-12,0.18,5.062947184916661e-12
0.2,1.402760240868955e-09,0.2,7.367047423762967e-10,0.2,3.950146162817482e-10,0.2,2.161975709695609e-10,0.2,1.207599872702975e-10,0.2,6.884169009117858e-11,0.2,4.0075206776355e-11,0.2,2.385537578535272e-11,0.2,1.45569369456775e-11,0.2,9.141986526402073e-12
0.22,2.579518613747096e-09,0.22,1.375969230454989e-09,0.22,7.468687685312893e-10,0.22,4.126227672347183e-10,0.22,2.32038238363662e-10,0.22,1.32821712838578e-10,0.22,7.740135628825755e-11,0.22,4.594294678255304e-11,0.22,2.780738493973445e-11,0.22,1.719601748642865e-11
0.24,4.678833995497329e-09,0.24,2.541527087116202e-09,0.24,1.399915621389294e-09,0.24,7.824823009039532e-10,0.24,4.440261230807401e-10,0.24,2.558638673625029e-10,0.24,1.497419987462447e-10,0.24,8.902436217666708e-11,0.24,5.379016195212629e-11,0.24,3.306027131804483e-11
0.26,8.345779100991224e-09,0.26,4.628472156457623e-09,0.26,2.593765560574866e-09,0.26,1.470321709559174e-09,0.26,8.438287967384861e-10,0.26,4.905835843254731e-10,0.26,2.890360207151964e-10,0.26,1.726178140153852e-10,0.26,1.045275222248718e-10,0.26,6.420390228775238e-11
0.28,1.459800088678527e-08,0.28,8.284773783443375e-09,0.28,4.735568844975207e-09,0.28,2.729385285605502e-09,0.28,1.588006388766398e-09,0.28,9.33556006612828e-10,0.28,5.549171625250516e-10,0.28,3.336752634214009e-10,0.28,2.030383949607308e-10,0.28,1.250605287215525e-10
0.3,2.498280163879064e-08,0.3,1.453306779478395e-08,0.3,8.492444795531076e-09,0.3,4.989180083102502e-09,0.3,2.95020134365232e-09,0.3,1.757928796059189e-09,0.3,1.05658295735232e-09,0.3,6.410452440607885e-10,0.3,3.928251176501635e-10,0.3,2.432267252072613e-10
0.32,4.178038804768271e-08,0.32,2.492744130167166e-08,0.32,1.491518892892578e-08,0.32,8.951235475500379e-09,0.32,5.392718619921985e-09,0.32,3.265088784826249e-09,0.32,1.989023862991665e-09,0.32,1.22033239572158e-09,0.32,7.546766614410612e-10,0.32,4.70711158828425e-10
0.34,6.828148965483768e-08,0.34,4.175583432638746e-08,0.34,2.559663069792827e-08,0.34,1.571602690323385e-08,0.34,9.666719747839986e-09,0.34,5.961269718400812e-09,0.34,3.689658778700197e-09,0.34,2.294572895199547e-09,0.34,1.435231135526897e-09,0.34,9.036662263423669e-10
0.36,1.091899959630436e-07,0.36,6.831752267858641e-08,0.36,4.287620523814985e-08,0.36,2.694454423719932e-08,0.36,1.694348034081348e-08,0.36,1.066314851356984e-08,0.36,6.720920711620291e-09,0.36,4.246784394212354e-09,0.36,2.693000579304146e-09,0.36,1.715470294278695e-09
0.3800000000000001,1.712062917367551e-07,0.3800000000000001,1.093287233501473e-07,0.3800000000000001,7.012276976244224e-08,0.3800000000000001,4.506794414607663e-08,0.3800000000000001,2.898074387404516e-08,0.3800000000000001,1.863443027839554e-08,0.3800000000000001,1.19820901519543e-08,0.3800000000000001,7.709398262672425e-09,0.3800000000000001,4.967774187982959e-09,0.3800000000000001,3.209065349134281e-09
0.4000000000000001,2.63805669137471e-07,0.4000000000000001,1.715145360654183e-07,0.4000000000000001,1.121518512111871e-07,0.4000000000000001,7.358118548091491e-08,0.4000000000000001,4.834060163850742e-08,0.4000000000000001,3.17586863723604e-08,0.4000000000000001,2.085216155968941e-08,0.4000000000000001,1.368304317448415e-08,0.4000000000000001,8.977654859372032e-09,0.4000000000000001,5.89410612100109e-09
0.4200000000000001,4.001211450155824e-07,0.4200000000000001,2.644028766367297e-07,0.4200000000000001,1.758366891136807e-07,0.4200000000000001,1.174805041851726e-07,0.4200000000000001,7.869991527711586e-08,0.4200000000000001,5.27691832643216e-08,0.4200000000000001,3.537122534848729e-08,0.4200000000000001,2.368674150570032e-08,0.4200000000000001,1.584542415137103e-08,0.4200000000000001,1.059222274776464e-08
0.4400000000000001,5.976834058216823e-07,0.4400000000000001,4.012281523747366e-07,0.4400000000000001,2.709253113741227e-07,0.4400000000000001,1.839035404468948e-07,0.4400000000000001,1.25316875981225e-07,0.4400000000000001,8.558290915008359e-08,0.4400000000000001,5.848689217027511e-08,0.4400000000000001,3.995056203810358e-08,0.4400000000000001,2.725742478237281e-08,0.4400000000000001,1.857161480992116e-08
0.4600000000000001,8.786254359168852e-07,0.4600000000000001,5.996906131596325e-07,0.4600000000000001,4.109618572537192e-07,0.4600000000000001,2.829761248151993e-07,0.4600000000000001,1.957095810368535e-07,0.4600000000000001,1.358054938640142e-07,0.4600000000000001,9.441984765352288e-08,0.4600000000000001,6.568456246724817e-08,0.4600000000000001,4.567125699766495e-08,0.4600000000000001,3.171660037628125e-08
0.4800000000000001,1.268947963743837e-06,0.4800000000000001,8.821652956412907e-07,0.4800000000000001,6.140423132808869e-07,0.4800000000000001,4.287466377499946e-07,0.4800000000000001,3.005370452741679e-07,0.4800000000000001,2.114566328460756e-07,0.4800000000000001,1.49216729370022e-07,0.4800000000000001,1.054850109656854e-07,0.4800000000000001,7.461474398907424e-08,0.4800000000000001,5.275560295557069e-08
0.5000000000000001,1.796682240610375e-06,0.5000000000000001,1.274940470842647e-06,0.5000000000000001,9.029807897832648e-07,0.5000000000000001,6.399138746285606e-07,0.5000000000000001,4.545383634549626e-07,0.5000000000000001,3.238866638587889e-07,0.5000000000000001,2.315291589131869e-07,0.5000000000000001,1.659447401364179e-07,0.5000000000000001,1.191430596712988e-07,0.5000000000000001,8.559940745372931e-08
0.5200000000000001,2.489246636709397e-06,0.5200000000000001,1.80631627963318e-06,0.5200000000000001,1.304458876783173e-06,0.5200000000000001,9.39903663344132e-07,0.5200000000000001,6.772040315497228e-07,0.5200000000000001,4.887066484125045e-07,0.5200000000000001,3.535626469607772e-07,0.5200000000000001,2.564898584544278e-07,0.5200000000000001,1.865152471430572e-07,0.5200000000000001,1.358601109925465e-07
0.5400000000000001,3.370715817504925e-06,0.5400000000000001,2.503877251054962e-06,0.5400000000000001,1.847007574379592e-06,0.5400000000000001,1.355869917068466e-06,0.5400000000000001,9.927131974191832e-07,0.5400000000000001,7.263676410200337e-07,0.5400000000000001,5.319760303415193e-07,0.5400000000000001,3.903514123402776e-07,0.5400000000000001,2.870885002130366e-07,0.5400000000000001,2.116004764347762e-07
0.5600000000000002,4.459796878787167e-06,0.5600000000000002,3.391693453637538e-06,0.5600000000000002,2.558181697974742e-06,0.5600000000000002,1.916514133803378e-06,0.5600000000000002,1.428730082973656e-06,0.5600000000000002,1.0619048869283e-06,0.5600000000000002,7.88324617065972e-07,0.5600000000000002,5.854029002498383e-07,0.5600000000000002,4.352945507363918e-07,0.5600000000000002,3.242795163681103e-07
0.5800000000000002,5.768972631183359e-06,0.5800000000000002,4.488275978426043e-06,0.5800000000000002,3.461729639839416e-06,0.5800000000000002,2.649156753429369e-06,0.5800000000000002,2.014026005336713e-06,0.5800000000000002,1.523477810507819e-06,0.5800000000000002,1.148554030032164e-06,0.5800000000000002,8.644138203268686e-07,0.5800000000000002,6.50372406488649e-07,0.5800000000000002,4.897046993763728e-07
0.6000000000000002,7.304775835376193e-06,0.6000000000000002,5.805752011289493e-06,0.6000000000000002,4.575599620596206e-06,0.6000000000000002,3.576918806471142e-06,0.6000000000000002,2.775457763886136e-06,0.6000000000000002,2.139774630891655e-06,0.6000000000000002,1.641240033653601e-06,0.6000000000000002,1.254234552115972e-06,0.6000000000000002,9.563699328167357e-07,0.6000000000000002,7.286042073904623e-07
0.6200000000000002,9.06880935659805e-06,0.6200000000000002,7.350202569743464e-06,0.6200000000000002,5.911220370972078e-06,0.6200000000000002,4.716850165367501e-06,0.6200000000000002,3.735215435041865e-06,0.6200000000000002,2.936927348201105e-06,0.6200000000000002,2.294776005183341e-06,0.6200000000000002,1.783705844937179e-06,0.6200000000000002,1.38096448289175e-06,0.6200000000000002,1.066307789122793e-06
0.6400000000000002,1.105904837238058e-05,0.6400000000000002,9.122749437879493e-06,0.6400000000000002,7.473952158897933e-06,0.6400000000000002,6.079382479457023e-06,0.6400000000000002,4.909144192743038e-06,0.6400000000000002,3.935892344779568e-06,0.6400000000000002,3.13427637292796e-06,0.6400000000000002,2.480654718156653e-06,0.6400000000000002,1.953032485828858e-06,0.6400000000000002,1.531158340075735e-06
0.6600000000000003,1.327107531174799e-05,0.6600000000000003,1.112090796492632e-05,0.6600000000000003,9.264258325644001e-06,0.6600000000000003,7.668933090118946e-06,0.6600000000000003,6.306426511574197e-06,0.6600000000000003,5.15103567020533e-06,0.6600000000000003,4.179167476940312e-06,0.6600000000000003,3.368860902946024e-06,0.6600000000000003,2.699508765501106e-06,0.6600000000000003,2.151760424711179e-06
0.6800000000000003,1.569906907173289e-05,0.6800000000000003,1.333985059034898e-05,0.6800000000000003,1.127910179530782e-05,0.6800000000000003,9.485170401173713e-06,0.6800000000000003,7.930365326876593e-06,0.6800000000000003,6.590088700092136e-06,0.6800000000000003,5.442100296662851e-06,0.6800000000000003,4.465941538453058e-06,0.6800000000000003,3.642510449013696e-06,0.6800000000000003,2.953789042628239e-06
0.7000000000000003,1.833650662129844e-05,0.7000000000000003,1.577340619011749e-05,0.7000000000000003,1.351321799209804e-05,0.7000000000000003,1.152444259941925e-05,0.7000000000000003,9.779741897715227e-06,0.7000000000000003,8.255121520300876e-06,0.7000000000000003,6.92920745063846e-06,0.7000000000000003,5.78264363604228e-06,0.7000000000000003,4.797597761364523e-06,0.7000000000000003,3.957378785162213e-06
0.7200000000000003,2.117661149531561e-05,0.7200000000000003,1.841476015718273e-05,0.7200000000000003,1.596010288597884e-05,0.7200000000000003,1.378103994968211e-05,0.7200000000000003,1.185025995526024e-05,0.7200000000000003,1.014398089002297e-05,0.7200000000000003,8.641261411847785e-06,0.7200000000000003,7.32341102602647e-06,0.7200000000000003,6.173480602149683e-06,0.7200000000000003,5.175832298224201e-06
0.7400000000000003,2.42126112733764e-05,0.7400000000000003,2.12568958440104e-05,0.7400000000000003,1.861269335691364e-05,0.7400000000000003,1.624815166603225e-05,0.7400000000000003,1.413577669211957e-05,0.7400000000000003,1.225172830506619e-05,0.7400000000000003,1.057517005123498e-05,0.7400000000000003,9.087706076102911e-06,0.7400000000000003,7.772883119049335e-06,0.7400000000000003,6.615752020217972e-06
0.7600000000000003,2.743786563799361e-05,0.7600000000000003,2.429284353368211e-05,0.7600000000000003,2.146378836821124e-05,0.7600000000000003,1.891851084432728e-05,0.7600000000000003,1.662921055450453e-05,0.7600000000000003,1.457181910936354e-05,0.7600000000000003,1.272538386514309e-05,0.7600000000000003,1.107153230985994e-05,0.7600000000000003,9.593993682599811e-06,0.7600000000000003,8.278169490388468e-06
0.7800000000000004,3.084591448503268e-05,0.7800000000000004,2.751580066785778e-05,0.7800000000000004,2.450628085892895e-05,0.7800000000000004,2.178478459252033e-05,0.7800000000000004,1.932313786839984e-05,0.7800000000000004,1.709694584213446e-05,0.7800000000000004,1.508500390564018e-05,0.7800000000000004,1.326878489370504e-05,0.7800000000000004,1.163197913746567e-05,0.7800000000000004,1.016007790634941e-05
0.8000000000000004,3.4430481297113e-05,0.8000000000000004,3.091917361366035e-05,0.8000000000000004,2.773326512545289e-05,0.8000000000000004,2.483978224919625e-05,0.8000000000000004,2.22101438188108e-05,0.8000000000000004,1.981957679605953e-05,0.8000000000000004,1.764654843816009e-05,0.8000000000000004,1.567227060888718e-05,0.8000000000000004,1.388025378607593e-05,0.8000000000000004,1.22559011586564e-05
0.8200000000000004,3.818545474186862e-05,0.8200000000000004,3.449657625726118e-05,0.8200000000000004,3.113806963883257e-05,0.8200000000000004,2.80765463172152e-05,0.8200000000000004,2.528300247209313e-05,0.8200000000000004,2.273226245667002e-05,0.8200000000000004,2.040242691911916e-05,0.8200000000000004,1.827438915179262e-05,0.8200000000000004,1.633139826066059e-05,0.8200000000000004,1.455865983373935e-05
0.8400000000000004,4.210486235376645e-05,0.8400000000000004,3.824180814074094e-05,0.8400000000000004,3.471424974392206e-05,0.8400000000000004,3.148837465051105e-05,0.8400000000000004,2.853474909290463e-05,0.8400000000000004,2.582778481817824e-05,0.8400000000000004,2.334519912306492e-05,0.8400000000000004,2.10675392312972e-05,0.8400000000000004,1.897775060256114e-05,0.8400000000000004,1.706078025666554e-05
0.8600000000000004,4.618284397553478e-05,0.8600000000000004,4.214882566678331e-05,0.8600000000000004,3.845556206771796e-05,0.8600000000000004,3.506880670208982e-05,0.8600000000000004,3.195869092397745e-05,0.8600000000000004,2.909921024865742e-05,0.8600000000000004,2.646769306918856e-05,0.8600000000000004,2.404432998645217e-05,0.8600000000000004,2.181174417603664e-05,0.8600000000000004,1.975459424375055e-05
0.8800000000000004,5.04136287134275e-05,0.8800000000000004,4.621171373570226e-05,0.8800000000000004,4.235593341513274e-05,0.8800000000000004,3.881159424478748e-05,0.8800000000000004,3.554838695043859e-05,0.8800000000000004,3.253988889408691e-05,0.8800000000000004,2.976303875204362e-05,0.8800000000000004,2.719766839454979e-05,0.8800000000000004,2.482607300471297e-05,0.8800000000000004,2.263261114967271e-05
0.9000000000000005,5.479151682398722e-05,0.9000000000000005,5.042466132073795e-05,0.9000000000000005,4.640943096011615e-05,0.9000000000000005,4.271066827655241e-05,0.9000000000000005,3.929761524810025e-05,0.9000000000000005,3.614342837240329e-05,0.9000000000000005,3.322465686409109e-05,0.9000000000000005,3.052077510651151e-05,0.9000000000000005,2.801375075919933e-05,0.9000000000000005,2.568764035658231e-05
0.9200000000000005,5.931086665327853e-05,0.9200000000000005,5.478194221951236e-05,0.9200000000000005,5.061023685458537e-05,0.9200000000000005,4.676010818130723e-05,0.9200000000000005,4.320033833817804e-05,0.9200000000000005,3.990365828158564e-05,0.9200000000000005,3.684622717556637e-05,0.9200000000000005,3.400716367693689e-05,0.9200000000000005,3.136811060821964e-05,0.9200000000000005,2.891282482160073e-05
0.9400000000000005,6.396608609948155e-05,0.9400000000000005,5.927790098185798e-05,0.9400000000000005,5.495262824552294e-05,0.9400000000000005,5.095411579146885e-05,0.9400000000000005,4.725067176830005e-05,0.9400000000000005,4.381459452642745e-05,0.9400000000000005,4.062165088371595e-05,0.9400000000000005,3.765060461677358e-05,0.9400000000000005,3.488277646930993e-05,0.9400000000000005,3.230162728218473e-05
0.9600000000000005,6.875162780160858e-05,0.9600000000000005,6.390694340952366e-05,0.9600000000000005,5.943096255083951e-05,0.9600000000000005,5.528699505309903e-05,0.9600000000000005,5.144285803822414e-05,0.9600000000000005,4.787040777975316e-05,0.9600000000000005,4.45450144748545e-05,0.9600000000000005,4.144508634505413e-05,0.9600000000000005,3.855162384481829e-05,0.9600000000000005,3.584779520707479e-05
0.9800000000000005,7.366198720145314e-05,0.9800000000000005,6.866353078751349e-05,0.9800000000000005,6.40396673062337e-05,0.9800000000000005,5.975313698072494e-05,0.9800000000000005,5.577124626471506e-05,0.9800000000000005,5.206539765499342e-05,0.9800000000000005,4.861055851102958e-05,0.9800000000000005,4.538477915020595e-05,0.9800000000000005,4.23687401546419e-05,0.9800000000000005,3.954531955549363e-05
1,7.869170267862913e-05,1,7.354217697290789e-05,1,6.877323370218228e-05,1,6.434700913084572e-05,1,6.023027710885429e-05,1,5.639397268234548e-05,1,5.281265239389334e-05,1,4.94640047113657e-05,1,4.632838932753613e-05,1,4.338839523443589e-05
