;Version, 1, 0
;/I15/VDD_kojima,;deriv(IS("/I15/VDD_kojima"))
;X, Y,;X, Y
;Re, Re,;Re, Re
;Vref, I,;Vref, Y
;xunit, A,;xunit, yunit
0.4,0.001256097607580739,0.40001,-0.00211970554763043
0.40001,0.001256076410525263,0.40002,-0.00211969096704109
0.40002,0.001256055213615593,0.4000300000000001,-0.002119676386321646
0.4000300000000001,0.001256034016851729,0.4000400000000001,-0.002119661805667254
0.4000400000000001,0.001256012820233673,0.4000500000000001,-0.002119647224730969
0.4000500000000001,0.001255991623761425,0.4000600000000001,-0.002119632643642896
0.4000600000000001,0.001255970427434989,0.4000700000000001,-0.002119618062858399
0.4000700000000001,0.00125594923125436,0.4000800000000001,-0.002119603481661906
0.4000800000000001,0.001255928035219544,0.4000900000000001,-0.002119588900573833
0.4000900000000001,0.001255906839330538,0.4001000000000001,-0.002119574319290603
0.4001000000000001,0.001255885643587345,0.4001100000000001,-0.002119559737855586
0.4001100000000001,0.001255864447989967,0.4001200000000001,-0.002119545156420568
0.4001200000000001,0.001255843252538402,0.4001300000000002,-0.002119530574898814
0.4001300000000002,0.001255822057232653,0.4001400000000002,-0.002119515993463796
0.4001400000000002,0.001255800862072719,0.4001500000000002,-0.002119501411703518
0.4001500000000002,0.001255779667058602,0.4001600000000002,-0.002119486829986608
0.4001600000000002,0.001255758472190302,0.4001700000000002,-0.002119472248139593
0.4001700000000002,0.00125573727746782,0.4001800000000002,-0.002119457666292578
0.4001800000000002,0.001255716082891157,0.4001900000000002,-0.002119443084207039
0.4001900000000002,0.001255694888460315,0.4002000000000002,-0.002119428502056448
0.4002000000000002,0.001255673694175295,0.4002100000000002,-0.002119413920035962
0.4002100000000002,0.001255652500036094,0.4002200000000002,-0.002119399337733582
0.4002200000000002,0.001255631306042717,0.4002300000000003,-0.002119384755431203
0.4002300000000003,0.001255610112195163,0.4002400000000003,-0.002119370173042087
0.4002400000000003,0.001255588918493432,0.4002500000000003,-0.002119355590501183
0.4002500000000003,0.001255567724937527,0.4002600000000003,-0.002119341007851859
0.4002600000000003,0.001255546531527449,0.4002700000000003,-0.002119326425376007
0.4002700000000003,0.001255525338263195,0.4002800000000003,-0.002119311842423106
0.4002800000000003,0.001255504145144771,0.4002900000000003,-0.002119297259838834
0.4002900000000003,0.001255482952172172,0.4003000000000003,-0.002119282676842565
0.4003000000000003,0.001255461759345404,0.4003100000000003,-0.002119268093802928
0.4003100000000003,0.001255440566664466,0.4003200000000003,-0.002119253510806659
0.4003200000000003,0.001255419374129358,0.4003300000000004,-0.002119238927723654
0.4003300000000004,0.00125539818174008,0.4003400000000004,-0.002119224344488861
0.4003400000000004,0.001255376989496635,0.4003500000000004,-0.002119209761058911
0.4003500000000004,0.001255355797399025,0.4003600000000004,-0.002119195177737382
0.4003600000000004,0.001255334605447247,0.4003700000000004,-0.002119180594307432
0.4003700000000004,0.001255313413641304,0.4003800000000004,-0.002119166010747378
0.4003800000000004,0.001255292221981197,0.4003900000000004,-0.002119151427035536
0.4003900000000004,0.001255271030466926,0.4004000000000004,-0.002119136843367061
0.4004000000000004,0.001255249839098493,0.4004100000000004,-0.002119122259546799
0.4004100000000004,0.001255228647875897,0.4004200000000004,-0.002119107675726536
0.4004200000000004,0.00125520745679914,0.4004300000000005,-0.002119093091711117
0.4004300000000005,0.001255186265868223,0.4004400000000005,-0.002119078507739066
0.4004400000000005,0.001255165075083145,0.4004500000000005,-0.002119063923593543
0.4004500000000005,0.001255143884443909,0.4004600000000005,-0.002119049339317916
0.4004600000000005,0.001255122693950516,0.4004700000000005,-0.002119034755020604
0.4004700000000005,0.001255101503602966,0.4004800000000005,-0.002119020170701609
0.4004800000000005,0.001255080313401259,0.4004900000000005,-0.002119005586274193
0.4004900000000005,0.001255059123345396,0.4005000000000005,-0.002118991001673305
0.4005000000000005,0.001255037933435379,0.4005100000000005,-0.002118976417180837
0.4005100000000005,0.001255016743671208,0.4005200000000005,-0.002118961832341425
0.4005200000000005,0.001254995554052884,0.4005300000000006,-0.002118947247740537
0.4005300000000006,0.001254974364580407,0.4005400000000006,-0.002118932662727652
0.4005400000000006,0.001254953175253779,0.4005500000000006,-0.002118918077823187
0.4005500000000006,0.001254931986073001,0.4005600000000006,-0.002118903492810302
0.4005600000000006,0.001254910797038073,0.4005700000000006,-0.002118888907623945
0.4005700000000006,0.001254889608148997,0.4005800000000006,-0.002118874322459272
0.4005800000000006,0.001254868419405772,0.4005900000000006,-0.002118859737186178
0.4005900000000006,0.0012548472308084,0.4006000000000006,-0.002118845151913085
0.4006000000000006,0.001254826042356881,0.4006100000000006,-0.002118830566444835
0.4006100000000006,0.001254804854051217,0.4006200000000006,-0.002118815980911533
0.4006200000000006,0.001254783665891408,0.4006300000000007,-0.002118801395399915
0.4006300000000007,0.001254762477877454,0.4006400000000007,-0.002118786809671457
0.4006400000000007,0.001254741290009357,0.4006500000000007,-0.002118772223769526
0.4006500000000007,0.001254720102287119,0.4006600000000007,-0.002118757638127804
0.4006600000000007,0.001254698914710738,0.4006700000000007,-0.002118743052009033
0.4006700000000007,0.001254677727280218,0.4006800000000007,-0.002118728466172154
0.4006800000000007,0.001254656539995556,0.4006900000000007,-0.002118713879966647
0.4006900000000007,0.001254635352856756,0.4007000000000007,-0.002118699293826192
0.4007000000000007,0.001254614165863818,0.4007100000000007,-0.002118684707664052
0.4007100000000007,0.001254592979016741,0.4007200000000007,-0.002118670121306757
0.4007200000000007,0.001254571792315528,0.4007300000000008,-0.002118655534754305
0.4007300000000008,0.001254550605760181,0.4007400000000008,-0.002118640948331957
0.4007400000000008,0.001254529419350697,0.4007500000000008,-0.002118626361801189
0.4007500000000008,0.001254508233087079,0.4007600000000008,-0.002118611775075265
0.4007600000000008,0.001254487046969328,0.4007700000000008,-0.002118597188436076
0.4007700000000008,0.001254465860997444,0.4007800000000008,-0.002118582601514996
0.4007800000000008,0.001254444675171429,0.4007900000000008,-0.002118568014680651
0.4007900000000008,0.001254423489491282,0.4008000000000008,-0.002118553427521046
0.4008000000000008,0.001254402303957007,0.4008100000000008,-0.002118538840556598
0.4008100000000008,0.001254381118568601,0.4008200000000008,-0.002118524253396992
0.4008200000000008,0.001254359933326067,0.4008300000000009,-0.002118509666259071
0.4008300000000009,0.001254338748229405,0.4008400000000009,-0.002118495078665785
0.4008400000000009,0.001254317563278618,0.4008500000000009,-0.0021184804916146
0.4008500000000009,0.001254296378473702,0.4008600000000009,-0.002118465903869526
0.4008600000000009,0.001254275193814663,0.4008700000000009,-0.002118451316449712
0.4008700000000009,0.001254254009301499,0.4008800000000009,-0.00211843672887811
0.4008800000000009,0.00125423282493421,0.4008900000000009,-0.002118422141002931
0.4008900000000009,0.0012542116407128,0.4009000000000009,-0.002118407553279541
0.4009000000000009,0.001254190456637267,0.4009100000000009,-0.002118392965404362
0.4009100000000009,0.001254169272707613,0.4009200000000009,-0.002118378377290659
0.4009200000000009,0.00125414808892384,0.400930000000001,-0.00211836378930706
0.400930000000001,0.001254126905285947,0.400940000000001,-0.002118349201193357
0.400940000000001,0.001254105721793935,0.400950000000001,-0.002118334612971234
0.400950000000001,0.001254084538447805,0.400960000000001,-0.002118320024727426
0.400960000000001,0.001254063355247558,0.400970000000001,-0.00211830543622341
0.400970000000001,0.001254042172193196,0.400980000000001,-0.002118290847849499
0.400980000000001,0.001254020989284717,0.400990000000001,-0.002118276259237062
0.400990000000001,0.001253999806522125,0.401000000000001,-0.002118261670667994
0.401000000000001,0.001253978623905418,0.401010000000001,-0.002118247081947138
0.401010000000001,0.001253957441434598,0.401020000000001,-0.002118232493226282
0.401020000000001,0.001253936259109666,0.4010300000000011,-0.002118217904353637
0.4010300000000011,0.001253915076930623,0.4010400000000011,-0.002118203315220784
0.4010400000000011,0.00125389389489747,0.4010500000000011,-0.002118188726369823
0.4010500000000011,0.001253872713010207,0.4010600000000011,-0.002118174137193602
0.4010600000000011,0.001253851531268835,0.4010700000000011,-0.002118159547930645
0.4010700000000011,0.001253830349673355,0.4010800000000011,-0.002118144958646003
0.4010800000000011,0.001253809168223769,0.4010900000000011,-0.002118130369317993
0.4010900000000011,0.001253787986920076,0.4011000000000011,-0.002118115779924932
0.4011000000000011,0.001253766805762276,0.4011100000000011,-0.002118101190401766
0.4011100000000011,0.001253745624750372,0.4011200000000011,-0.002118086600835232
0.4011200000000011,0.001253724443884364,0.4011300000000012,-0.002118072010943437
0.4011300000000012,0.001253703263164255,0.4011400000000012,-0.002118057421333535
0.4011400000000012,0.001253682082590041,0.4011500000000012,-0.002118042831441741
0.4011500000000012,0.001253660902161727,0.4011600000000012,-0.002118028241528262
0.4011600000000012,0.001253639721879312,0.4011700000000012,-0.002118013651528047
0.4011700000000012,0.001253618541742796,0.4011800000000012,-0.002117999061310992
0.4011800000000012,0.001253597361752183,0.4011900000000012,-0.002117984471202356
0.4011900000000012,0.001253576181907471,0.4012000000000012,-0.002117969881115405
0.4012000000000012,0.00125355500220866,0.4012100000000012,-0.002117955290464669
0.4012100000000012,0.001253533822655755,0.4012200000000012,-0.002117940700160878
0.4012200000000012,0.001253512643248754,0.4012300000000013,-0.002117926109640246
0.4012300000000013,0.001253491463987657,0.4012400000000013,-0.002117911519076246
0.4012400000000013,0.001253470284872466,0.4012500000000013,-0.002117896928317089
0.4012500000000013,0.001253449105903183,0.4012600000000013,-0.002117882337774773
0.4012600000000013,0.001253427927079805,0.4012700000000013,-0.002117867746755408
0.4012700000000013,0.001253406748402338,0.4012800000000013,-0.002117853155909516
0.4012800000000013,0.001253385569870779,0.4012900000000013,-0.002117838564846783
0.4012900000000013,0.00125336439148513,0.4013000000000013,-0.002117823973697313
0.4013000000000013,0.001253343213245393,0.4013100000000013,-0.002117809382808053
0.4013100000000013,0.001253322035151565,0.4013200000000013,-0.002117794791311639
0.4013200000000013,0.001253300857203652,0.4013300000000014,-0.002117780200162169
0.4013300000000014,0.00125327967940165,0.4013400000000014,-0.002117765608535651
0.4013400000000014,0.001253258501745565,0.4013500000000014,-0.002117751017299446
0.4013500000000014,0.001253237324235392,0.4013600000000014,-0.002117736425542823
0.4013600000000014,0.001253216146871136,0.4013700000000014,-0.002117721833916305
0.4013700000000014,0.001253194969652797,0.4013800000000014,-0.002117707242224735
0.4013800000000014,0.001253173792580375,0.4013900000000014,-0.002117692650359692
0.4013900000000014,0.001253152615653871,0.4014000000000014,-0.00211767805849465
0.4014000000000014,0.001253131438873286,0.4014100000000014,-0.002117663466456135
0.4014100000000014,0.001253110262238622,0.4014200000000014,-0.002117648874439304
0.4014200000000014,0.001253089085749877,0.4014300000000015,-0.002117634282314053
0.4014300000000015,0.001253067909407054,0.4014400000000015,-0.00211761969012375
0.4014400000000015,0.001253046733210153,0.4014500000000015,-0.00211760509773829
0.4014500000000015,0.001253025557159176,0.4014600000000015,-0.002117590505309462
0.4014600000000015,0.001253004381254123,0.4014700000000015,-0.002117575912945687
0.4014700000000015,0.001252983205494993,0.4014800000000015,-0.002117561320321702
0.4014800000000015,0.00125296202988179,0.4014900000000015,-0.00211754672776277
0.4014900000000015,0.001252940854414512,0.4015000000000015,-0.00211753213494363
0.4015000000000015,0.001252919679093163,0.4015100000000015,-0.002117517542059437
0.4015100000000015,0.001252898503917742,0.4015200000000015,-0.002117502949283665
0.4015200000000015,0.001252877328888249,0.4015300000000016,-0.002117488356399472
0.4015300000000016,0.001252856154004685,0.4015400000000016,-0.002117473763190018
0.4015400000000016,0.001252834979267053,0.4015500000000016,-0.00211745917021909
0.4015500000000016,0.001252813804675351,0.4015600000000016,-0.0021174445769229
0.4015600000000016,0.001252792630229582,0.4015700000000016,-0.002117429983713447
0.4015700000000016,0.001252771455929745,0.4015800000000016,-0.002117415390178733
0.4015800000000016,0.001252750281775843,0.4015900000000016,-0.002117400796882543
0.4015900000000016,0.001252729107767874,0.4016000000000016,-0.002117386203261093
0.4016000000000016,0.001252707933905841,0.4016100000000016,-0.002117371609639643
0.4016100000000016,0.001252686760189745,0.4016200000000016,-0.002117357015931457
0.4016200000000016,0.001252665586619586,0.4016300000000017,-0.002117342422179902
0.4016300000000017,0.001252644413195364,0.4016400000000017,-0.00211732782838498
0.4016400000000017,0.00125262323991708,0.4016500000000017,-0.002117313234351533
0.4016500000000017,0.001252602066784736,0.4016600000000017,-0.00211729864033977
0.4016600000000017,0.001252580893798333,0.4016700000000017,-0.002117284046219586
0.4016700000000017,0.001252559720957871,0.4016800000000017,-0.002117269452012667
0.4016800000000017,0.001252538548263351,0.4016900000000017,-0.002117254857719012
0.4016900000000017,0.001252517375714773,0.4017000000000017,-0.002117240263381988
0.4017000000000017,0.00125249620331214,0.4017100000000017,-0.002117225669001597
0.4017100000000017,0.00125247503105545,0.4017200000000017,-0.002117211074339312
0.4017200000000017,0.001252453858944706,0.4017300000000018,-0.002117196479872185
0.4017300000000018,0.001252432686979907,0.4017400000000018,-0.002117181885166532
0.4017400000000018,0.001252411515161056,0.4017500000000018,-0.002117167290374144
0.4017500000000018,0.001252390343488152,0.4017600000000018,-0.002117152695668491
0.4017600000000018,0.001252369171961195,0.4017700000000018,-0.002117138100550842
0.4017700000000018,0.00125234800058019,0.4017800000000018,-0.002117123505541613
0.4017800000000018,0.001252326829345134,0.4017900000000018,-0.002117108910597436
0.4017900000000018,0.001252305658256028,0.4018000000000018,-0.002117094315219579
0.4018000000000018,0.001252284487312876,0.4018100000000018,-0.002117079720123614
0.4018100000000018,0.001252263316515675,0.4018200000000018,-0.002117065124745756
0.4018200000000018,0.001252242145864427,0.4018300000000019,-0.002117050529346214
0.4018300000000019,0.001252220975359134,0.4018400000000019,-0.0021170359337732
0.4018400000000019,0.001252199804999796,0.4018500000000019,-0.002117021338135134
0.4018500000000019,0.001252178634786415,0.4018600000000019,-0.00211700674267054
0.4018600000000019,0.001252157464718988,0.4018700000000019,-0.002116992146642161
0.4018700000000019,0.001252136294797522,0.4018800000000019,-0.002116977551025779
0.4018800000000019,0.001252115125022011,0.4018900000000019,-0.002116962955149188
0.4018900000000019,0.00125209395539246,0.4019000000000019,-0.002116948359034073
0.4019000000000019,0.001252072785908869,0.4019100000000019,-0.002116933763049062
0.4019100000000019,0.001252051616571239,0.4019200000000019,-0.002116919166782158
0.4019200000000019,0.001252030447379571,0.401930000000002,-0.002116904570753779
0.401930000000002,0.001252009278333863,0.401940000000002,-0.002116889974139931
0.401940000000002,0.001251988109434122,0.401950000000002,-0.002116875377894712
0.401950000000002,0.001251966940680343,0.401960000000002,-0.0021168607813676
0.401960000000002,0.001251945772072529,0.401970000000002,-0.002116846184818804
0.401970000000002,0.001251924603610681,0.401980000000002,-0.002116831588161588
0.401980000000002,0.0012519034352948,0.401990000000002,-0.00211681699143932
0.401990000000002,0.001251882267124885,0.402000000000002,-0.002116802394717051
0.402000000000002,0.001251861099100938,0.402010000000002,-0.002116787797669522
0.402010000000002,0.001251839931222961,0.402020000000002,-0.002116773200708729
0.402020000000002,0.001251818763490954,0.4020300000000021,-0.002116758603769621
0.4020300000000021,0.001251797595904916,0.4020400000000021,-0.002116744006526935
0.4020400000000021,0.001251776428464851,0.4020500000000021,-0.002116729409240882
0.4020500000000021,0.001251755261170759,0.4020600000000021,-0.002116714812280089
0.4020600000000021,0.001251734094022636,0.4020700000000021,-0.00211670021453867
0.4020700000000021,0.00125171292702049,0.4020800000000021,-0.002116685617209249
0.4020800000000021,0.001251691760164318,0.4020900000000021,-0.002116671019532882
0.4020900000000021,0.001251670593454123,0.4021000000000021,-0.002116656422008304
0.4021000000000021,0.001251649426889903,0.4021100000000021,-0.002116641824353622
0.4021100000000021,0.001251628260471659,0.4021200000000021,-0.002116627226395363
0.4021200000000021,0.001251607094199395,0.4021300000000022,-0.002116612628697313
0.4021300000000022,0.001251585928073108,0.4021400000000022,-0.00211659803060895
0.4021400000000022,0.001251564762092802,0.4021500000000022,-0.002116583432563955
0.4021500000000022,0.001251543596258477,0.4021600000000022,-0.002116568834497276
0.4021600000000022,0.001251522430570132,0.4021700000000022,-0.002116554236322176
0.4021700000000022,0.001251501265027768,0.4021800000000022,-0.002116539638060341
0.4021800000000022,0.001251480099631388,0.4021900000000022,-0.002116525039603349
0.4021900000000022,0.001251458934380992,0.4022000000000022,-0.002116510441124673
0.4022000000000022,0.00125143776927658,0.4022100000000022,-0.002116495842624313
0.4022100000000022,0.001251416604318154,0.4022200000000022,-0.002116481244058901
0.4022200000000022,0.001251395439505713,0.4022300000000023,-0.002116466645341701
0.4022300000000023,0.00125137427483926,0.4022400000000023,-0.002116452046602816
0.4022400000000023,0.001251353110318794,0.4022500000000023,-0.002116437447625407
0.4022500000000023,0.001251331945944318,0.4022600000000023,-0.002116422848821471
0.4022600000000023,0.001251310781715829,0.4022700000000023,-0.002116408249692274
0.4022700000000023,0.001251289617633333,0.4022800000000023,-0.00211639365058476
0.4022800000000023,0.001251268453696827,0.4022900000000023,-0.002116379051412196
0.4022900000000023,0.001251247289906313,0.4023000000000023,-0.002116364452261314
0.4023000000000023,0.00125122612626179,0.4023100000000023,-0.002116349852850224
0.4023100000000023,0.001251204962763261,0.4023200000000023,-0.002116335253330714
0.4023200000000023,0.001251183799410728,0.4023300000000024,-0.002116320653919625
0.4023300000000024,0.001251162636204189,0.4023400000000024,-0.002116306054183274
0.4023400000000024,0.001251141473143647,0.4023500000000024,-0.0021162914547505
0.4023500000000024,0.001251120310229099,0.4023600000000024,-0.002116276854732257
0.4023600000000024,0.001251099147460552,0.4023700000000024,-0.002116262255060959
0.4023700000000024,0.001251077984838001,0.4023800000000024,-0.002116247655042716
0.4023800000000024,0.001251056822361451,0.4023900000000024,-0.002116233055024473
0.4023900000000024,0.001251035660030901,0.4024000000000024,-0.002116218455027914
0.4024000000000024,0.00125101449784635,0.4024100000000024,-0.002116203854749463
0.4024100000000024,0.001250993335807803,0.4024200000000024,-0.002116189254579431
0.4024200000000024,0.001250972173915257,0.4024300000000025,-0.00211617465419256
0.4024300000000025,0.001250951012168715,0.4024400000000025,-0.002116160053784004
0.4024400000000025,0.001250929850568177,0.4024500000000025,-0.00211614545333208
0.4024500000000025,0.001250908689113644,0.4024600000000025,-0.002116130852771736
0.4024600000000025,0.001250887527805116,0.4024700000000025,-0.002116116252124656
