;Version, 1, 0
;/I15/VDD_kojima,;deriv(IS("/I15/VDD_kojima"))
;X, Y,;X, Y
;Re, Re,;Re, Re
;Vref, I,;Vref, Y
;xunit, A,;xunit, yunit
0.4,0.0008409277200034032,0.40001,-0.00164233846382395
0.40001,0.000840911296618765,0.40002,-0.001642324512765759
0.40002,0.0008408948733736373,0.4000300000000001,-0.001642310561729253
0.4000300000000001,0.00084087845026802,0.4000400000000001,-0.0016422966105518
0.4000400000000001,0.0008408620273019145,0.4000500000000001,-0.001642282659396031
0.4000500000000001,0.0008408456044753205,0.4000600000000001,-0.001642268708207736
0.4000600000000001,0.0008408291817882384,0.4000700000000001,-0.001642254756824285
0.4000700000000001,0.0008408127592406701,0.4000800000000001,-0.001642240805538412
0.4000800000000001,0.0008407963368326147,0.4000900000000001,-0.001642226853981488
0.4000900000000001,0.0008407799145640749,0.4001000000000001,-0.001642212902522143
0.4001000000000001,0.0008407634924350497,0.4001100000000001,-0.001642198950976061
0.4001100000000001,0.0008407470704455399,0.4001200000000001,-0.001642184999386612
0.4001200000000001,0.000840730648595546,0.4001300000000002,-0.001642171047753794
0.4001300000000002,0.0008407142268850685,0.4001400000000002,-0.001642157095936662
0.4001400000000002,0.0008406978053141091,0.4001500000000002,-0.00164214314417374
0.4001500000000002,0.0008406813838826673,0.4001600000000002,-0.001642129192324082
0.4001600000000002,0.0008406649625907441,0.4001700000000002,-0.001642115240398529
0.4001700000000002,0.0008406485414383401,0.4001800000000002,-0.001642101288418767
0.4001800000000002,0.0008406321204254559,0.4001900000000002,-0.001642087336373952
0.4001900000000002,0.0008406156995520921,0.4002000000000002,-0.001642073384274928
0.4002000000000002,0.0008405992788182493,0.4002100000000002,-0.001642059432132535
0.4002100000000002,0.000840582858223928,0.4002200000000002,-0.00164204547992509
0.4002200000000002,0.0008405664377691287,0.4002300000000003,-0.001642031527630909
0.4002300000000003,0.0008405500174538524,0.4002400000000003,-0.001642017575325886
0.4002400000000003,0.0008405335972780991,0.4002500000000003,-0.00164200362284739
0.4002500000000003,0.0008405171772418706,0.4002600000000003,-0.001641989670477315
0.4002600000000003,0.0008405007573451658,0.4002700000000003,-0.001641975717933767
0.4002700000000003,0.0008404843375879865,0.4002800000000003,-0.001641961765292641
0.4002800000000003,0.0008404679179703336,0.4002900000000003,-0.00164194781272741
0.4002900000000003,0.0008404514984922063,0.4003000000000003,-0.001641933859967022
0.4003000000000003,0.0008404350791536066,0.4003100000000003,-0.001641919907217476
0.4003100000000003,0.0008404186599545344,0.4003200000000003,-0.001641905954446246
0.4003200000000003,0.0008404022408949899,0.4003300000000004,-0.001641892001469017
0.4003300000000004,0.0008403858219749752,0.4003400000000004,-0.001641878048556841
0.4003400000000004,0.0008403694031944896,0.4003500000000004,-0.001641864095633823
0.4003500000000004,0.0008403529845535333,0.4003600000000004,-0.001641850142439754
0.4003600000000004,0.0008403365660521088,0.4003700000000004,-0.001641836189397473
0.4003700000000004,0.0008403201476902149,0.4003800000000004,-0.001641822236160036
0.4003800000000004,0.0008403037294678532,0.4003900000000004,-0.001641808282944283
0.4003900000000004,0.0008402873113850238,0.4004000000000004,-0.001641794329663478
0.4004000000000004,0.0008402708934417271,0.4004100000000004,-0.001641780376230885
0.4004100000000004,0.0008402544756379648,0.4004200000000004,-0.001641766422906712
0.4004200000000004,0.0008402380579737357,0.4004300000000005,-0.001641752469333172
0.4004300000000005,0.0008402216404490424,0.4004400000000005,-0.00164173851569458
0.4004400000000005,0.0008402052230638854,0.4004500000000005,-0.001641724562196935
0.4004500000000005,0.0008401888058182634,0.4004600000000005,-0.001641710608514975
0.4004600000000005,0.0008401723887121783,0.4004700000000005,-0.001641696654822173
0.4004700000000005,0.00084015597174563,0.4004800000000005,-0.001641682701010109
0.4004800000000005,0.0008401395549186199,0.4004900000000005,-0.001641668747154676
0.4004900000000005,0.0008401231382311483,0.4005000000000005,-0.001641654793201666
0.4005000000000005,0.0008401067216832163,0.4005100000000005,-0.001641640839248656
0.4005100000000005,0.0008400903052748238,0.4005200000000005,-0.001641626885252277
0.4005200000000005,0.0008400738890059713,0.4005300000000006,-0.001641612931071584
0.4005300000000006,0.0008400574728766605,0.4005400000000006,-0.001641598977010154
0.4005400000000006,0.0008400410568868904,0.4005500000000006,-0.001641585022775251
0.4005500000000006,0.0008400246410366626,0.4005600000000006,-0.001641571068486138
0.4005600000000006,0.0008400082253259778,0.4005700000000006,-0.001641557114099446
0.4005700000000006,0.0008399918097548368,0.4005800000000006,-0.001641543159723597
0.4005800000000006,0.0008399753943232395,0.4005900000000006,-0.001641529205315222
0.4005900000000006,0.0008399589790311863,0.4006000000000006,-0.001641515250722532
0.4006000000000006,0.0008399425638786791,0.4006100000000006,-0.001641501296205736
0.4006100000000006,0.000839926148865717,0.4006200000000006,-0.001641487341558837
0.4006200000000006,0.0008399097339923014,0.4006300000000007,-0.001641473386901095
0.4006300000000007,0.0008398933192584324,0.4006400000000007,-0.001641459432080723
0.4006400000000007,0.0008398769046641116,0.4006500000000007,-0.001641445477249508
0.4006500000000007,0.000839860490209339,0.4006600000000007,-0.001641431522407452
0.4006600000000007,0.000839844075894115,0.4006700000000007,-0.00164141756747866
0.4006700000000007,0.0008398276617184402,0.4006800000000007,-0.001641403612376395
0.4006800000000007,0.0008398112476823164,0.4006900000000007,-0.001641389657393393
0.4006900000000007,0.0008397948337857424,0.4007000000000007,-0.00164137570224776
0.4007000000000007,0.0008397784200287199,0.4007100000000007,-0.001641361747145495
0.4007100000000007,0.0008397620064112485,0.4007200000000007,-0.00164134779177218
0.4007200000000007,0.0008397455929333307,0.4007300000000008,-0.001641333836539811
0.4007300000000008,0.0008397291795949653,0.4007400000000008,-0.001641319881123128
0.4007400000000008,0.0008397127663961541,0.4007500000000008,-0.001641305925728128
0.4007500000000008,0.0008396963533368968,0.4007600000000008,-0.001641291970257235
0.4007600000000008,0.0008396799404171942,0.4007700000000008,-0.001641278014753815
0.4007700000000008,0.0008396635276370466,0.4007800000000008,-0.001641264059055239
0.4007800000000008,0.000839647114996456,0.4007900000000008,-0.001641250103432558
0.4007900000000008,0.0008396307024954217,0.4008000000000008,-0.00164123614772314
0.4008000000000008,0.0008396142901339445,0.4008100000000008,-0.00164122219189446
0.4008100000000008,0.0008395978779120255,0.4008200000000008,-0.001641208236098306
0.4008200000000008,0.0008395814658296645,0.4008300000000009,-0.001641194280139521
0.4008300000000009,0.0008395650538868631,0.4008400000000009,-0.001641180324159053
0.4008400000000009,0.0008395486420836215,0.4008500000000009,-0.001641166368146058
0.4008500000000009,0.00083953223041994,0.4008600000000009,-0.001641152412068011
0.4008600000000009,0.0008395158188958193,0.4008700000000009,-0.001641138455881544
0.4008700000000009,0.0008394994075112605,0.4008800000000009,-0.001641124499738446
0.4008800000000009,0.0008394829962662631,0.4008900000000009,-0.001641110543389348
0.4008900000000009,0.0008394665851608292,0.4009000000000009,-0.001641096587148671
0.4009000000000009,0.0008394501741949577,0.4009100000000009,-0.00164108263061526
0.4009100000000009,0.0008394337633686515,0.4009200000000009,-0.001641068674298689
0.4009200000000009,0.0008394173526819085,0.400930000000001,-0.001641054717667699
0.400930000000001,0.0008394009421347318,0.400940000000001,-0.001641040761155971
0.400940000000001,0.0008393845317271202,0.400950000000001,-0.001641026804503297
0.400950000000001,0.0008393681214590752,0.400960000000001,-0.00164101284788315
0.400960000000001,0.0008393517113305963,0.400970000000001,-0.00164099889103532
0.400970000000001,0.000839335301341686,0.400980000000001,-0.001640984934209173
0.400980000000001,0.0008393188914923438,0.400990000000001,-0.001640970977372185
0.400990000000001,0.0008393024817825701,0.401000000000001,-0.001640957020394251
0.401000000000001,0.0008392860722123661,0.401010000000001,-0.001640943063438
0.401010000000001,0.0008392696627817318,0.401020000000001,-0.001640929106362488
0.401020000000001,0.0008392532534906681,0.4010300000000011,-0.001640915149308659
0.4010300000000011,0.000839236844339175,0.4010400000000011,-0.00164090119198378
0.4010400000000011,0.0008392204353272552,0.4010500000000011,-0.001640887234821531
0.4010500000000011,0.0008392040264549069,0.4010600000000011,-0.001640873277550862
0.4010600000000011,0.0008391876177221314,0.4010700000000011,-0.001640859320182615
0.4010700000000011,0.0008391712091289296,0.4010800000000011,-0.001640845362651737
0.4010800000000011,0.000839154800675303,0.4010900000000011,-0.001640831405261806
0.4010900000000011,0.0008391383923612504,0.4011000000000011,-0.001640817447774296
0.4011000000000011,0.0008391219841867726,0.4011100000000011,-0.001640803490102472
0.4011100000000011,0.0008391055761518716,0.4011200000000011,-0.001640789532452333
0.4011200000000011,0.000839089168256547,0.4011300000000012,-0.001640775574672088
0.4011300000000012,0.0008390727605008003,0.4011400000000012,-0.00164076161692437
0.4011400000000012,0.000839056352884631,0.4011500000000012,-0.001640747659079074
0.4011500000000012,0.0008390399454080402,0.4011600000000012,-0.0016407337011362
0.4011600000000012,0.0008390235380710289,0.4011700000000012,-0.001640719743225851
0.4011700000000012,0.0008390071308735966,0.4011800000000012,-0.001640705785196241
0.4011800000000012,0.0008389907238157446,0.4011900000000012,-0.00164069182705821
0.4011900000000012,0.000838974316897474,0.4012000000000012,-0.001640677868996073
0.4012000000000012,0.000838957910118784,0.4012100000000012,-0.001640663910662886
0.4012100000000012,0.0008389415034796774,0.4012200000000012,-0.001640649952503171
0.4012200000000012,0.0008389250969801523,0.4012300000000013,-0.001640635994159142
0.4012300000000013,0.0008389086906202107,0.4012400000000013,-0.001640622035685009
0.4012400000000013,0.0008388922843998539,0.4012500000000013,-0.001640608077340979
0.4012500000000013,0.0008388758783190804,0.4012600000000013,-0.001640594118758426
0.4012600000000013,0.0008388594723778928,0.4012700000000013,-0.001640580160197556
0.4012700000000013,0.0008388430665762908,0.4012800000000013,-0.001640566201539108
0.4012800000000013,0.0008388266609142754,0.4012900000000013,-0.001640552242891502
0.4012900000000013,0.0008388102553918465,0.4013000000000013,-0.001640538284135476
0.4013000000000013,0.0008387938500090051,0.4013100000000013,-0.001640524325303556
0.4013100000000013,0.0008387774447657521,0.4013200000000013,-0.001640510366363216
0.4013200000000013,0.0008387610396620884,0.4013300000000014,-0.001640496407520454
0.4013300000000014,0.0008387446346980132,0.4013400000000014,-0.001640482448612639
0.4013400000000014,0.0008387282298735271,0.4013500000000014,-0.001640468489336196
0.4013500000000014,0.0008387118251886337,0.4013600000000014,-0.00164045453036333
0.4013600000000014,0.00083869542064333,0.4013700000000014,-0.001640440571130255
0.4013700000000014,0.0008386790162376187,0.4013800000000014,-0.001640426611908022
0.4013800000000014,0.0008386626119714996,0.4013900000000014,-0.001640412652577368
0.4013900000000014,0.0008386462078449738,0.4014000000000014,-0.001640398693246715
0.4014000000000014,0.0008386298038580414,0.4014100000000014,-0.00164038473385101
0.4014100000000014,0.0008386134000107028,0.4014200000000014,-0.001640370774368568
0.4014200000000014,0.0008385969963029591,0.4014300000000015,-0.001640356814799391
0.4014300000000015,0.0008385805927348111,0.4014400000000015,-0.001640342855284423
0.4014400000000015,0.0008385641893062583,0.4014500000000015,-0.001640328895465879
0.4014500000000015,0.0008385477860173036,0.4014600000000015,-0.001640314935831649
0.4014600000000015,0.0008385313828679452,0.4014700000000015,-0.001640300976023947
0.4014700000000015,0.000838514979858185,0.4014800000000015,-0.001640287016172877
0.4014800000000015,0.0008384985769880232,0.4014900000000015,-0.001640273056289281
0.4014900000000015,0.0008384821742574603,0.4015000000000015,-0.001640259096351474
0.4015000000000015,0.0008384657716664968,0.4015100000000015,-0.001640245136326932
0.4015100000000015,0.0008384493692151335,0.4015200000000015,-0.001640231176215653
0.4015200000000015,0.0008384329669033713,0.4015300000000016,-0.00164021721608269
0.4015300000000016,0.0008384165647312105,0.4015400000000016,-0.001640203255808781
0.4015400000000016,0.0008384001626986524,0.4015500000000016,-0.001640189295599924
0.4015500000000016,0.0008383837608056964,0.4015600000000016,-0.001640175335260963
0.4015600000000016,0.0008383673590523438,0.4015700000000016,-0.001640161374889475
0.4015700000000016,0.0008383509574385948,0.4015800000000016,-0.001640147414442094
0.4015800000000016,0.0008383345559644504,0.4015900000000016,-0.001640133453951345
0.4015900000000016,0.0008383181546299109,0.4016000000000016,-0.001640119493297965
0.4016000000000016,0.0008383017534349779,0.4016100000000016,-0.001640105532731321
0.4016100000000016,0.0008382853523796506,0.4016200000000016,-0.001640091572023731
0.4016200000000016,0.0008382689514639303,0.4016300000000017,-0.001640077611326983
0.4016300000000017,0.000838252550687817,0.4016400000000017,-0.001640063650391711
0.4016400000000017,0.0008382361500513131,0.4016500000000017,-0.001640049689640753
0.4016500000000017,0.0008382197495544167,0.4016600000000017,-0.001640035728640428
0.4016600000000017,0.0008382033491971302,0.4016700000000017,-0.001640021767705156
0.4016700000000017,0.0008381869489794532,0.4016800000000017,-0.001640007806563885
0.4016800000000017,0.0008381705489013875,0.4016900000000017,-0.001639993845487666
0.4016900000000017,0.0008381541489629326,0.4017000000000017,-0.001639979884357237
0.4017000000000017,0.000838137749164089,0.4017100000000017,-0.00163996592312923
0.4017100000000017,0.0008381213495048577,0.4017200000000017,-0.001639951961760277
0.4017200000000017,0.0008381049499852401,0.4017300000000018,-0.00163993800042385
0.4017300000000018,0.0008380885506052358,0.4017400000000018,-0.001639924039022371
0.4017400000000018,0.0008380721513648456,0.4017500000000018,-0.001639910077512471
0.4017500000000018,0.0008380557522640705,0.4017600000000018,-0.001639896116035098
0.4017600000000018,0.0008380393533029101,0.4017700000000018,-0.001639882154405936
0.4017700000000018,0.000838022954481366,0.4017800000000018,-0.001639868192733406
0.4017800000000018,0.0008380065557994387,0.4017900000000018,-0.001639854231006666
0.4017900000000018,0.0008379901572571286,0.4018000000000018,-0.001639840269236558
0.4018000000000018,0.0008379737588544362,0.4018100000000018,-0.001639826307368872
0.4018100000000018,0.0008379573605913625,0.4018200000000018,-0.001639812345566237
0.4018200000000018,0.0008379409624679068,0.4018300000000019,-0.001639798383492553
0.4018300000000019,0.0008379245644840719,0.4018400000000019,-0.001639784421570656
0.4018400000000019,0.0008379081666398562,0.4018500000000019,-0.001639770459377709
0.4018500000000019,0.0008378917689352624,0.4018600000000019,-0.001639756497325709
0.4018600000000019,0.0008378753713702891,0.4018700000000019,-0.001639742535100236
0.4018700000000019,0.0008378589739449381,0.4018800000000019,-0.001639728572766342
0.4018800000000019,0.0008378425766592104,0.4018900000000019,-0.001639714610519185
0.4018900000000019,0.0008378261795131052,0.4019000000000019,-0.001639700648109398
0.4019000000000019,0.0008378097825066241,0.4019100000000019,-0.001639686685667085
0.4019100000000019,0.0008377933856397674,0.4019200000000019,-0.001639672723181403
0.4019200000000019,0.0008377769889125356,0.401930000000002,-0.001639658760554775
0.401930000000002,0.00083776059232493,0.401940000000002,-0.0016396447979932
0.401940000000002,0.00083774419587695,0.401950000000002,-0.001639630835323204
0.401950000000002,0.0008377277995685968,0.401960000000002,-0.00163961687250142
0.401960000000002,0.0008377114033998718,0.401970000000002,-0.001639602909701319
0.401970000000002,0.0008376950073707747,0.401980000000002,-0.001639588946781957
0.401980000000002,0.0008376786114813069,0.401990000000002,-0.001639574983992699
0.401990000000002,0.000837662215731467,0.402000000000002,-0.001639561020921548
0.402000000000002,0.0008376458201212577,0.402010000000002,-0.001639547057926292
0.402010000000002,0.0008376294246506784,0.402020000000002,-0.001639533094725037
0.402020000000002,0.0008376130293197312,0.4020300000000021,-0.001639519131545466
0.4020300000000021,0.0008375966341284157,0.4020400000000021,-0.001639505168355053
0.4020400000000021,0.0008375802390767321,0.4020500000000021,-0.001639491205023694
0.4020500000000021,0.0008375638441646819,0.4020600000000021,-0.001639477241735703
0.4020600000000021,0.0008375474493922645,0.4020700000000021,-0.001639463278339291
0.4020700000000021,0.0008375310547594811,0.4020800000000021,-0.001639449314866986
0.4020800000000021,0.0008375146602663324,0.4020900000000021,-0.00163943535123205
0.4020900000000021,0.0008374982659128201,0.4021000000000021,-0.001639421387651324
0.4021000000000021,0.0008374818716989436,0.4021100000000021,-0.001639407424070599
0.4021100000000021,0.0008374654776247028,0.4021200000000021,-0.001639393460251348
0.4021200000000021,0.0008374490836901003,0.4021300000000022,-0.001639379496594728
0.4021300000000022,0.0008374326898951343,0.4021400000000022,-0.001639365532688742
0.4021400000000022,0.0008374162962398074,0.4021500000000022,-0.001639351568815282
0.4021500000000022,0.0008373999027241193,0.4021600000000022,-0.001639337604887611
0.4021600000000022,0.0008373835093480704,0.4021700000000022,-0.001639323640764785
0.4021700000000022,0.0008373671161116627,0.4021800000000022,-0.001639309676793746
0.4021800000000022,0.0008373507230148948,0.4021900000000022,-0.001639295712573341
0.4021900000000022,0.000837334330057769,0.4022000000000022,-0.00163928174837462
0.4022000000000022,0.0008373179372402852,0.4022100000000022,-0.001639267784165057
0.4022100000000022,0.0008373015445624436,0.4022200000000022,-0.001639253819803706
0.4022200000000022,0.0008372851520242455,0.4022300000000023,-0.001639239855420671
0.4022300000000023,0.0008372687596256913,0.4022400000000023,-0.001639225891005109
0.4022400000000023,0.0008372523673667812,0.4022500000000023,-0.001639211926524496
0.4022500000000023,0.000837235975247516,0.4022600000000023,-0.001639197961859568
0.4022600000000023,0.0008372195832678974,0.4022700000000023,-0.00163918399735727
0.4022700000000023,0.0008372031914279238,0.4022800000000023,-0.001639170032562238
0.4022800000000023,0.0008371867997275981,0.4022900000000023,-0.001639156067875626
0.4022900000000023,0.0008371704081669194,0.4023000000000023,-0.00163914210305891
0.4023000000000023,0.0008371540167458887,0.4023100000000023,-0.001639128138187984
0.4023100000000023,0.0008371376254645069,0.4023200000000023,-0.001639114173284531
0.4023200000000023,0.000837121234322774,0.4023300000000024,-0.001639100208218449
0.4023300000000024,0.0008371048433206918,0.4023400000000024,-0.001639086243206576
0.4023400000000024,0.0008370884524582597,0.4023500000000024,-0.001639072278194703
0.4023500000000024,0.0008370720617354777,0.4023600000000024,-0.001639058312890097
0.4023600000000024,0.0008370556711523488,0.4023700000000024,-0.001639044347715594
0.4023700000000024,0.0008370392807088717,0.4023800000000024,-0.001639030382410986
0.4023800000000024,0.0008370228904050475,0.4023900000000024,-0.001639016417084695
0.4023900000000024,0.0008370065002408767,0.4024000000000024,-0.001639002451693352
0.4024000000000024,0.0008369901102163597,0.4024100000000024,-0.00163898848620443
0.4024100000000024,0.0008369737203314977,0.4024200000000024,-0.001638974520672141
0.4024200000000024,0.0008369573305862909,0.4024300000000025,-0.001638960555053115
0.4024300000000025,0.0008369409409807404,0.4024400000000025,-0.001638946589379879
