;Version, 1, 0
;IS("/I1/Vbs"),;deriv(IS("/I1/Vbs"))
;X, Y,;X, Y
;Re, Re,;Re, Re
;Vref, I,;Vref, Y
;xunit, A,;xunit, yunit
0.7,0.000558919207362483,0.7000099999999999,0.004157264289704401
0.7000099999999999,0.0005589607800053799,0.7000199999999999,0.004157400512486588
0.7000199999999999,0.0005590023540105046,0.7000299999999998,0.004157536728286513
0.7000299999999998,0.0005590439293777872,0.7000399999999998,0.004157672937093334
0.7000399999999998,0.000559085506107158,0.7000499999999997,0.004157809138950419
0.7000499999999997,0.0005591270841985473,0.7000599999999997,0.004157945333901136
0.7000599999999997,0.0005591686636518861,0.7000699999999996,0.004158081521945485
0.7000699999999996,0.0005592102444671054,0.7000799999999996,0.004158217702953363
0.7000799999999996,0.0005592518266441347,0.7000899999999995,0.004158353877022346
0.7000899999999995,0.0005592934101829048,0.7000999999999995,0.004158490044250013
0.7000999999999995,0.0005593349950833471,0.7001099999999995,0.004158626204332789
0.7001099999999995,0.0005593765813453902,0.7001199999999994,0.004158762357585091
0.7001199999999994,0.0005594181689689659,0.7001299999999994,0.004158898503865973
0.7001299999999994,0.0005594597579540044,0.7001399999999993,0.004159034643142908
0.7001399999999993,0.0005595013483004356,0.7001499999999993,0.004159170775546002
0.7001499999999993,0.0005595429400081909,0.7001599999999992,0.004159306900966834
0.7001599999999992,0.0005595845330772003,0.7001699999999992,0.004159443019383719
0.7001699999999992,0.000559626127507394,0.7001799999999991,0.004159579130850869
0.7001799999999991,0.0005596677232987023,0.7001899999999991,0.004159715235368283
0.7001899999999991,0.0005597093204510558,0.700199999999999,0.004159851332935962
0.700199999999999,0.000559750918964385,0.700209999999999,0.004159987423532219
0.700209999999999,0.0005597925188386201,0.700219999999999,0.004160123507232952
0.700219999999999,0.0005598341200736922,0.7002299999999989,0.004160259583875528
0.7002299999999989,0.0005598757226695308,0.7002399999999989,0.004160395653557526
0.7002399999999989,0.0005599173266260662,0.7002499999999988,0.004160531716343998
0.7002499999999988,0.0005599589319432295,0.7002599999999988,0.004160667772115683
0.7002599999999988,0.0005600005386209504,0.7002699999999987,0.004160803820970158
0.7002699999999987,0.0005600421466591599,0.7002799999999987,0.004160939862788159
0.7002799999999987,0.0005600837560577876,0.7002899999999986,0.004161075897710636
0.7002899999999986,0.0005601253668167645,0.7002999999999986,0.004161211925618325
0.7002999999999986,0.0005601669789360205,0.7003099999999985,0.004161347946587119
0.7003099999999985,0.0005602085924154862,0.7003199999999985,0.004161483960573652
0.7003199999999985,0.0005602502072550918,0.7003299999999985,0.004161619967632132
0.7003299999999985,0.0005602918234547679,0.7003399999999984,0.004161755967589089
0.7003399999999984,0.0005603334410144436,0.7003499999999984,0.004161891960715571
0.7003499999999984,0.0005603750599340506,0.7003599999999983,0.004162027946859792
0.7003599999999983,0.000560416680213519,0.7003699999999983,0.004162163925967541
0.7003699999999983,0.0005604583018527785,0.7003799999999982,0.004162299898136395
0.7003799999999982,0.0005604999248517596,0.7003899999999982,0.004162435863322989
0.7003899999999982,0.0005605415492103927,0.7003999999999981,0.004162571821494794
0.7003999999999981,0.0005605831749286074,0.7004099999999981,0.004162707772803599
0.7004099999999981,0.0005606248020063353,0.700419999999998,0.004162843717108457
0.700419999999998,0.0005606664304435062,0.700429999999998,0.004162979654322634
0.700429999999998,0.0005607080602400492,0.700439999999998,0.004163115584673811
0.700439999999998,0.0005607496913958958,0.7004499999999979,0.004163251507988516
0.7004499999999979,0.0005607913239109755,0.7004599999999979,0.004163387424386011
0.7004599999999979,0.0005608329577852191,0.7004699999999978,0.00416352333372535
0.7004699999999978,0.0005608745930185562,0.7004799999999978,0.004163659236158321
0.7004799999999978,0.0005609162296109176,0.7004899999999977,0.004163795131576504
0.7004899999999977,0.0005609578675622332,0.7004999999999977,0.004163931019979899
0.7004999999999977,0.0005609995068724328,0.7005099999999976,0.004164066901487768
0.7005099999999976,0.0005610411475414475,0.7005199999999976,0.004164202775948323
0.7005199999999976,0.0005610827895692067,0.7005299999999975,0.00416433864350251
0.7005299999999975,0.0005611244329556416,0.7005399999999975,0.004164474503933489
0.7005399999999975,0.0005611660777006807,0.7005499999999975,0.0041646103574581
0.7005499999999975,0.0005612077238042551,0.7005599999999974,0.004164746204043817
0.7005599999999974,0.0005612493712662954,0.7005699999999974,0.004164882043603904
0.7005699999999974,0.0005612910200867312,0.7005799999999973,0.004165017876160046
0.7005799999999973,0.0005613326702654926,0.7005899999999973,0.004165153701788134
0.7005899999999973,0.0005613743218025103,0.7005999999999972,0.004165289520347225
0.7005999999999972,0.0005614159746977136,0.7006099999999972,0.004165425331978265
0.7006099999999972,0.0005614576289510332,0.7006199999999971,0.00416556113656199
0.7006199999999971,0.0005614992845623986,0.7006299999999971,0.004165696934195978
0.7006299999999971,0.0005615409415317404,0.700639999999997,0.004165832724891074
0.700639999999997,0.0005615825998589891,0.700649999999997,0.004165968508506329
0.700649999999997,0.000561624259544074,0.700659999999997,0.004166104285139321
0.700659999999997,0.0005616659205869252,0.7006699999999969,0.004166240054855105
0.7006699999999969,0.0005617075829874736,0.7006799999999969,0.004166375817534416
0.7006799999999969,0.0005617492467456487,0.7006899999999968,0.004166511573188097
0.7006899999999968,0.0005617909118613804,0.7006999999999968,0.0041666473218812
0.7006999999999968,0.000561832578334599,0.7007099999999967,0.004166783063581199
0.7007099999999967,0.0005618742461652346,0.7007199999999967,0.004166918798223042
0.7007199999999967,0.0005619159153532167,0.7007299999999966,0.0041670545259802
0.7007299999999966,0.0005619575858984763,0.7007399999999966,0.004167190246657519
0.7007399999999966,0.0005619992578009427,0.7007499999999965,0.004167325960341734
0.7007499999999965,0.0005620409310605459,0.7007599999999965,0.004167461667043688
0.7007599999999965,0.0005620826056772162,0.7007699999999965,0.004167597366839272
0.7007699999999965,0.0005621242816508844,0.7007799999999964,0.004167733059468281
0.7007799999999964,0.0005621659589814789,0.7007899999999964,0.004167868745212606
0.7007899999999964,0.0005622076376689308,0.7007999999999963,0.004168004423855406
0.7007999999999963,0.0005622493177131692,0.7008099999999963,0.004168140095570155
0.7008099999999963,0.0005622909991141247,0.7008199999999962,0.004168275760302642
0.7008199999999962,0.0005623326818717275,0.7008299999999962,0.004168411418042025
0.7008299999999962,0.0005623743659859077,0.7008399999999961,0.004168547068679883
0.7008399999999961,0.0005624160514565943,0.7008499999999961,0.004168682712346322
0.7008499999999961,0.0005624577382837176,0.700859999999996,0.004168818349030498
0.700859999999996,0.0005624994264672077,0.700869999999996,0.004168953978754096
0.700869999999996,0.0005625411160069951,0.700879999999996,0.004169089601365329
0.700879999999996,0.0005625828069030086,0.7008899999999959,0.004169225217070194
0.7008899999999959,0.0005626244991551791,0.7008999999999959,0.004169360825695218
0.7008999999999959,0.0005626661927634358,0.7009099999999958,0.004169496427413874
0.7009099999999958,0.0005627078877277098,0.7009199999999958,0.004169632021976797
0.7009199999999958,0.0005627495840479294,0.7009299999999957,0.004169767609589983
0.7009299999999957,0.0005627912817240251,0.7009399999999957,0.004169903190264275
0.7009399999999957,0.0005628329807559275,0.7009499999999956,0.004170038763793675
0.7009499999999956,0.0005628746811435653,0.7009599999999956,0.004170174330438392
0.7009599999999956,0.0005629163828868695,0.7009699999999955,0.004170309889992426
0.7009699999999955,0.0005629580859857692,0.7009799999999955,0.004170445442564197
0.7009799999999955,0.0005629997904401946,0.7009899999999955,0.004170580988132023
0.7009899999999955,0.0005630414962500758,0.7009999999999954,0.004170716526630851
0.7009999999999954,0.0005630832034153419,0.7010099999999954,0.004170852058179943
0.7010099999999954,0.0005631249119359235,0.7010199999999953,0.004170987582670879
0.7010199999999953,0.00056316662181175,0.7010299999999953,0.004171123100136185
0.7010299999999953,0.0005632083330427512,0.7010399999999952,0.004171258610619228
0.7010399999999952,0.0005632500456288572,0.7010499999999952,0.004171394114076642
0.7010499999999952,0.0005632917595699978,0.7010599999999951,0.004171529610519267
0.7010599999999951,0.0005633334748661028,0.7010699999999951,0.004171665099871211
0.7010699999999951,0.0005633751915171013,0.701079999999995,0.00417180058228426
0.701079999999995,0.0005634169095229239,0.701089999999995,0.004171936057660837
0.701089999999995,0.0005634586288835004,0.7010999999999949,0.004172071526011785
0.7010999999999949,0.0005635003495987603,0.7011099999999949,0.004172206987315417
0.7011099999999949,0.0005635420716686333,0.7011199999999949,0.004172342441615105
0.7011199999999949,0.0005635837950930492,0.7011299999999948,0.004172477888889162
0.7011299999999948,0.0005636255198719379,0.7011399999999948,0.004172613329170115
0.7011399999999948,0.0005636672460052294,0.7011499999999947,0.004172748762371227
0.7011499999999947,0.000563708973492853,0.7011599999999947,0.004172884188568394
0.7011599999999947,0.0005637507023347385,0.7011699999999946,0.004173019607718247
0.7011699999999946,0.0005637924325308154,0.7011799999999946,0.004173155019885837
0.7011799999999946,0.0005638341640810141,0.7011899999999945,0.004173290424995272
0.7011899999999945,0.0005638758969852639,0.7011999999999945,0.004173425823089919
0.7011999999999945,0.0005639176312434946,0.7012099999999944,0.004173561214148093
0.7012099999999944,0.0005639593668556359,0.7012199999999944,0.004173696598191479
0.7012199999999944,0.0005640011038216176,0.7012299999999944,0.004173831975122499
0.7012299999999944,0.0005640428421413686,0.7012399999999943,0.004173967345157994
0.7012399999999943,0.00056408458181482,0.7012499999999943,0.004174102708016069
0.7012499999999943,0.0005641263228419,0.7012599999999942,0.00417423806403283
0.7012599999999942,0.0005641680652225401,0.7012699999999942,0.004174373412742067
0.7012699999999942,0.0005642098089566674,0.7012799999999941,0.00417450875471841
0.7012799999999941,0.0005642515540442144,0.7012899999999941,0.004174644089484807
0.7012899999999941,0.000564293300485109,0.701299999999994,0.004174779417138838
0.701299999999994,0.0005643350482792802,0.701309999999994,0.004174914737951554
0.701309999999994,0.0005643767974266595,0.7013199999999939,0.004175050051597693
0.7013199999999939,0.0005644185479271753,0.7013299999999939,0.004175185358250728
0.7013299999999939,0.0005644602997807576,0.7013399999999939,0.004175320657888976
0.7013399999999939,0.0005645020529873363,0.7013499999999938,0.004175455950436541
0.7013499999999938,0.0005645438075468405,0.7013599999999938,0.004175591235947633
0.7013599999999938,0.0005645855634591998,0.7013699999999937,0.004175726514433096
0.7013699999999937,0.0005646273207243439,0.7013799999999937,0.004175861785849561
0.7013799999999937,0.0005646690793422023,0.7013899999999936,0.004175997050381341
0.7013899999999936,0.0005647108393127059,0.7013999999999936,0.004176132307616442
0.7013999999999936,0.0005647526006357819,0.7014099999999935,0.004176267557945174
0.7014099999999935,0.0005647943633113611,0.7014199999999935,0.004176402801259118
0.7014199999999935,0.0005648361273393735,0.7014299999999934,0.004176538037504065
0.7014299999999934,0.0005648778927197484,0.7014399999999934,0.004176673266636645
0.7014399999999934,0.0005649196594524145,0.7014499999999934,0.004176808488830331
0.7014499999999934,0.0005649614275373027,0.7014599999999933,0.004176943703879124
0.7014599999999933,0.0005650031969743413,0.7014699999999933,0.004177078911891446
0.7014699999999933,0.00056504496776346,0.7014799999999932,0.004177214112899822
0.7014799999999932,0.0005650867399045888,0.7014899999999932,0.004177349306871725
0.7014899999999932,0.0005651285133976573,0.7014999999999931,0.004177484493731262
0.7014999999999931,0.0005651702882425944,0.7015099999999931,0.004177619673597695
0.7015099999999931,0.0005652120644393302,0.701519999999993,0.004177754846395131
0.701519999999993,0.000565253841987794,0.701529999999993,0.004177890012101883
0.701529999999993,0.0005652956208879148,0.7015399999999929,0.00417802517080469
0.7015399999999929,0.0005653374011396227,0.7015499999999929,0.004178160322460183
0.7015499999999929,0.0005653791827428471,0.7015599999999929,0.004178295467068361
0.7015599999999929,0.0005654209656975176,0.7015699999999928,0.004178430604499121
0.7015699999999928,0.0005654627500035624,0.7015799999999928,0.004178565735034356
0.7015799999999928,0.0005655045356609125,0.7015899999999927,0.004178700858413856
0.7015899999999927,0.0005655463226694965,0.7015999999999927,0.004178835974724357
0.7015999999999927,0.0005655881110292435,0.7016099999999926,0.004178971084128492
0.7016099999999926,0.0005656299007400846,0.7016199999999926,0.004179106186311839
0.7016199999999926,0.0005656716918019476,0.7016299999999925,0.004179241281512924
0.7016299999999925,0.0005657134842147625,0.7016399999999925,0.004179376369590802
0.7016399999999925,0.0005657552779784582,0.7016499999999924,0.004179511450664733
0.7016499999999924,0.0005657970730929647,0.7016599999999924,0.004179646524713035
0.7016599999999924,0.0005658388695582116,0.7016699999999924,0.004179781591605601
0.7016699999999924,0.0005658806673741275,0.7016799999999923,0.00417991665153759
0.7016799999999923,0.0005659224665406427,0.7016899999999923,0.004180051704259635
0.7016899999999923,0.0005659642670576851,0.7016999999999922,0.004180186750064469
0.7016999999999922,0.0005660060689251855,0.7017099999999922,0.004180321788767779
0.7017099999999922,0.000566047872143073,0.7017199999999921,0.004180456820293671
0.7017199999999921,0.0005660896767112758,0.7017299999999921,0.004180591844924037
0.7017299999999921,0.0005661314826297248,0.701739999999992,0.004180726862355301
0.701739999999992,0.0005661732898983482,0.701749999999992,0.004180861872836829
0.701749999999992,0.0005662150985170763,0.7017599999999919,0.004180996876151781
0.7017599999999919,0.0005662569084858377,0.7017699999999919,0.004181131872451943
0.7017699999999919,0.000566298719804562,0.7017799999999919,0.004181266861661425
0.7017799999999919,0.0005663405324731784,0.7017899999999918,0.004181401843736856
0.7017899999999918,0.0005663823464916156,0.7017999999999918,0.004181536818873392
0.7017999999999918,0.0005664241618598041,0.7018099999999917,0.004181671786843353
0.7018099999999917,0.0005664659785776724,0.7018199999999917,0.00418180674771179
0.7018199999999917,0.0005665077966451493,0.7018299999999916,0.004181941701673859
0.7018299999999916,0.0005665496160621659,0.7018399999999916,0.004182076648458508
0.7018399999999916,0.0005665914368286503,0.7018499999999915,0.004182211588098266
0.7018499999999915,0.0005666332589445311,0.7018599999999915,0.004182346520723236
0.7018599999999915,0.0005666750824097381,0.7018699999999914,0.004182481446333417
0.7018699999999914,0.0005667169072242012,0.7018799999999914,0.004182616364787865
0.7018799999999914,0.0005667587333878489,0.7018899999999914,0.004182751276086578
0.7018899999999914,0.0005668005609006096,0.7018999999999913,0.004182886180543976
0.7018999999999913,0.0005668423897624149,0.7019099999999913,0.004183021077715534
0.7019099999999913,0.0005668842199731918,0.7019199999999912,0.004183155967915673
0.7019199999999912,0.0005669260515328708,0.7019299999999912,0.004183290850981762
0.7019299999999912,0.0005669678844413804,0.7019399999999911,0.004183425726978851
0.7019399999999911,0.00056700971869865,0.7019499999999911,0.00418356059593947
0.7019499999999911,0.0005670515543046092,0.701959999999991,0.004183695457711828
0.701959999999991,0.0005670933912591861,0.701969999999991,0.004183830312512765
0.701969999999991,0.0005671352295623111,0.7019799999999909,0.004183965160114601
0.7019799999999909,0.000567177069213912,0.7019899999999909,0.004184100000810069
0.7019899999999909,0.0005672189102139199,0.7019999999999909,0.004184234834219698
0.7019999999999909,0.000567260752562262,0.7020099999999908,0.004184369660668748
0.7020099999999908,0.0005673025962588684,0.7020199999999908,0.004184504480048801
0.7020199999999908,0.0005673444413036687,0.7020299999999907,0.004184639292208068
0.7020299999999907,0.0005673862876965906,0.7020399999999907,0.004184774097417598
0.7020399999999907,0.0005674281354375646,0.7020499999999906,0.00418490889544971
0.7020499999999906,0.0005674699845265189,0.7020599999999906,0.004185043686456193
0.7020599999999906,0.0005675118349633833,0.7020699999999905,0.004185178470328624
0.7020699999999905,0.0005675536867480864,0.7020799999999905,0.004185313247110373
0.7020799999999905,0.0005675955398805573,0.7020899999999904,0.004185448016855651
0.7020899999999904,0.0005676373943607257,0.7020999999999904,0.00418558277942351
0.7020999999999904,0.0005676792501885197,0.7021099999999904,0.004185717534954897
0.7021099999999904,0.0005677211073638691,0.7021199999999903,0.004185852283406444
0.7021199999999903,0.000567762965886703,0.7021299999999903,0.004185987024745624
0.7021299999999903,0.0005678048257569502,0.7021399999999902,0.004186121758918228
0.7021399999999902,0.0005678466869745392,0.7021499999999902,0.004186256486130254
0.7021499999999902,0.0005678885495394003,0.7021599999999901,0.004186391206078126
0.7021599999999901,0.0005679304134514609,0.7021699999999901,0.004186525919087104
0.7021699999999901,0.0005679722787106516,0.70217999999999,0.004186660624940347
0.70217999999999,0.0005680141453169008,0.70218999999999,0.004186795323724592
0.70218999999999,0.0005680560132701379,0.7021999999999899,0.004186930015353104
0.7021999999999899,0.0005680978825702912,0.7022099999999899,0.004187064699858405
0.7022099999999899,0.0005681397532172896,0.7022199999999899,0.004187199377327236
0.7022199999999899,0.0005681816252110627,0.7022299999999898,0.004187334047705385
0.7022299999999898,0.0005682234985515395,0.7022399999999898,0.004187468710906115
0.7022399999999898,0.0005682653732386484,0.7022499999999897,0.004187603367124582
0.7022499999999897,0.0005683072492723195,0.7022599999999897,0.004187738016122264
0.7022599999999897,0.0005683491266524805,0.7022699999999896,0.004187872658029263
0.7022699999999896,0.0005683910053790606,0.7022799999999896,0.00418800729289979
0.7022799999999896,0.0005684328854519894,0.7022899999999895,0.004188141920614583
0.7022899999999895,0.0005684747668711954,0.7022999999999895,0.004188276541249536
0.7022999999999895,0.0005685166496366077,0.7023099999999894,0.00418841115470707
0.7023099999999894,0.0005685585337481545,0.7023199999999894,0.004188545761160658
0.7023199999999894,0.000568600419205766,0.7023299999999894,0.004188680360425986
0.7023299999999894,0.00056864230600937,0.7023399999999893,0.00418881495269821
0.7023399999999893,0.0005686841941588968,0.7023499999999893,0.004188949537684595
0.7023499999999893,0.0005687260836542735,0.7023599999999892,0.004189084115688718
0.7023599999999892,0.0005687679744954302,0.7023699999999892,0.004189218686558791
0.7023699999999892,0.0005688098666822956,0.7023799999999891,0.004189353250229761
0.7023799999999891,0.0005688517602147977,0.7023899999999891,0.004189487806940154
0.7023899999999891,0.0005688936550928669,0.702399999999989,0.004189622356397234
0.702399999999989,0.0005689355513164307,0.702409999999989,0.004189756898817842
0.702409999999989,0.0005689774488854187,0.7024199999999889,0.004189891434126083
0.7024199999999889,0.0005690193477997597,0.7024299999999889,0.004190025962289433
0.7024299999999889,0.0005690612480593824,0.7024399999999889,0.004190160483383784
0.7024399999999889,0.0005691031496642161,0.7024499999999888,0.004190294997224822
0.7024499999999888,0.0005691450526141881,0.7024599999999888,0.004190429504116125
