;Version, 1, 0
;/I15/VDD_kojima,;deriv(IS("/I15/VDD_kojima"))
;X, Y,;X, Y
;Re, Re,;Re, Re
;Vref, I,;Vref, Y
;xunit, A,;xunit, yunit
0.4,0.001031143008693476,0.40001,-0.001869841799405917
0.40001,0.001031124310275482,0.40002,-0.001869827475989332
0.40002,0.001031105612000722,0.4000300000000001,-0.001869813152355907
0.4000300000000001,0.001031086913869199,0.4000400000000001,-0.001869798828830902
0.4000400000000001,0.001031068215880911,0.4000500000000001,-0.001869784505067373
0.4000500000000001,0.00103104951803586,0.4000600000000001,-0.001869770181433947
0.4000600000000001,0.001031030820334046,0.4000700000000001,-0.001869755857561998
0.4000700000000001,0.00103101212277547,0.4000800000000001,-0.001869741533581628
0.4000800000000001,0.001030993425360134,0.4000900000000001,-0.001869727209687994
0.4000900000000001,0.001030974728088037,0.4001000000000001,-0.001869712885555836
0.4001000000000001,0.001030956030959182,0.4001100000000001,-0.001869698561640519
0.4001100000000001,0.001030937333973565,0.4001200000000001,-0.0018696842371831
0.4001200000000001,0.001030918637131193,0.4001300000000002,-0.001869669913137678
0.4001300000000002,0.001030899940432062,0.4001400000000002,-0.001869655588832047
0.4001400000000002,0.001030881243876174,0.4001500000000002,-0.001869641264374628
0.4001500000000002,0.00103086254746353,0.4001600000000002,-0.001869626939917209
0.4001600000000002,0.001030843851194131,0.4001700000000002,-0.001869612615308002
0.4001700000000002,0.001030825155067978,0.4001800000000002,-0.001869598290850584
0.4001800000000002,0.001030806459085069,0.4001900000000002,-0.001869583966067904
0.4001900000000002,0.001030787763245408,0.4002000000000002,-0.001869569641350277
0.4002000000000002,0.001030769067548995,0.4002100000000002,-0.001869555316589281
0.4002100000000002,0.001030750371995829,0.4002200000000002,-0.001869540991676497
0.4002200000000002,0.001030731676585912,0.4002300000000003,-0.001869526666676978
0.4002300000000003,0.001030712981319245,0.4002400000000003,-0.001869512341677458
0.4002400000000003,0.001030694286195829,0.4002500000000003,-0.001869498016612886
0.4002500000000003,0.001030675591215662,0.4002600000000003,-0.001869483691396525
0.4002600000000003,0.001030656896378748,0.4002700000000003,-0.001869469366115113
0.4002700000000003,0.001030638201685087,0.4002800000000003,-0.001869455040877069
0.4002800000000003,0.001030619507134678,0.4002900000000003,-0.0018694407154005
0.4002900000000003,0.001030600812727524,0.4003000000000003,-0.001869426390075719
0.4003000000000003,0.001030582118463624,0.4003100000000003,-0.001869412064577466
0.4003100000000003,0.001030563424342978,0.4003200000000003,-0.001869397738949109
0.4003200000000003,0.001030544730365588,0.4003300000000004,-0.001869383413212332
0.4003300000000004,0.001030526036531456,0.4003400000000004,-0.001869369087540606
0.4003400000000004,0.001030507342840581,0.4003500000000004,-0.001869354761673725
0.4003500000000004,0.001030488649292964,0.4003600000000004,-0.001869340435893579
0.4003600000000004,0.001030469955888605,0.4003700000000004,-0.001869326109853225
0.4003700000000004,0.001030451262627506,0.4003800000000004,-0.001869311783942976
0.4003800000000004,0.001030432569509667,0.4003900000000004,-0.001869297457794201
0.4003900000000004,0.001030413876535089,0.4004000000000004,-0.001869283131667111
0.4004000000000004,0.001030395183703772,0.4004100000000004,-0.001869268805388233
0.4004100000000004,0.001030376491015718,0.4004200000000004,-0.001869254479131038
0.4004200000000004,0.001030357798470927,0.4004300000000005,-0.001869240152700372
0.4004300000000005,0.0010303391060694,0.4004400000000005,-0.001869225826356441
0.4004400000000005,0.001030320413811137,0.4004500000000005,-0.001869211499708934
0.4004500000000005,0.001030301721696139,0.4004600000000005,-0.001869197173321635
0.4004600000000005,0.001030283029724406,0.4004700000000005,-0.00186918284663076
0.4004700000000005,0.00103026433789594,0.4004800000000005,-0.001869168519723044
0.4004800000000005,0.001030245646210743,0.4004900000000005,-0.001869154193097221
0.4004900000000005,0.001030226954668812,0.4005000000000005,-0.001869139866211189
0.4005000000000005,0.00103020826327015,0.4005100000000005,-0.001869125539238421
0.4005100000000005,0.001030189572014757,0.4005200000000005,-0.001869111212287337
0.4005200000000005,0.001030170880902634,0.4005300000000006,-0.001869096885184465
0.4005300000000006,0.001030152189933782,0.4005400000000006,-0.001869082558016541
0.4005400000000006,0.001030133499108202,0.4005500000000006,-0.001869068230848617
0.4005500000000006,0.001030114808425894,0.4005600000000006,-0.00186905390350722
0.4005600000000006,0.001030096117886859,0.4005700000000006,-0.00186903957614414
0.4005700000000006,0.001030077427491097,0.4005800000000006,-0.001869025248759375
0.4005800000000006,0.001030058737238609,0.4005900000000006,-0.001869010921309558
0.4005900000000006,0.001030040047129396,0.4006000000000006,-0.001868996593664585
0.4006000000000006,0.00103002135716346,0.4006100000000006,-0.00186898226606298
0.4006100000000006,0.001030002667340799,0.4006200000000006,-0.00186896793833127
0.4006200000000006,0.001029983977661416,0.4006300000000007,-0.001868953610534509
0.4006300000000007,0.00102996528812531,0.4006400000000007,-0.001868939282759431
0.4006400000000007,0.001029946598732483,0.4006500000000007,-0.001868924954724145
0.4006500000000007,0.001029927909482936,0.4006600000000007,-0.00186891062679728
0.4006600000000007,0.001029909220376668,0.4006700000000007,-0.001868896298696941
0.4006700000000007,0.001029890531413681,0.4006800000000007,-0.001868881970618288
0.4006800000000007,0.001029871842593974,0.4006900000000007,-0.001868867642387845
0.4006900000000007,0.00102985315391755,0.4007000000000007,-0.001868853314048983
0.4007000000000007,0.00102983446538441,0.4007100000000007,-0.001868838985861908
0.4007100000000007,0.001029815776994551,0.4007200000000007,-0.001868824657327889
0.4007200000000007,0.001029797088747978,0.4007300000000008,-0.001868810328858922
0.4007300000000008,0.001029778400644689,0.4007400000000008,-0.001868796000324903
0.4007400000000008,0.001029759712684686,0.4007500000000008,-0.00186878167166078
0.4007500000000008,0.001029741024867969,0.4007600000000008,-0.001868767342953289
0.4007600000000008,0.00102972233719454,0.4007700000000008,-0.001868753014267481
0.4007700000000008,0.001029703649664397,0.4007800000000008,-0.001868738685364834
0.4007800000000008,0.001029684962277544,0.4007900000000008,-0.001868724356462186
0.4007900000000008,0.001029666275033979,0.4008000000000008,-0.001868710027451118
0.4008000000000008,0.001029647587933704,0.4008100000000008,-0.001868695698396682
0.4008100000000008,0.00102962890097672,0.4008200000000008,-0.001868681369342246
0.4008200000000008,0.001029610214163027,0.4008300000000009,-0.00186866704017939
0.4008300000000009,0.001029591527492625,0.4008400000000009,-0.001868652710756325
0.4008400000000009,0.001029572840965518,0.4008500000000009,-0.001868638381571785
0.4008500000000009,0.001029554154581702,0.4008600000000009,-0.001868624052105352
0.4008600000000009,0.001029535468341181,0.4008700000000009,-0.001868609722682287
0.4008700000000009,0.001029516782243954,0.4008800000000009,-0.001868595392999014
0.4008800000000009,0.001029498096290024,0.4008900000000009,-0.001868581063554265
0.4008900000000009,0.001029479410479388,0.4009000000000009,-0.001868566733697519
0.4009000000000009,0.001029460724812051,0.4009100000000009,-0.001868552404122666
0.4009100000000009,0.00102944203928801,0.4009200000000009,-0.001868538074135816
0.4009200000000009,0.001029423353907269,0.400930000000001,-0.001868523744344123
0.400930000000001,0.001029404668669825,0.400940000000001,-0.001868509414335589
0.400940000000001,0.001029385983575682,0.400950000000001,-0.001868495084327055
0.400950000000001,0.001029367298624839,0.400960000000001,-0.001868480754166733
0.400960000000001,0.001029348613817297,0.400970000000001,-0.001868466423963042
0.400970000000001,0.001029329929153057,0.400980000000001,-0.0018684520936943
0.400980000000001,0.00102931124463212,0.400990000000001,-0.001868437763555662
0.400990000000001,0.001029292560254485,0.401000000000001,-0.001868423432918291
0.401000000000001,0.001029273876020156,0.401010000000001,-0.00186840910260618
0.401010000000001,0.001029255191929129,0.401020000000001,-0.001868394772012177
0.401020000000001,0.001029236507981409,0.4010300000000011,-0.001868380441483226
0.4010300000000011,0.001029217824176994,0.4010400000000011,-0.001868366110824171
0.4010400000000011,0.001029199140515886,0.4010500000000011,-0.001868351779948275
0.4010500000000011,0.001029180456998087,0.4010600000000011,-0.001868337449137431
0.4010600000000011,0.001029161773623595,0.4010700000000011,-0.001868323118456692
0.4010700000000011,0.001029143090392411,0.4010800000000011,-0.001868308787233852
0.4010800000000011,0.001029124407304538,0.4010900000000011,-0.001868294456292904
0.4010900000000011,0.001029105724359975,0.4011000000000011,-0.001868280125286904
0.4011000000000011,0.001029087041558723,0.4011100000000011,-0.001868265793977327
0.4011100000000011,0.001029068358900783,0.4011200000000011,-0.001868251462862907
0.4011200000000011,0.001029049676386154,0.4011300000000012,-0.001868237131444911
0.4011300000000012,0.00102903099401484,0.4011400000000012,-0.001868222800157018
0.4011400000000012,0.001029012311786838,0.4011500000000012,-0.001868208468695653
0.4011500000000012,0.001028993629702151,0.4011600000000012,-0.001868194137039132
0.4011600000000012,0.001028974947760781,0.4011700000000012,-0.001868179805686187
0.4011700000000012,0.001028956265962724,0.4011800000000012,-0.001868165473856194
0.4011800000000012,0.001028937584307985,0.4011900000000012,-0.001868151142156304
0.4011900000000012,0.001028918902796564,0.4012000000000012,-0.001868136810282943
0.4012000000000012,0.001028900221428461,0.4012100000000012,-0.001868122478474633
0.4012100000000012,0.001028881540203676,0.4012200000000012,-0.001868108146514535
0.4012200000000012,0.001028862859122211,0.4012300000000013,-0.001868093814532753
0.4012300000000013,0.001028844178184065,0.4012400000000013,-0.001868079482312447
0.4012400000000013,0.001028825497389242,0.4012500000000013,-0.001868065150352349
0.4012500000000013,0.001028806816737739,0.4012600000000013,-0.00186805081806699
0.4012600000000013,0.001028788136229558,0.4012700000000013,-0.001868036485629844
0.4012700000000013,0.001028769455864702,0.4012800000000013,-0.001868022153496274
0.4012800000000013,0.001028750775643167,0.4012900000000013,-0.001868007820842286
0.4012900000000013,0.001028732095564958,0.4013000000000013,-0.001867993488361771
0.4013000000000013,0.001028713415630075,0.4013100000000013,-0.001867979155881257
0.4013100000000013,0.001028694735838516,0.4013200000000013,-0.001867964823140533
0.4013200000000013,0.001028676056190284,0.4013300000000014,-0.001867950490464862
0.4013300000000014,0.00102865737668538,0.4013400000000014,-0.001867936157637402
0.4013400000000014,0.001028638697323803,0.4013500000000014,-0.001867921824723206
0.4013500000000014,0.001028620018105556,0.4013600000000014,-0.001867907491939115
0.4013600000000014,0.001028601339030637,0.4013700000000014,-0.001867893158743027
0.4013700000000014,0.001028582660099049,0.4013800000000014,-0.001867878825893883
0.4013800000000014,0.00102856398131079,0.4013900000000014,-0.001867864492546006
0.4013900000000014,0.001028545302665865,0.4014000000000014,-0.001867850159349918
0.4014000000000014,0.001028526624164271,0.4014100000000014,-0.001867835826197198
0.4014100000000014,0.001028507945806009,0.4014200000000014,-0.001867821492784269
0.4014200000000014,0.001028489267591082,0.4014300000000015,-0.001867807159306288
0.4014300000000015,0.001028470589519488,0.4014400000000015,-0.001867792825871675
0.4014400000000015,0.00102845191159123,0.4014500000000015,-0.001867778492111802
0.4014500000000015,0.001028433233806309,0.4014600000000015,-0.001867764158655505
0.4014600000000015,0.001028414556164722,0.4014700000000015,-0.001867749824960684
0.4014700000000015,0.001028395878666472,0.4014800000000015,-0.001867735491027338
0.4014800000000015,0.001028377201311562,0.4014900000000015,-0.00186772115724578
0.4014900000000015,0.00102835852409999,0.4015000000000015,-0.001867706823442539
0.4015000000000015,0.001028339847031755,0.4015100000000015,-0.001867692489292353
0.4015100000000015,0.001028321170106862,0.4015200000000015,-0.001867678155315639
0.4015200000000015,0.001028302493325309,0.4015300000000016,-0.001867663821165452
0.4015300000000016,0.001028283816687097,0.4015400000000016,-0.001867649486971898
0.4015400000000016,0.001028265140192228,0.4015500000000016,-0.001867635152604871
0.4015500000000016,0.001028246463840702,0.4015600000000016,-0.001867620818259529
0.4015600000000016,0.001028227787632519,0.4015700000000016,-0.00186760648393587
0.4015700000000016,0.00102820911156768,0.4015800000000016,-0.001867592149395371
0.4015800000000016,0.001028190435646186,0.4015900000000016,-0.001867577814854872
0.4015900000000016,0.001028171759868037,0.4016000000000016,-0.001867563480227637
0.4016000000000016,0.001028153084233235,0.4016100000000016,-0.001867549145448613
0.4016100000000016,0.00102813440874178,0.4016200000000016,-0.001867534810756326
0.4016200000000016,0.001028115733393673,0.4016300000000017,-0.001867520475955619
0.4016300000000017,0.001028097058188913,0.4016400000000017,-0.001867506141068175
0.4016400000000017,0.001028078383127502,0.4016500000000017,-0.001867491805920523
0.4016500000000017,0.001028059708209443,0.4016600000000017,-0.001867477470924659
0.4016600000000017,0.001028041033434734,0.4016700000000017,-0.001867463135842059
0.4016700000000017,0.001028022358803375,0.4016800000000017,-0.00186744880071609
0.4016800000000017,0.001028003684315368,0.4016900000000017,-0.001867434465264861
0.4016900000000017,0.001027985009970716,0.4017000000000017,-0.001867420130030473
0.4017000000000017,0.001027966335769415,0.4017100000000017,-0.00186740579466598
0.4017100000000017,0.001027947661711469,0.4017200000000017,-0.001867391459084647
0.4017200000000017,0.001027928987796878,0.4017300000000018,-0.001867377123568366
0.4017300000000018,0.001027910314025642,0.4017400000000018,-0.001867362788030401
0.4017400000000018,0.001027891640397762,0.4017500000000018,-0.001867348452253912
0.4017500000000018,0.001027872966913239,0.4017600000000018,-0.001867334116607527
0.4017600000000018,0.001027854293572073,0.4017700000000018,-0.001867319780679249
0.4017700000000018,0.001027835620374266,0.4017800000000018,-0.001867305444772655
0.4017800000000018,0.001027816947319818,0.4017900000000018,-0.001867291108801009
0.4017900000000018,0.00102779827440873,0.4018000000000018,-0.001867276772742627
0.4018000000000018,0.001027779601641003,0.4018100000000018,-0.001867262436705929
0.4018100000000018,0.001027760929016636,0.4018200000000018,-0.001867248100517443
0.4018200000000018,0.001027742256535631,0.4018300000000019,-0.001867233764198852
0.4018300000000019,0.001027723584197989,0.4018400000000019,-0.001867219427880261
0.4018400000000019,0.00102770491200371,0.4018500000000019,-0.001867205091474935
0.4018500000000019,0.001027686239952795,0.4018600000000019,-0.001867190755069608
0.4018600000000019,0.001027667568045244,0.4018700000000019,-0.001867176418577545
0.4018700000000019,0.001027648896281059,0.4018800000000019,-0.001867162081868642
0.4018800000000019,0.00102763022466024,0.4018900000000019,-0.001867147745181422
0.4018900000000019,0.001027611553182788,0.4019000000000019,-0.001867133408429151
0.4019000000000019,0.001027592881848704,0.4019100000000019,-0.001867119071676879
0.4019100000000019,0.001027574210657987,0.4019200000000019,-0.00186710473477282
0.4019200000000019,0.001027555539610639,0.401930000000002,-0.001867090397738656
0.401930000000002,0.001027536868706662,0.401940000000002,-0.00186707606074786
0.401940000000002,0.001027518197946054,0.401950000000002,-0.001867061723778748
0.401950000000002,0.001027499527328817,0.401960000000002,-0.001867047386419323
0.401960000000002,0.001027480856854952,0.401970000000002,-0.001867033049255055
0.401970000000002,0.00102746218652446,0.401980000000002,-0.001867018711917314
0.401980000000002,0.001027443516337341,0.401990000000002,-0.001867004374622942
0.401990000000002,0.001027424846293594,0.402000000000002,-0.001866990037068361
0.402000000000002,0.001027406176393224,0.402010000000002,-0.001866975699535464
0.402010000000002,0.001027387506636228,0.402020000000002,-0.001866961361980882
0.402020000000002,0.001027368837022608,0.4020300000000021,-0.001866947024274513
0.4020300000000021,0.001027350167552366,0.4020400000000021,-0.001866932686524776
0.4020400000000021,0.0010273314982255,0.4020500000000021,-0.001866918348796722
0.4020500000000021,0.001027312829042012,0.4020600000000021,-0.001866904010830144
0.4020600000000021,0.001027294160001904,0.4020700000000021,-0.001866889673037039
0.4020700000000021,0.001027275491105174,0.4020800000000021,-0.001866875334853621
0.4020800000000021,0.001027256822351825,0.4020900000000021,-0.001866860996691886
0.4020900000000021,0.001027238153741858,0.4021000000000021,-0.001866846658746992
0.4021000000000021,0.001027219485275271,0.4021100000000021,-0.00186683232043347
0.4021100000000021,0.001027200816952066,0.4021200000000021,-0.001866817982098263
0.4021200000000021,0.001027182148772245,0.4021300000000022,-0.001866803643719688
0.4021300000000022,0.001027163480735808,0.4021400000000022,-0.00186678930531943
0.4021400000000022,0.001027144812842755,0.4021500000000022,-0.001866774966767383
0.4021500000000022,0.001027126145093087,0.4021600000000022,-0.001866760628280388
0.4021600000000022,0.001027107477486804,0.4021700000000022,-0.001866746289359712
0.4021700000000022,0.001027088810023911,0.4021800000000022,-0.001866731950937769
0.4021800000000022,0.001027070142704401,0.4021900000000022,-0.001866717612038777
0.4021900000000022,0.001027051475528281,0.4022000000000022,-0.001866703273118102
0.4022000000000022,0.00102703280849555,0.4022100000000022,-0.001866688934262478
0.4022100000000022,0.001027014141606207,0.4022200000000022,-0.00186667459516833
0.4022200000000022,0.001026995474860255,0.4022300000000023,-0.001866660256095866
0.4022300000000023,0.001026976808257694,0.4022400000000023,-0.001866645917001718
0.4022400000000023,0.001026958141798524,0.4022500000000023,-0.001866631577712413
0.4022500000000023,0.001026939475482747,0.4022600000000023,-0.001866617238488161
0.4022600000000023,0.001026920809310362,0.4022700000000023,-0.001866602899047068
0.4022700000000023,0.001026902143281372,0.4022800000000023,-0.001866588559714395
0.4022800000000023,0.001026883477395775,0.4022900000000023,-0.00186657422009983
0.4022900000000023,0.001026864811653574,0.4023000000000023,-0.001866559880637053
0.4023000000000023,0.001026846146054767,0.4023100000000023,-0.00186654554097912
0.4023100000000023,0.001026827480599358,0.4023200000000023,-0.00186653120123445
0.4023200000000023,0.001026808815287345,0.4023300000000024,-0.00186651686138136
0.4023300000000024,0.001026790150118731,0.4023400000000024,-0.001866502521571639
0.4023400000000024,0.001026771485093516,0.4023500000000024,-0.001866488181696865
0.4023500000000024,0.001026752820211699,0.4023600000000024,-0.001866473841605251
0.4023600000000024,0.001026734155473283,0.4023700000000024,-0.001866459501557005
0.4023700000000024,0.001026715490878267,0.4023800000000024,-0.001866445161487075
0.4023800000000024,0.001026696826426652,0.4023900000000024,-0.001866430821243673
0.4023900000000024,0.00102667816211844,0.4024000000000024,-0.001866416481021954
0.4024000000000024,0.001026659497953629,0.4024100000000024,-0.001866402140496659
0.4024100000000024,0.001026640833932224,0.4024200000000024,-0.001866387800253257
0.4024200000000024,0.001026622170054222,0.4024300000000025,-0.001866373459706278
0.4024300000000025,0.001026603506319625,0.4024400000000025,-0.00186635911900751
0.4024400000000025,0.001026584842728435,0.4024500000000025,-0.001866344778568951
0.4024500000000025,0.001026566179280649,0.4024600000000025,-0.001866330437761764
0.4024600000000025,0.001026547515976271,0.4024700000000025,-0.001866316097019628
