;Version, 1, 0
;IS("/I1/Vbs"),;deriv(IS("/I1/Vbs"))
;X, Y,;X, Y
;Re, Re,;Re, Re
;Vref, I,;Vref, Y
;xunit, A,;xunit, yunit
0.7,0.0003353831810296046,0.7000099999999999,0.003071468453048478
0.7000099999999999,0.0003354138957141349,0.7000199999999999,0.003071613735321019
0.7000199999999999,0.000335444611851488,0.7000299999999998,0.003071759425096368
0.7000299999999998,0.0003354753294457388,0.7000399999999998,0.003071905110263857
0.7000399999999998,0.0003355060484968413,0.7000499999999997,0.003072050790709646
0.7000499999999997,0.0003355367690047483,0.7000599999999997,0.00307219646652047
0.7000599999999997,0.0003355674909694133,0.7000699999999996,0.003072342137669226
0.7000699999999996,0.0003355982143907899,0.7000799999999996,0.003072487804107123
0.7000799999999996,0.0003356289392688308,0.7000899999999995,0.003072633465953423
0.7000899999999995,0.0003356596656034902,0.7000999999999995,0.00307277912305634
0.7000999999999995,0.0003356903933947206,0.7001099999999995,0.003072924775475502
0.7001099999999995,0.0003357211226424753,0.7001199999999994,0.003073070423281385
0.7001199999999994,0.0003357518533467079,0.7001299999999994,0.003073216066398093
0.7001299999999994,0.0003357825855073718,0.7001399999999993,0.003073361704765996
0.7001399999999993,0.0003358133191244193,0.7001499999999993,0.003073507338563986
0.7001499999999993,0.0003358440541978048,0.7001599999999992,0.003073652967651118
0.7001599999999992,0.0003358747907274812,0.7001699999999992,0.003073798592016549
0.7001699999999992,0.0003359055287134012,0.7001799999999991,0.00307394421176328
0.7001799999999991,0.0003359362681555187,0.7001899999999991,0.003074089826777468
0.7001899999999991,0.0003359670090537863,0.700199999999999,0.00307423543720548
0.700199999999999,0.0003359977514081582,0.700209999999999,0.003074381042879266
0.700209999999999,0.0003360284952185869,0.700219999999999,0.003074526643815089
0.700219999999999,0.0003360592404850249,0.7002299999999989,0.003074672240229788
0.7002299999999989,0.0003360899872074271,0.7002399999999989,0.003074817831825209
0.7002399999999989,0.0003361207353857452,0.7002499999999988,0.003074963418829034
0.7002499999999988,0.0003361514850199333,0.7002599999999988,0.003075109001105737
0.7002599999999988,0.0003361822361099442,0.7002699999999987,0.003075254578709529
0.7002699999999987,0.0003362129886557312,0.7002799999999987,0.003075400151667515
0.7002799999999987,0.0003362437426572477,0.7002899999999986,0.003075545719838748
0.7002899999999986,0.000336274498114446,0.7002999999999986,0.003075691283429226
0.7002999999999986,0.0003363052550272801,0.7003099999999985,0.0030758368422709
0.7003099999999985,0.0003363360133957027,0.7003199999999985,0.003075982396493872
0.7003199999999985,0.0003363667732196675,0.7003299999999985,0.00307612794592467
0.7003299999999985,0.0003363975344991266,0.7003399999999984,0.003076273490812661
0.7003399999999984,0.0003364282972340346,0.7003499999999984,0.003076419030886795
0.7003499999999984,0.0003364590614243433,0.7003599999999983,0.003076564566353069
0.7003599999999983,0.0003364898270700067,0.7003699999999983,0.003076710097065118
0.7003699999999983,0.0003365205941709772,0.7003799999999982,0.003076855623163885
0.7003799999999982,0.0003365513627272087,0.7003899999999982,0.003077001144459637
0.7003899999999982,0.0003365821327386532,0.7003999999999981,0.003077146661212582
0.7003999999999981,0.0003366129042052652,0.7004099999999981,0.003077292173178774
0.7004099999999981,0.0003366436771269968,0.700419999999998,0.003077437680461213
0.700419999999998,0.0003366744515038013,0.700429999999998,0.003077583183059899
0.700429999999998,0.0003367052273356317,0.700439999999998,0.003077728680980252
0.700439999999998,0.0003367360046224414,0.7004499999999979,0.003077874174178905
0.7004499999999979,0.000336766783364183,0.7004599999999979,0.003078019662742593
0.7004599999999979,0.0003367975635608103,0.7004699999999978,0.003078165146541213
0.7004699999999978,0.0003368283452122756,0.7004799999999978,0.003078310625645238
0.7004799999999978,0.0003368591283185319,0.7004899999999977,0.003078456100157666
0.7004899999999977,0.0003368899128795334,0.7004999999999977,0.003078601569823711
0.7004999999999977,0.0003369206988952314,0.7005099999999976,0.003078747034941527
0.7005099999999976,0.0003369514863655807,0.7005199999999976,0.003078892495223802
0.7005199999999976,0.0003369822752905328,0.7005299999999975,0.003079037950892796
0.7005299999999975,0.0003370130656700416,0.7005399999999975,0.003079183401850932
0.7005399999999975,0.00033704385750406,0.7005499999999975,0.003079328848071105
0.7005499999999975,0.0003370746507925405,0.7005599999999974,0.003079474289645471
0.7005599999999974,0.0003371054455354369,0.7005699999999974,0.003079619726471032
0.7005699999999974,0.0003371362417327014,0.7005799999999973,0.003079765158639944
0.7005799999999973,0.0003371670393842877,0.7005899999999973,0.00307991058610884
0.7005899999999973,0.0003371978384901486,0.7005999999999972,0.003080056008790984
0.7005999999999972,0.0003372286390502364,0.7006099999999972,0.003080201426886952
0.7006099999999972,0.0003372594410645051,0.7006199999999971,0.003080346840196168
0.7006199999999971,0.000337290244532907,0.7006299999999971,0.003080492248816209
0.7006299999999971,0.000337321049455395,0.700639999999997,0.003080637652790444
0.700639999999997,0.0003373518558319227,0.700649999999997,0.003080783051967084
0.700649999999997,0.0003373826636624423,0.700659999999997,0.003080928446481655
0.700659999999997,0.000337413472946907,0.7006699999999969,0.003081073836317894
0.7006699999999969,0.00033744428368527,0.7006799999999969,0.003081219221416169
0.7006799999999969,0.000337475095877484,0.7006899999999968,0.00308136460177106
0.7006899999999968,0.0003375059095235016,0.7006999999999968,0.003081509977496407
0.7006999999999968,0.0003375367246232764,0.7007099999999967,0.003081655348429581
0.7007099999999967,0.0003375675411767606,0.7007199999999967,0.003081800714733211
0.7007199999999967,0.0003375983591839078,0.7007299999999966,0.003081946076228405
0.7007299999999966,0.0003376291786446699,0.7007399999999966,0.003082091433153686
0.7007399999999966,0.0003376599995590013,0.7007499999999965,0.003082236785243427
0.7007499999999965,0.0003376908219268536,0.7007599999999965,0.003082382132660255
0.7007599999999965,0.0003377216457481801,0.7007699999999965,0.003082527475377067
0.7007699999999965,0.0003377524710229337,0.7007799999999964,0.003082672813393863
0.7007799999999964,0.0003377832977510675,0.7007899999999964,0.003082818146618485
0.7007899999999964,0.0003378141259325335,0.7007999999999963,0.003082963475202722
0.7007999999999963,0.0003378449555672854,0.7008099999999963,0.003083108799059838
0.7008099999999963,0.0003378757866552759,0.7008199999999962,0.003083254118260305
0.7008199999999962,0.0003379066191964583,0.7008299999999962,0.00308339943257102
0.7008299999999962,0.0003379374531907839,0.7008399999999961,0.003083544742300981
0.7008399999999961,0.0003379682886382068,0.7008499999999961,0.003083690047282137
0.7008499999999961,0.0003379991255386795,0.700859999999996,0.00308383534758496
0.700859999999996,0.0003380299638921552,0.700869999999996,0.003083980643095609
0.700869999999996,0.000338060803698586,0.700879999999996,0.003084125933938769
0.700879999999996,0.0003380916449579252,0.7008899999999959,0.003084271220000596
0.7008899999999959,0.0003381224876701251,0.7008999999999959,0.003084416501438302
0.7008999999999959,0.0003381533318351393,0.7009099999999958,0.003084561778056728
0.7009099999999958,0.0003381841774529198,0.7009199999999958,0.003084707050061875
0.7009199999999958,0.0003382150245234202,0.7009299999999957,0.00308485231723148
0.7009299999999957,0.0003382458730465924,0.7009399999999957,0.003084997579717331
0.7009399999999957,0.0003382767230223894,0.7009499999999956,0.003085142837465219
0.7009499999999956,0.000338307574450764,0.7009599999999956,0.003085288090556459
0.7009599999999956,0.0003383384273316694,0.7009699999999955,0.003085433338850104
0.7009699999999955,0.0003383692816650577,0.7009799999999955,0.003085578582503364
0.7009799999999955,0.0003384001374508826,0.7009899999999955,0.00308572382131566
0.7009899999999955,0.0003384309946890957,0.7009999999999954,0.003085869055498414
0.7009999999999954,0.0003384618533796505,0.7010099999999954,0.003086014284851047
0.7010099999999954,0.0003384927135224989,0.7010199999999953,0.003086159509574137
0.7010199999999953,0.0003385235751175945,0.7010299999999953,0.003086304729510474
0.7010299999999953,0.0003385544381648894,0.7010399999999952,0.003086449944779321
0.7010399999999952,0.0003385853026643371,0.7010499999999952,0.003086595155239731
0.7010499999999952,0.0003386161686158893,0.7010599999999951,0.00308674036102723
0.7010599999999951,0.0003386470360194995,0.7010699999999951,0.003086885562082187
0.7010699999999951,0.0003386779048751202,0.701079999999995,0.003087030758377495
0.701079999999995,0.0003387087751827038,0.701089999999995,0.003087175949989051
0.701089999999995,0.0003387396469422035,0.7010999999999949,0.003087321136737959
0.7010999999999949,0.0003387705201535708,0.7011099999999949,0.003087466318900693
0.7011099999999949,0.0003388013948167596,0.7011199999999949,0.00308761149626041
0.7011199999999949,0.0003388322709317221,0.7011299999999948,0.00308775666890927
0.7011299999999948,0.0003388631484984111,0.7011399999999948,0.003087901836771377
0.7011399999999948,0.0003388940275167786,0.7011499999999947,0.003088046999976835
0.7011499999999947,0.0003389249079867783,0.7011599999999947,0.00308819215839012
0.7011599999999947,0.000338955789908362,0.7011699999999946,0.003088337312081705
0.7011699999999946,0.0003389866732814827,0.7011799999999946,0.003088482461035325
0.7011799999999946,0.0003390175581060929,0.7011899999999945,0.00308862760523472
0.7011899999999945,0.0003390484443821451,0.7011999999999945,0.003088772744739519
0.7011999999999945,0.0003390793321095924,0.7012099999999944,0.003088917879473828
0.7012099999999944,0.000339110221288387,0.7012199999999944,0.003089063009453911
0.7012199999999944,0.0003391411119184814,0.7012299999999944,0.003089208134717715
0.7012299999999944,0.0003391720039998284,0.7012399999999943,0.003089353255243555
0.7012399999999943,0.0003392028975323807,0.7012499999999943,0.003089498370993484
0.7012499999999943,0.0003392337925160905,0.7012599999999942,0.003089643482032555
0.7012599999999942,0.0003392646889509107,0.7012699999999942,0.0030897885883174
0.7012699999999942,0.0003392955868367937,0.7012799999999941,0.003089933689853439
0.7012799999999941,0.0003393264861736921,0.7012899999999941,0.003090078786656935
0.7012899999999941,0.0003393573869615585,0.701299999999994,0.003090223878695363
0.701299999999994,0.0003393882892003453,0.701309999999994,0.003090368965974143
0.701309999999994,0.000339419192890005,0.7013199999999939,0.00309051404856917
0.7013199999999939,0.0003394500980304905,0.7013299999999939,0.00309065912640455
0.7013299999999939,0.0003394810046217544,0.7013399999999939,0.003090804199431493
0.7013399999999939,0.0003395119126637486,0.7013499999999938,0.003090949267774682
0.7013499999999938,0.0003395428221564262,0.7013599999999938,0.003091094331314856
0.7013599999999938,0.0003395737330997392,0.7013699999999937,0.003091239390165855
0.7013699999999937,0.0003396046454936407,0.7013799999999937,0.003091384444213839
0.7013799999999937,0.0003396355593380827,0.7013899999999936,0.003091529493540122
0.7013899999999936,0.000339666474633018,0.7013999999999936,0.003091674538112179
0.7013999999999936,0.000339697391378399,0.7014099999999935,0.003091819577870378
0.7014099999999935,0.0003397283095741775,0.7014199999999935,0.003091964612993613
0.7014199999999935,0.0003397592292203073,0.7014299999999934,0.003092109643275885
0.7014299999999934,0.0003397901503167399,0.7014399999999934,0.003092254668825615
0.7014399999999934,0.000339821072863428,0.7014499999999934,0.003092399689653644
0.7014499999999934,0.0003398519968603244,0.7014599999999933,0.003092544705673236
0.7014599999999933,0.000339882922307381,0.7014699999999933,0.003092689716987392
0.7014699999999933,0.0003399138492045508,0.7014799999999932,0.003092834723466005
0.7014799999999932,0.0003399447775517853,0.7014899999999932,0.003092979725309654
0.7014899999999932,0.0003399757073490382,0.7014999999999931,0.003093124722301499
0.7014999999999931,0.0003400066385962611,0.7015099999999931,0.00309326971455538
0.7015099999999931,0.0003400375712934065,0.701519999999993,0.003093414702065876
0.701519999999993,0.000340068505440427,0.701529999999993,0.003093559684762515
0.701529999999993,0.0003400994410372745,0.7015399999999929,0.003093704662818768
0.7015399999999929,0.0003401303780839026,0.7015499999999929,0.003093849636028638
0.7015499999999929,0.0003401613165802627,0.7015599999999929,0.003093994604457176
0.7015599999999929,0.0003401922565263072,0.7015699999999928,0.003094139568191119
0.7015699999999928,0.0003402231979219889,0.7015799999999928,0.003094284527084099
0.7015799999999928,0.0003402541407672596,0.7015899999999927,0.003094429481282484
0.7015899999999927,0.0003402850850620723,0.7015999999999927,0.003094574430721221
0.7015999999999927,0.0003403160308063794,0.7016099999999926,0.003094719375373206
0.7016099999999926,0.000340346978000133,0.7016199999999926,0.003094864315157122
0.7016199999999926,0.0003403779266432844,0.7016299999999925,0.003095009250371127
0.7016299999999925,0.000340408876735788,0.7016399999999925,0.003095154180727906
0.7016399999999925,0.0003404398282775951,0.7016499999999924,0.003095299106243722
0.7016499999999924,0.0003404707812686574,0.7016599999999924,0.00309544402710289
0.7016599999999924,0.0003405017357089283,0.7016699999999924,0.003095588943186147
0.7016699999999924,0.00034053269159836,0.7016799999999923,0.0030957338544176
0.7016799999999923,0.000340563648936904,0.7016899999999923,0.003095878760905668
0.7016899999999923,0.000340594607724513,0.7016999999999922,0.003096023662715404
0.7016999999999922,0.00034062556796114,0.7017099999999922,0.003096168559684177
0.7017099999999922,0.0003406565296467367,0.7017199999999921,0.003096313451811987
0.7017199999999921,0.0003406874927812547,0.7017299999999921,0.003096458339315675
0.7017299999999921,0.0003407184573646477,0.701739999999992,0.003096603221956717
0.701739999999992,0.0003407494233968671,0.701749999999992,0.003096748099800163
0.701749999999992,0.000340780390877865,0.7017599999999919,0.003096892972949015
0.7017599999999919,0.0003408113598075943,0.7017699999999919,0.003097037841305692
0.7017699999999919,0.0003408423301860072,0.7017799999999919,0.003097182704815986
0.7017799999999919,0.0003408733020130552,0.7017899999999918,0.003097327563626264
0.7017899999999918,0.0003409042752886914,0.7017999999999918,0.003097472417687736
0.7017999999999918,0.0003409352500128681,0.7018099999999917,0.003097617266848614
0.7018099999999917,0.0003409662261855364,0.7018199999999917,0.003097762111369107
0.7018199999999917,0.00034099720380665,0.7018299999999916,0.00309790695101069
0.7018299999999916,0.00034102818287616,0.7018399999999916,0.003098051785941415
0.7018399999999916,0.0003410591633940192,0.7018499999999915,0.003098196616063703
0.7018499999999915,0.0003410901453601797,0.7018599999999915,0.003098341441372133
0.7018599999999915,0.0003411211287745933,0.7018699999999914,0.003098486261991389
0.7018699999999914,0.0003411521136372131,0.7018799999999914,0.003098631077715473
0.7018799999999914,0.0003411830999479901,0.7018899999999914,0.003098775888793749
0.7018899999999914,0.0003412140877068779,0.7018999999999913,0.003098920694993117
0.7018999999999913,0.0003412450769138277,0.7019099999999913,0.003099065496373205
0.7019099999999913,0.0003412760675687913,0.7019199999999912,0.003099210293107487
0.7019199999999912,0.0003413070596717222,0.7019299999999912,0.003099355084941175
0.7019299999999912,0.0003413380532225715,0.7019399999999911,0.003099499872026058
0.7019399999999911,0.0003413690482212916,0.7019499999999911,0.003099644654307926
0.7019499999999911,0.0003414000446678345,0.701959999999991,0.003099789431873513
0.701959999999991,0.0003414310425621531,0.701969999999991,0.003099934204587297
0.701969999999991,0.0003414620419041989,0.7019799999999909,0.003100078972546853
0.7019799999999909,0.0003414930426939242,0.7019899999999909,0.003100223735654605
0.7019899999999909,0.0003415240449312806,0.7019999999999909,0.003100368494105708
0.7019999999999909,0.0003415550486162215,0.7020099999999908,0.00310051324761285
0.7020099999999908,0.0003415860537486975,0.7020199999999908,0.003100657996468764
0.7020199999999908,0.000341617060328662,0.7020299999999907,0.003100802740407822
0.7020299999999907,0.000341648068356066,0.7020399999999907,0.003100947479679388
0.7020399999999907,0.0003416790778308626,0.7020499999999906,0.003101092214028678
0.7020499999999906,0.0003417100887530028,0.7020599999999906,0.003101236943753844
0.7020599999999906,0.0003417411011224402,0.7020699999999905,0.003101381668475419
0.7020699999999905,0.0003417721149391248,0.7020799999999905,0.003101526388621659
0.7020799999999905,0.0003418031302030109,0.7020899999999904,0.00310167110383478
0.7020899999999904,0.0003418341469140491,0.7020999999999904,0.003101815814288253
0.7020999999999904,0.0003418651650721918,0.7021099999999904,0.003101960519949553
0.7021099999999904,0.0003418961846773912,0.7021199999999903,0.0031021052208241
0.7021199999999903,0.0003419272057295993,0.7021299999999903,0.003102249916873947
0.7021299999999903,0.0003419582282287679,0.7021399999999902,0.003102394608169568
0.7021399999999902,0.0003419892521748494,0.7021499999999902,0.003102539294645911
0.7021499999999902,0.0003420202775677957,0.7021599999999901,0.003102683976297553
0.7021599999999901,0.0003420513044075586,0.7021699999999901,0.003102828653243758
0.7021699999999901,0.0003420823326940909,0.70217999999999,0.003102973325273106
0.70217999999999,0.0003421133624273435,0.70218999999999,0.003103117992548228
0.70218999999999,0.0003421443936072688,0.7021999999999899,0.003103262655069123
0.7021999999999899,0.0003421754262338194,0.7022099999999899,0.003103407312700267
0.7022099999999899,0.0003422064603069462,0.7022199999999899,0.003103551965653078
0.7022199999999899,0.0003422374958266026,0.7022299999999898,0.003103696613694453
0.7022299999999898,0.0003422685327927394,0.7022399999999898,0.00310384125691655
0.7022399999999898,0.0003422995712053084,0.7022499999999897,0.003103985895481998
0.7022499999999897,0.0003423306110642631,0.7022599999999897,0.003104130529103485
0.7022599999999897,0.000342361652369554,0.7022699999999896,0.003104275157954481
0.7022699999999896,0.0003423926951211334,0.7022799999999896,0.003104419782056673
0.7022799999999896,0.0003424237393189538,0.7022899999999895,0.003104564401279954
0.7022899999999895,0.0003424547849629665,0.7022999999999895,0.003104709015727325
0.7022999999999895,0.0003424858320531236,0.7023099999999894,0.003104853625382522
0.7023099999999894,0.0003425168805893773,0.7023199999999894,0.003104998230191336
0.7023199999999894,0.0003425479305716791,0.7023299999999894,0.003105142830218818
0.7023299999999894,0.0003425789819999811,0.7023399999999893,0.003105287425497494
0.7023399999999893,0.000342610034874236,0.7023499999999893,0.003105432015815946
0.7023499999999893,0.000342641089194394,0.7023599999999892,0.003105576601434381
0.7023599999999892,0.0003426721449604082,0.7023699999999892,0.003105721182244379
0.7023699999999892,0.0003427032021722305,0.7023799999999891,0.003105865758229678
0.7023799999999891,0.0003427342608298126,0.7023899999999891,0.003106010329357751
0.7023899999999891,0.0003427653209331061,0.702399999999989,0.003106154895709914
0.702399999999989,0.000342796382482063,0.702409999999989,0.003106299457259061
0.702409999999989,0.0003428274454766355,0.7024199999999889,0.003106444014032297
0.7024199999999889,0.0003428585099167757,0.7024299999999889,0.003106588565910361
0.7024299999999889,0.0003428895758024346,0.7024399999999889,0.003106733112963725
0.7024399999999889,0.0003429206431335641,0.7024499999999888,0.003106877655268283
0.7024499999999888,0.0003429517119101167,0.7024599999999888,0.003107022192764405
0.7024599999999888,0.0003429827821320442,0.7024699999999887,0.003107166725370774
