;Version, 1, 0
;IS("/I1/Vbs"),;deriv(IS("/I1/Vbs"))
;X, Y,;X, Y
;Re, Re,;Re, Re
;Vref, I,;Vref, Y
;xunit, A,;xunit, yunit
0.7,0.0008672273009841809,0.7000099999999999,0.005312808530613385
0.7000099999999999,0.0008672804290694868,0.7000199999999999,0.005312925992827387
0.7000199999999999,0.0008673335583294148,0.7000299999999998,0.005313042143048338
0.7000299999999998,0.000867386688750845,0.7000399999999998,0.005313158282503163
0.7000399999999998,0.0008674398203336698,0.7000499999999997,0.005313274411658068
0.7000499999999997,0.0008674929530777862,0.7000599999999997,0.00531339053018779
0.7000599999999997,0.0008675460869830878,0.7000699999999996,0.005313506638114016
0.7000699999999996,0.0008675992220494687,0.7000799999999996,0.005313622735696952
0.7000799999999996,0.0008676523582768254,0.7000899999999995,0.005313738822578813
0.7000899999999995,0.000867705495665051,0.7000999999999995,0.005313854899128228
0.7000999999999995,0.000867758634214042,0.7001099999999995,0.005313970964922357
0.7001099999999995,0.000867811773923691,0.7001199999999994,0.005314087020286461
0.7001199999999994,0.0008678649147938936,0.7001299999999994,0.00531420306505791
0.7001299999999994,0.000867918056824544,0.7001399999999993,0.005314319099345124
0.7001399999999993,0.0008679712000155372,0.7001499999999993,0.005314435123158945
0.7001499999999993,0.0008680243443667685,0.7001599999999992,0.005314551136293374
0.7001599999999992,0.0008680774898781312,0.7001699999999992,0.005314667138845991
0.7001699999999992,0.0008681306365495194,0.7001799999999991,0.005314783131120371
0.7001799999999991,0.0008681837843808304,0.7001899999999991,0.005314899112531044
0.7001899999999991,0.0008682369333719554,0.700199999999999,0.005315015083544219
0.700199999999999,0.0008682900835227906,0.700209999999999,0.005315131044116527
0.700209999999999,0.0008683432348332316,0.700219999999999,0.005315246993955234
0.700219999999999,0.0008683963873031709,0.7002299999999989,0.005315362933320548
0.7002299999999989,0.0008684495409325038,0.7002399999999989,0.005315478862190784
0.7002399999999989,0.0008685026957211255,0.7002499999999988,0.00531559478027321
0.7002499999999988,0.000868555851668928,0.7002599999999988,0.005315710688077398
0.7002599999999988,0.0008686090087758085,0.7002699999999987,0.005315826585202195
0.7002699999999987,0.0008686621670416603,0.7002799999999987,0.005315942471756021
0.7002799999999987,0.0008687153264663776,0.7002899999999986,0.005316058347782243
0.7002899999999986,0.0008687684870498552,0.7002999999999986,0.005316174213172443
0.7002999999999986,0.0008688216487919867,0.7003099999999985,0.005316290068100091
0.7003099999999985,0.0008688748116926675,0.7003199999999985,0.005316405912402559
0.7003199999999985,0.0008689279757517912,0.7003299999999985,0.005316521746101529
0.7003299999999985,0.000868981140969252,0.7003399999999984,0.005316637569359631
0.7003399999999984,0.0008690343073449454,0.7003499999999984,0.005316753381905817
0.7003499999999984,0.0008690874748787642,0.7003599999999983,0.005316869184054504
0.7003599999999983,0.0008691406435706045,0.7003699999999983,0.005316984975361169
0.7003699999999983,0.0008691938134203579,0.7003799999999982,0.005317100756378756
0.7003799999999982,0.0008692469844279214,0.7003899999999982,0.005317216526597688
0.7003899999999982,0.0008693001565931871,0.7003999999999981,0.00531733228635407
0.7003999999999981,0.0008693533299160504,0.7004099999999981,0.005317448035561165
0.7004099999999981,0.0008694065043964058,0.700419999999998,0.005317563774012973
0.700419999999998,0.0008694596800341457,0.700429999999998,0.005317679502121494
0.700429999999998,0.0008695128568291667,0.700439999999998,0.005317795219463886
0.700439999999998,0.0008695660347813611,0.7004499999999979,0.005317910926289519
0.7004499999999979,0.0008696192138906237,0.7004599999999979,0.005318026622555021
0.7004599999999979,0.000869672394156849,0.7004699999999978,0.005318142308162816
0.7004699999999978,0.0008697255755799304,0.7004799999999978,0.005318257983243009
0.7004799999999978,0.0008697787581597626,0.7004899999999977,0.005318373647654651
0.7004899999999977,0.0008698319418962389,0.7004999999999977,0.005318489301560375
0.7004999999999977,0.0008698851267892543,0.7005099999999976,0.00531860494485176
0.7005099999999976,0.0008699383128387025,0.7005199999999976,0.005318720577539646
0.7005199999999976,0.0008699915000444777,0.7005299999999975,0.005318836199526458
0.7005299999999975,0.0008700446884064727,0.7005399999999975,0.005318951811115771
0.7005399999999975,0.0008700978779245836,0.7005499999999975,0.005319067411982324
0.7005499999999975,0.0008701510685987032,0.7005599999999974,0.005319183002202013
0.7005599999999974,0.000870204260428725,0.7005699999999974,0.005319298581839887
0.7005699999999974,0.0008702574534145431,0.7005799999999973,0.005319414150993527
0.7005799999999973,0.0008703106475560528,0.7005899999999973,0.005319529709435249
0.7005899999999973,0.000870363842853147,0.7005999999999972,0.005319645257284317
0.7005999999999972,0.0008704170393057196,0.7006099999999972,0.005319760794529887
0.7006099999999972,0.0008704702369136646,0.7006199999999971,0.005319876321150275
0.7006199999999971,0.0008705234356768759,0.7006299999999971,0.005319991837221377
0.7006299999999971,0.0008705766355952478,0.700639999999997,0.005320107342548034
0.700639999999997,0.0008706298366686731,0.700649999999997,0.005320222837314563
0.700649999999997,0.000870683038897046,0.700659999999997,0.005320338321618542
0.700659999999997,0.0008707362422802619,0.7006699999999969,0.005320453795058813
0.7006699999999969,0.0008707894468182123,0.7006799999999969,0.005320569258112429
0.7006799999999969,0.0008708426525107932,0.7006899999999968,0.005320684710258971
0.7006899999999968,0.0008708958593578955,0.7006999999999968,0.005320800152116433
0.7006999999999968,0.0008709490673594164,0.7007099999999967,0.005320915583034296
0.7007099999999967,0.0008710022765152465,0.7007199999999967,0.005321031003489607
0.7007199999999967,0.0008710554868252812,0.7007299999999966,0.005321146413352264
0.7007299999999966,0.0008711086982894145,0.7007399999999966,0.00532126181253553
0.7007399999999966,0.0008711619109075396,0.7007499999999965,0.005321377201082771
0.7007499999999965,0.0008712151246795502,0.7007599999999965,0.005321492578896412
0.7007599999999965,0.0008712683396053389,0.7007699999999965,0.005321607946258343
0.7007699999999965,0.0008713215556848012,0.7007799999999964,0.0053217233029192
0.7007799999999964,0.0008713747729178302,0.7007899999999964,0.005321838648933191
0.7007899999999964,0.0008714279913043193,0.7007999999999963,0.005321953984235264
0.7007999999999963,0.0008714812108441614,0.7008099999999963,0.005322069308998892
0.7008099999999963,0.0008715344315372511,0.7008199999999962,0.005322184623083128
0.7008199999999962,0.0008715876533834817,0.7008299999999962,0.005322299926477132
0.7008299999999962,0.0008716408763827462,0.7008399999999961,0.005322415219332691
0.7008399999999961,0.0008716941005349393,0.7008499999999961,0.005322530501422121
0.7008499999999961,0.0008717473258399533,0.700859999999996,0.005322645772983949
0.700859999999996,0.0008718005522976829,0.700869999999996,0.005322761033855542
0.700869999999996,0.0008718537799080212,0.700879999999996,0.005322876284036903
0.700879999999996,0.0008719070086708613,0.7008899999999959,0.005322991523603925
0.7008899999999959,0.0008719602385860971,0.7008999999999959,0.00532310675246987
0.7008999999999959,0.0008720134696536216,0.7009099999999958,0.005323221970754004
0.7009099999999958,0.0008720667018733289,0.7009199999999958,0.005323337178326218
0.7009199999999958,0.0008721199352451119,0.7009299999999957,0.005323452375240727
0.7009299999999957,0.0008721731697688641,0.7009399999999957,0.005323567561410792
0.7009399999999957,0.0008722264054444779,0.7009499999999956,0.005323682737074936
0.7009499999999956,0.0008722796422718484,0.7009599999999956,0.005323797902092217
0.7009599999999956,0.0008723328802508691,0.7009699999999955,0.005323913056289159
0.7009699999999955,0.0008723861193814318,0.7009799999999955,0.005324028199936814
0.7009799999999955,0.0008724393596634309,0.7009899999999955,0.005324143332850868
0.7009899999999955,0.0008724926010967592,0.7009999999999954,0.005324258455118056
0.7009999999999954,0.0008725458436813101,0.7010099999999954,0.005324373566770906
0.7010099999999954,0.0008725990874169776,0.7010199999999953,0.005324488667711837
0.7010199999999953,0.0008726523323036544,0.7010299999999953,0.005324603757843273
0.7010299999999953,0.0008727055783412326,0.7010399999999952,0.005324718837501317
0.7010399999999952,0.0008727588255296074,0.7010499999999952,0.005324833906414916
0.7010499999999952,0.0008728120738686713,0.7010599999999951,0.005324948964584072
0.7010599999999951,0.0008728653233583169,0.7010699999999951,0.005325064012214782
0.7010699999999951,0.0008729185739984388,0.701079999999995,0.005325179048981788
0.701079999999995,0.0008729718257889284,0.701089999999995,0.005325294075286242
0.701089999999995,0.000873025078729681,0.7010999999999949,0.00532540909067278
0.7010999999999949,0.0008730783328205875,0.7011099999999949,0.005325524095444979
0.7011099999999949,0.0008731315880615417,0.7011199999999949,0.005325639089646207
0.7011199999999949,0.0008731848444524379,0.7011299999999948,0.005325754073016255
0.7011299999999948,0.0008732381019931678,0.7011399999999948,0.005325869045826174
0.7011399999999948,0.0008732913606836259,0.7011499999999947,0.005325984007891649
0.7011499999999947,0.0008733446205237045,0.7011599999999947,0.005326098959093419
0.7011599999999947,0.0008733978815132952,0.7011699999999946,0.005326213899908532
0.7011699999999946,0.0008734511436522941,0.7011799999999946,0.00532632882976236
0.7011799999999946,0.0008735044069405915,0.7011899999999945,0.005326443749164481
0.7011899999999945,0.0008735576713780829,0.7011999999999945,0.00532655865757279
0.7011999999999945,0.0008736109369646583,0.7012099999999944,0.005326673555475181
0.7012099999999944,0.0008736642037002129,0.7012199999999944,0.005326788442719865
0.7012199999999944,0.0008737174715846398,0.7012299999999944,0.005326903319014106
0.7012299999999944,0.0008737707406178297,0.7012399999999943,0.005327018184878323
0.7012399999999943,0.0008738240107996783,0.7012499999999943,0.005327133039922201
0.7012499999999943,0.0008738772821300772,0.7012599999999942,0.005327247884178269
0.7012599999999942,0.0008739305546089188,0.7012699999999942,0.005327362717819997
0.7012699999999942,0.0008739838282360967,0.7012799999999941,0.005327477540793176
0.7012799999999941,0.0008740371030115044,0.7012899999999941,0.005327592352902649
0.7012899999999941,0.0008740903789350332,0.701299999999994,0.005327707154376098
0.701299999999994,0.0008741436560065767,0.701309999999994,0.005327821945170156
0.701309999999994,0.0008741969342260282,0.7013199999999939,0.005327936725154719
0.7013199999999939,0.0008742502135932795,0.7013299999999939,0.005328051494524942
0.7013299999999939,0.0008743034941082245,0.7013399999999939,0.00532816625313988
0.7013399999999939,0.0008743567757707556,0.7013499999999938,0.005328281000891112
0.7013499999999938,0.0008744100585807643,0.7013599999999938,0.005328395738223161
0.7013599999999938,0.0008744633425381463,0.7013699999999937,0.005328510464485506
0.7013699999999937,0.0008745166276427909,0.7013799999999937,0.00532862518033951
0.7013799999999937,0.0008745699138945941,0.7013899999999936,0.005328739885199704
0.7013899999999936,0.0008746232012934458,0.7013999999999936,0.005328854579478084
0.7013999999999936,0.0008746764898392404,0.7014099999999935,0.00532896926289276
0.7014099999999935,0.000874729779531869,0.7014199999999935,0.005329083935671412
0.7014199999999935,0.0008747830703712255,0.7014299999999934,0.005329198597748988
0.7014299999999934,0.0008748363623572028,0.7014399999999934,0.005329313249092963
0.7014399999999934,0.0008748896554896935,0.7014499999999934,0.005329427889573231
0.7014499999999934,0.0008749429497685889,0.7014599999999933,0.005329542519330741
0.7014599999999933,0.000874996245193782,0.7014699999999933,0.005329657138506438
0.7014699999999933,0.0008750495417651668,0.7014799999999932,0.005329771746861796
0.7014799999999932,0.0008751028394826352,0.7014899999999932,0.005329886344451027
0.7014899999999932,0.0008751561383460795,0.7014999999999931,0.005330000931209078
0.7014999999999931,0.0008752094383553913,0.7015099999999931,0.005330115507222686
0.7015099999999931,0.0008752627395104633,0.701519999999993,0.005330230072708692
0.701519999999993,0.0008753160418111902,0.701529999999993,0.005330344627265938
0.701529999999993,0.0008753693452574626,0.7015399999999929,0.005330459171067899
0.7015399999999929,0.000875422649849173,0.7015499999999929,0.005330573704125417
0.7015499999999929,0.000875475955586214,0.7015599999999929,0.00533068822653607
0.7015599999999929,0.0008755292624684791,0.7015699999999928,0.00533080273799628
0.7015699999999928,0.0008755825704958589,0.7015799999999928,0.005330917238874677
0.7015799999999928,0.0008756358796682474,0.7015899999999927,0.005331031728900211
0.7015899999999927,0.0008756891899855361,0.7015999999999927,0.005331146208148774
0.7015999999999927,0.0008757425014476174,0.7016099999999926,0.005331260676739631
0.7016099999999926,0.0008757958140543845,0.7016199999999926,0.005331375134466783
0.7016199999999926,0.0008758491278057289,0.7016299999999925,0.005331489581482015
0.7016299999999925,0.0008759024427015435,0.7016399999999925,0.005331604017611859
0.7016399999999925,0.0008759557587417194,0.7016499999999924,0.005331718443149047
0.7016499999999924,0.0008760090759261506,0.7016599999999924,0.005331832857779162
0.7016599999999924,0.0008760623942547282,0.7016699999999924,0.005331947261653991
0.7016699999999924,0.0008761157137273445,0.7016799999999923,0.005332061654871112
0.7016799999999923,0.000876169034343893,0.7016899999999923,0.00533217603718116
0.7016899999999923,0.0008762223561042645,0.7016999999999922,0.005332290408746764
0.7016999999999922,0.0008762756790083518,0.7017099999999922,0.005332404769502873
0.7017099999999922,0.0008763290030560465,0.7017199999999921,0.005332519119590432
0.7017199999999921,0.0008763823282472422,0.7017299999999921,0.005332633458781759
0.7017299999999921,0.0008764356545818298,0.701739999999992,0.005332747787282853
0.701739999999992,0.0008764889820597024,0.701749999999992,0.005332862104876873
0.701749999999992,0.0008765423106807509,0.7017599999999919,0.005332976411769818
0.7017599999999919,0.0008765956404448683,0.7017699999999919,0.005333090707874951
0.7017699999999919,0.0008766489713519468,0.7017799999999919,0.005333204993224798
0.7017799999999919,0.0008767023034018789,0.7017899999999918,0.00533331926760252
0.7017899999999918,0.0008767556365945546,0.7017999999999918,0.005333433531387585
0.7017999999999918,0.0008768089709298683,0.7018099999999917,0.005333547784308946
0.7018099999999917,0.0008768623064077111,0.7018199999999917,0.005333662026420811
0.7018199999999917,0.0008769156430279751,0.7018299999999916,0.005333776257679812
0.7018299999999916,0.0008769689807905516,0.7018399999999916,0.00533389047824858
0.7018399999999916,0.0008770223196953339,0.7018499999999915,0.005334004688018693
0.7018499999999915,0.0008770756597422138,0.7018599999999915,0.005334118886816681
0.7018599999999915,0.0008771290009310817,0.7018699999999914,0.005334233075032857
0.7018699999999914,0.0008771823432618318,0.7018799999999914,0.005334347252276905
0.7018799999999914,0.0008772356867343544,0.7018899999999914,0.005334461418787352
0.7018899999999914,0.000877289031348542,0.7018999999999913,0.005334575574466619
0.7018999999999913,0.0008773423771042864,0.7019099999999913,0.005334689719423128
0.7019099999999913,0.0008773957240014804,0.7019199999999912,0.005334803853288248
0.7019199999999912,0.000877449072040013,0.7019299999999912,0.005334917976777553
0.7019299999999912,0.0008775024212197806,0.7019399999999911,0.00533503208906705
0.7019399999999911,0.000877555771540671,0.7019499999999911,0.005335146190698838
0.7019499999999911,0.0008776091230025777,0.701959999999991,0.005335260281531974
0.701959999999991,0.0008776624756053928,0.701969999999991,0.005335374361479721
0.701969999999991,0.0008777158293490074,0.7019799999999909,0.005335488430628812
0.7019799999999909,0.0008777691842333134,0.7019899999999909,0.005335602489011777
0.7019899999999909,0.0008778225402582033,0.7019999999999909,0.00533571653649851
0.7019999999999909,0.000877875897423568,0.7020099999999908,0.005335830573175747
0.7020099999999908,0.0008779292557292996,0.7020199999999908,0.005335944598956753
0.7020199999999908,0.0008779826151752889,0.7020299999999907,0.005336058614101734
0.7020299999999907,0.0008780359757614297,0.7020399999999907,0.00533617261822038
0.7020399999999907,0.0008780893374876116,0.7020499999999906,0.005336286611572898
0.7020499999999906,0.0008781427003537271,0.7020599999999906,0.005336400594072553
0.7020599999999906,0.0008781960643596676,0.7020699999999905,0.005336514565795238
0.7020699999999905,0.0008782494295053253,0.7020799999999905,0.005336628526665059
0.7020799999999905,0.0008783027957905917,0.7020899999999904,0.005336742476671175
0.7020899999999904,0.0008783561632153582,0.7020999999999904,0.005336856415813584
0.7020999999999904,0.0008784095317795161,0.7021099999999904,0.00533697034410313
0.7021099999999904,0.0008784629014829569,0.7021199999999903,0.005337084261615707
0.7021199999999903,0.0008785162723255728,0.7021299999999903,0.005337198168297103
0.7021299999999903,0.0008785696443072555,0.7021399999999902,0.005337312064082268
0.7021399999999902,0.0008786230174278961,0.7021499999999902,0.005337425948971201
0.7021499999999902,0.0008786763916873855,0.7021599999999901,0.005337539823072323
0.7021599999999901,0.000878729767085616,0.7021699999999901,0.005337653686288055
0.7021699999999901,0.0008787831436224787,0.70217999999999,0.005337767538683448
0.70217999999999,0.0008788365212978653,0.70218999999999,0.005337881380269346
0.70218999999999,0.0008788899001116677,0.7021999999999899,0.00533799521089396
0.7021999999999899,0.0008789432800637764,0.7022099999999899,0.005338109030698237
0.7022099999999899,0.0008789966611540831,0.7022199999999899,0.00533822283964965
0.7022199999999899,0.0008790500433824794,0.7022299999999898,0.005338336637791567
0.7022299999999898,0.0008791034267488571,0.7022399999999898,0.00533845042491799
0.7022399999999898,0.000879156811253106,0.7022499999999897,0.005338564201375864
0.7022499999999897,0.0008792101968951195,0.7022599999999897,0.005338677966872454
0.7022599999999897,0.000879263583674788,0.7022699999999896,0.005338791721418602
0.7022699999999896,0.0008793169715920019,0.7022799999999896,0.005338905465274516
0.7022799999999896,0.0008793703606466544,0.7022899999999895,0.005339019198104094
0.7022899999999895,0.0008794237508386352,0.7022999999999895,0.005339132920113334
0.7022999999999895,0.0008794771421678361,0.7023099999999894,0.005339246631291396
0.7023099999999894,0.0008795305346341488,0.7023199999999894,0.005339360331453962
0.7023199999999894,0.0008795839282374631,0.7023299999999894,0.005339474020980506
0.7023299999999894,0.0008796373229776727,0.7023399999999893,0.005339587699404819
0.7023399999999893,0.0008796907188546665,0.7023499999999893,0.005339701367030479
0.7023499999999893,0.0008797441158683365,0.7023599999999892,0.005339815023868327
0.7023599999999892,0.000879797514018575,0.7023699999999892,0.005339928669625628
0.7023699999999892,0.000879850913305271,0.7023799999999891,0.005340042304692697
0.7023799999999891,0.0008799043137283177,0.7023899999999891,0.00534015592867922
0.7023899999999891,0.0008799577152876042,0.702399999999989,0.005340269541888772
0.702399999999989,0.0008800111179830229,0.702409999999989,0.005340383144245461
0.702409999999989,0.0008800645218144651,0.7024199999999889,0.005340496735651707
0.7024199999999889,0.0008801179267818213,0.7024299999999889,0.005340610316150881
0.7024299999999889,0.0008801713328849826,0.7024399999999889,0.005340723885818874
0.7024399999999889,0.0008802247401238406,0.7024499999999888,0.005340837444579793
0.7024499999999888,0.0008802781484982861,0.7024599999999888,0.005340950992357745
