;Version, 1, 0
;/net10,;/M39:gm
;X, Y,;X, Y
;Re, Re,;Re, Re
;vin, V,;vin, S
;xunit, V,;xunit, S
0.7,0.07738182019992969,0.7,0.01598769007357077
0.701,0.07784353510540919,0.701,0.01603064109093863
0.702,0.07828367592553127,0.702,0.01607527560792981
0.703,0.07872447788145967,0.703,0.01611969661660164
0.704,0.079165936087395,0.704,0.01616390448880477
0.705,0.0796080456935527,0.705,0.01620789960964965
0.706,0.08005080188595733,0.706,0.01625168237719964
0.707,0.08049419988625532,0.707,0.01629525320216695
0.708,0.08093823495152701,0.708,0.0163386125076125
0.709,0.08138290237409618,0.709,0.01638176072865031
0.71,0.08182819748133806,0.71,0.01642469831215593
0.711,0.08227411563548567,0.711,0.01646742571647906
0.712,0.08272065223343511,0.712,0.01650994341116047
0.713,0.08316780270654933,0.713,0.01655225187665279
0.714,0.0836155625204601,0.714,0.01659435160404582
0.715,0.08406392717486963,0.715,0.01663624309479544
0.716,0.08451289220335038,0.716,0.01667792686045697
0.717,0.0849624531731448,0.717,0.01671940342242228
0.718,0.08541260568496289,0.718,0.01676067331166109
0.719,0.08586334537277987,0.719,0.0168017370684661
0.72,0.08631466790363294,0.72,0.01684259524220207
0.721,0.08676656897741714,0.721,0.01688324839105884
0.722,0.08721904432668065,0.722,0.01692369708180812
0.723,0.08767208971641988,0.723,0.01696394188956429
0.724,0.08812570094387323,0.724,0.01700398339754875
0.725,0.08857987383831606,0.725,0.01704382219685813
0.726,0.08903460426085318,0.726,0.01708345888623638
0.727,0.08948988810421327,0.727,0.01712289407185029
0.728,0.08994572129254109,0.728,0.0171621283670688
0.729,0.09040209978119125,0.729,0.01720116239224587
0.73,0.09085901955652077,0.73,0.01723999677450706
0.731,0.09131647663568203,0.731,0.01727863214753934
0.732,0.09177446706641533,0.732,0.01731706915138493
0.733,0.09223298692684251,0.733,0.01735530843223793
0.734,0.09269203232525951,0.734,0.01739335064224502
0.735,0.09315159939992967,0.735,0.01743119643930906
0.736,0.09361168431887722,0.736,0.01746884648689645
0.737,0.09407228327968102,0.737,0.01750630145384739
0.738,0.09453339250926843,0.738,0.01754356201418982
0.739,0.09499500826370967,0.739,0.01758062884695628
0.74,0.09545712682801245,0.74,0.01761750263600419
0.741,0.0959197445159172,0.741,0.01765418406983919
0.742,0.09638285766969226,0.742,0.0176906738414416
0.743,0.09684646265993044,0.743,0.01772697264809601
0.744,0.09731055588534507,0.744,0.01776308119122393
0.745,0.09777513377256736,0.745,0.01779900017621939
0.746,0.09824019277594388,0.746,0.01783473031228759
0.747,0.09870572937733507,0.747,0.01787027231228643
0.748,0.09917174008591384,0.748,0.01790562689257097
0.749,0.09963822143796561,0.749,0.01794079477284071
0.75,0.100105169996688,0.75,0.01797577667598986
0.751,0.1005725823519922,0.751,0.01801057332796009
0.752,0.1010404551203049,0.752,0.01804518545759633
0.753,0.10150878494437,0.753,0.01807961379650515
0.754,0.1019775684930527,0.754,0.01811385907891588
0.755,0.1024468024611433,0.755,0.01814792204154415
0.756,0.102916483569162,0.756,0.0181818034234585
0.757,0.1033866085631648,0.757,0.01821550396594908
0.758,0.1038571742145501,0.758,0.01824902441239911
0.759,0.1043281773198662,0.759,0.01828236550815888
0.76,0.1047996147006198,0.76,0.01831552800042212
0.761,0.1052714832030851,0.761,0.01834851263810482
0.762,0.1057437796981144,0.762,0.01838132017172651
0.763,0.1062165010809489,0.763,0.01841395135329377
0.764,0.1066896442710314,0.764,0.01844640693618619
0.765,0.1071632062118189,0.765,0.01847868767504463
0.766,0.1076371838705968,0.766,0.01851079432566162
0.767,0.1081115742382944,0.767,0.0185427276448741
0.768,0.1085863743293009,0.768,0.01857448839045829
0.769,0.1090615811812819,0.769,0.01860607732102678
0.77,0.1095371918549985,0.77,0.0186374951959277
0.771,0.1100132034341259,0.771,0.018668742775146
0.772,0.1104896130250737,0.772,0.01869982081920678
0.773,0.1109664177568072,0.773,0.01873073008908078
0.774,0.1114436147806701,0.774,0.01876147134609164
0.775,0.1119212012702073,0.775,0.01879204535182529
0.776,0.1123991744209897,0.776,0.01882245286804134
0.777,0.1128775314504398,0.777,0.01885269465658624
0.778,0.1133562695976581,0.778,0.01888277147930831
0.779,0.1138353861232509,0.779,0.01891268409797486
0.78,0.1143148783091593,0.78,0.0189424332741908
0.781,0.1147947434584888,0.781,0.01897201976931931
0.782,0.1152749788953402,0.782,0.01900144434440417
0.783,0.1157555819646421,0.783,0.01903070776009383
0.784,0.1162365500319837,0.784,0.01905981077656718
0.785,0.1167178804834492,0.785,0.01908875415346104
0.786,0.1171995707254533,0.786,0.0191175386497993
0.787,0.1176816181845776,0.787,0.01914616502392366
0.788,0.1181640203074081,0.788,0.01917463403342597
0.789,0.1186467745603739,0.789,0.01920294643508228
0.79,0.1191298784295872,0.79,0.01923110298478812
0.791,0.1196133294206842,0.791,0.01925910443749576
0.792,0.1200971250586669,0.792,0.01928695154715251
0.793,0.1205812628877467,0.793,0.01931464506664082
0.794,0.1210657404711879,0.794,0.01934218574771967
0.795,0.1215505553911537,0.795,0.01936957434096752
0.796,0.1220357052485526,0.796,0.01939681159572641
0.797,0.1225211876628855,0.797,0.01942389826004777
0.798,0.1230070002720948,0.798,0.01945083508063932
0.799,0.1234931407324139,0.799,0.01947762280281338
0.8,0.1239796067182184,0.8,0.01950426217043661
0.801,0.1244663959218774,0.801,0.01953075392588083
0.802,0.1249535060536074,0.802,0.01955709880997524
0.803,0.125440934841326,0.803,0.01958329756195982
0.804,0.1259286800305064,0.804,0.01960935091944004
0.805,0.1264167393840352,0.805,0.01963525961834268
0.806,0.1269051106820688,0.806,0.0196610243928728
0.8070000000000001,0.1273937917218916,0.8070000000000001,0.01968664597547198
0.8080000000000001,0.1278827803177764,0.8080000000000001,0.01971212509677763
0.8090000000000001,0.1283720743008445,0.8090000000000001,0.01973746248558343
0.8100000000000001,0.1288616715189273,0.8100000000000001,0.0197626588688008
0.8110000000000001,0.1293515698364291,0.8110000000000001,0.01978771497142159
0.8120000000000001,0.1298417671341912,0.8120000000000001,0.0198126315164817
0.8130000000000001,0.1303322613093563,0.8130000000000001,0.01983740922502578
0.8140000000000001,0.1308230502752346,0.8140000000000001,0.019862048816073
0.8150000000000001,0.1313141319611705,0.8150000000000001,0.01988655100658372
0.8160000000000001,0.131805504312411,0.8160000000000001,0.01991091651142725
0.8170000000000001,0.1322971652899743,0.8170000000000001,0.01993514604335048
0.8180000000000001,0.1327891128705201,0.8180000000000001,0.01995924031294753
0.8190000000000001,0.1332813450462201,0.8190000000000001,0.01998320002863032
0.8200000000000001,0.1337738598246311,0.8200000000000001,0.02000702589659993
0.8210000000000001,0.134266655228567,0.8210000000000001,0.02003071862081917
0.8220000000000001,0.1347597292959737,0.8220000000000001,0.02005427890298559
0.8230000000000001,0.1352530800798036,0.8230000000000001,0.02007770744250578
0.8240000000000001,0.1357467056478922,0.8240000000000001,0.02010100493647016
0.8250000000000001,0.1362406040828347,0.8250000000000001,0.02012417207962891
0.8260000000000001,0.1367347734818647,0.8260000000000001,0.02014720956436837
0.8270000000000001,0.1372292119567325,0.8270000000000001,0.02017011808068871
0.8280000000000001,0.1377239176335859,0.8280000000000001,0.0201928983161819
0.8290000000000001,0.1382188886528506,0.8290000000000001,0.02021555095601074
0.8300000000000001,0.1387141231691126,0.8300000000000001,0.02023807668288853
0.8310000000000001,0.1392096193510006,0.8310000000000001,0.02026047617705959
0.8320000000000001,0.1397053753810706,0.8320000000000001,0.02028275011628035
0.8330000000000001,0.1402013894556903,0.8330000000000001,0.02030489917580129
0.8340000000000001,0.1406976597849249,0.8340000000000001,0.02032692402834954
0.8350000000000001,0.1411941845924236,0.8350000000000001,0.02034882534411208
0.8360000000000001,0.1416909621153081,0.8360000000000001,0.02037060379071974
0.8370000000000001,0.1421879906040599,0.8370000000000001,0.02039226003323177
0.8380000000000001,0.1426852683224108,0.8380000000000001,0.02041379473412111
0.8390000000000001,0.1431827935472329,0.8390000000000001,0.02043520855326021
0.8400000000000001,0.14368056456843,0.8400000000000001,0.02045650214790763
0.8410000000000001,0.1441785796888294,0.8410000000000001,0.02047767617269503
0.8420000000000001,0.1446768372240761,0.8420000000000001,0.02049873127961491
0.8430000000000001,0.1451753355025251,0.8430000000000001,0.02051966811800894
0.8440000000000001,0.1456740728651379,0.8440000000000001,0.0205404873345567
0.8450000000000001,0.1461730476653771,0.8450000000000001,0.02056118957326525
0.8460000000000001,0.1466722582691038,0.8460000000000001,0.02058177547545895
0.8470000000000001,0.1471717030544746,0.8470000000000001,0.02060224567976999
0.8480000000000001,0.1476713804118399,0.8480000000000001,0.02062260082212949
0.8490000000000001,0.1481712887436435,0.8490000000000001,0.02064284153575893
0.8500000000000001,0.1486714264643223,0.8500000000000001,0.02066296845116227
0.8510000000000001,0.1491717920002072,0.8510000000000001,0.0206829821961185
0.8520000000000001,0.1496723837894251,0.8520000000000001,0.02070288339567455
0.8530000000000001,0.1501732002818008,0.8530000000000001,0.02072267267213891
0.8540000000000001,0.1506742399387614,0.8540000000000001,0.02074235064507552
0.8550000000000001,0.151175501233239,0.8550000000000001,0.02076191793129821
0.8560000000000001,0.1516769826495773,0.8560000000000001,0.02078137514486557
0.8570000000000001,0.152178682683436,0.8570000000000001,0.02080072289707616
0.8580000000000001,0.1526805998416984,0.8580000000000001,0.02081996179646431
0.8590000000000001,0.1531827326423779,0.8590000000000001,0.02083909244879627
0.8600000000000001,0.1536850796145273,0.8600000000000001,0.02085811545706661
0.8610000000000001,0.1541876392981463,0.8610000000000001,0.02087703142149535
0.8620000000000001,0.1546904102440924,0.8620000000000001,0.02089584093952515
0.8630000000000001,0.1551933910139909,0.8630000000000001,0.02091454460581903
0.8640000000000001,0.155696580180146,0.8640000000000001,0.02093314301225848
0.8650000000000001,0.156199976325453,0.8650000000000001,0.02095163674794197
0.8660000000000001,0.1567035780433113,0.8660000000000001,0.02097002639918359
0.8670000000000001,0.1572073839375372,0.8670000000000001,0.02098831254951234
0.8680000000000001,0.1577113926222788,0.8680000000000001,0.02100649577967157
0.8690000000000001,0.1582156027219306,0.8690000000000001,0.02102457666761878
0.8700000000000001,0.1587200128710491,0.8700000000000001,0.02104255578852583
0.8710000000000001,0.1592246217142697,0.8710000000000001,0.02106043371477929
0.8720000000000001,0.1597294279062234,0.8720000000000001,0.02107821101598131
0.8730000000000001,0.1602344301114547,0.8730000000000001,0.02109588825895071
0.8740000000000001,0.1607396270043399,0.8740000000000001,0.02111346600772426
0.8750000000000001,0.1612450172690072,0.8750000000000001,0.02113094482355841
0.8760000000000001,0.1617505995992553,0.8760000000000001,0.02114832526493128
0.8770000000000001,0.1622563726984754,0.8770000000000001,0.0211656078875447
0.8780000000000001,0.1627623352795714,0.8780000000000001,0.02118279324432687
0.8790000000000001,0.1632684860648823,0.8790000000000001,0.02119988188543509
0.8800000000000001,0.1637748237861052,0.8800000000000001,0.02121687435825869
0.8810000000000001,0.1642813471842177,0.8810000000000001,0.02123377120742232
0.8820000000000001,0.1647880550094028,0.8820000000000001,0.02125057297478949
0.8830000000000001,0.165294946020973,0.8830000000000001,0.02126728019946625
0.8840000000000001,0.1658020189872954,0.8840000000000001,0.02128389341780518
0.8850000000000001,0.1663092726857183,0.8850000000000001,0.02130041316340959
0.8860000000000001,0.166816705902497,0.8860000000000001,0.02131683996713793
0.8870000000000001,0.1673243174327214,0.8870000000000001,0.02133317435710843
0.8880000000000001,0.1678321060802436,0.8880000000000001,0.02134941685870391
0.8890000000000001,0.1683400706576065,0.8890000000000001,0.02136556799457689
0.8900000000000001,0.1688482099859728,0.8900000000000001,0.02138162828465474
0.8910000000000001,0.1693565228950545,0.8910000000000001,0.02139759824614515
0.8920000000000001,0.1698650082230432,0.8920000000000001,0.0214134783935418
0.8930000000000001,0.170373664816541,0.8930000000000001,0.02142926923863013
0.8940000000000001,0.1708824915304922,0.8940000000000001,0.02144497129049326
0.8950000000000001,0.1713914872281149,0.8950000000000001,0.02146058505551825
0.8960000000000001,0.1719006507808339,0.8960000000000001,0.02147611103740243
0.8970000000000001,0.1724099810682138,0.8970000000000001,0.02149154973715972
0.8980000000000001,0.1729194769778927,0.8980000000000001,0.02150690165312755
0.8990000000000001,0.1734291374055172,0.8990000000000001,0.02152216728097343
0.9000000000000001,0.1739389612546762,0.9000000000000001,0.021537347113702
0.9010000000000001,0.1744489474368374,0.9010000000000001,0.02155244164166215
0.9020000000000001,0.1749590948712827,0.9020000000000001,0.02156745135255424
0.9030000000000001,0.1754694024850453,0.9030000000000001,0.02158237673143747
0.9040000000000001,0.1759798692128463,0.9040000000000001,0.02159721826073742
0.9050000000000001,0.1764904939970327,0.9050000000000001,0.02161197642025368
0.9060000000000001,0.1770012757875156,0.9060000000000001,0.02162665168716761
0.9070000000000001,0.1775122135417092,0.9070000000000001,0.02164124453605029
0.9080000000000001,0.1780233062244693,0.9080000000000001,0.02165575543887047
0.9090000000000001,0.1785345528080341,0.9090000000000001,0.02167018486500269
0.9100000000000001,0.1790459522719634,0.9100000000000001,0.02168453328123563
0.9110000000000001,0.1795575036030809,0.9110000000000001,0.02169880115178028
0.9120000000000001,0.180069205795414,0.9120000000000001,0.02171298893827855
0.9130000000000001,0.1805810578501367,0.9130000000000001,0.02172709709981172
0.9140000000000001,0.1810930587755116,0.9140000000000001,0.0217411260929092
0.9150000000000001,0.1816052075868325,0.9150000000000001,0.02175507637155705
0.9160000000000001,0.1821175033063688,0.9160000000000001,0.02176894838720711
0.9170000000000001,0.1826299449633075,0.9170000000000001,0.02178274258878566
0.9180000000000001,0.1831425315936992,0.9180000000000001,0.02179645942270264
0.9190000000000002,0.1836552622404022,0.9190000000000002,0.02181009933286051
0.9200000000000002,0.1841681359530277,0.9200000000000002,0.02182366276066366
0.9210000000000002,0.1846811517878858,0.9210000000000002,0.02183715014502742
0.9220000000000002,0.1851943088079315,0.9220000000000002,0.02185056192238758
0.9230000000000002,0.1857076060827114,0.9230000000000002,0.0218638985267096
0.9240000000000002,0.1862210426883111,0.9240000000000002,0.02187716038949818
0.9250000000000002,0.1867346177073025,0.9250000000000002,0.02189034793980674
0.9260000000000002,0.1872483302286918,0.9260000000000002,0.02190346160424694
0.9270000000000002,0.1877621793478682,0.9270000000000002,0.02191650180699846
0.9280000000000002,0.1882761641665527,0.9280000000000002,0.02192946896981851
0.9290000000000002,0.1887902837927477,0.9290000000000002,0.02194236351205173
0.9300000000000002,0.1893045373406862,0.9300000000000002,0.02195518585063993
0.9310000000000002,0.1898189239307828,0.9310000000000002,0.02196793640013189
0.9320000000000002,0.1903334426895839,0.9320000000000002,0.02198061557269342
0.9330000000000002,0.1908480927497188,0.9330000000000002,0.02199322377811708
0.9340000000000002,0.1913628732498514,0.9340000000000002,0.02200576142383236
0.9350000000000002,0.191877783334632,0.9350000000000002,0.0220182289149156
0.9360000000000002,0.1923928221546498,0.9360000000000002,0.02203062665410003
0.9370000000000002,0.1929079888663849,0.9370000000000002,0.02204295504178604
0.9380000000000002,0.1934232826321629,0.9380000000000002,0.02205521447605111
0.9390000000000002,0.1939387026201071,0.9390000000000002,0.02206740535266006
0.9400000000000002,0.194454248004093,0.9400000000000002,0.0220795280650753
0.9410000000000002,0.1949699179637026,0.9410000000000002,0.02209158300446699
0.9420000000000002,0.1954857116841793,0.9420000000000002,0.02210357055972332
0.9430000000000002,0.1960016283563827,0.9430000000000002,0.02211549111746079
0.9440000000000002,0.1965176671767443,0.9440000000000002,0.02212734506203444
0.9450000000000002,0.1970338273472233,0.9450000000000002,0.0221391327755483
0.9460000000000002,0.1975501080752629,0.9460000000000002,0.02215085463786573
0.9470000000000002,0.1980665085737474,0.9470000000000002,0.02216251102661959
0.9480000000000002,0.1985830280609579,0.9480000000000002,0.02217410231722277
0.9490000000000002,0.1990996657605316,0.9490000000000002,0.02218562888287861
0.9500000000000002,0.1996164209014175,0.9500000000000002,0.02219709109459122
0.9510000000000002,0.2001332927178363,0.9510000000000002,0.02220848932117591
0.9520000000000002,0.2006502804492376,0.9520000000000002,0.02221982392926963
0.9530000000000002,0.2011673833402592,0.9530000000000002,0.02223109528334144
0.9540000000000002,0.2016846006406866,0.9540000000000002,0.0222423037457028
0.9550000000000002,0.2022019316054117,0.9550000000000002,0.02225344967651828
0.9560000000000002,0.2027193754943936,0.9560000000000002,0.02226453343381575
0.9570000000000002,0.2032369315726179,0.9570000000000002,0.02227555537349694
0.9580000000000002,0.2037545991100579,0.9580000000000002,0.02228651584934797
0.9590000000000002,0.204272377381635,0.9590000000000002,0.02229741521304967
0.9600000000000002,0.2047902656671807,0.9600000000000002,0.02230825381418811
0.9610000000000002,0.2053082632513972,0.9610000000000002,0.02231903200026499
0.9620000000000002,0.2058263694238195,0.9620000000000002,0.02232975011670824
0.9630000000000002,0.2063445834787783,0.9630000000000002,0.02234040850688228
0.9640000000000002,0.2068629047153615,0.9640000000000002,0.02235100751209852
0.9650000000000002,0.2073813324373778,0.9650000000000002,0.0223615474716259
0.9660000000000002,0.2078998659533195,0.9660000000000002,0.02237202872270113
0.9670000000000002,0.208418504576326,0.9670000000000002,0.02238245160053928
0.9680000000000002,0.2089372476241474,0.9680000000000002,0.02239281643834402
0.9690000000000002,0.2094560944191091,0.9690000000000002,0.0224031235673182
0.9700000000000002,0.2099750442880758,0.9700000000000002,0.02241337331667403
0.9710000000000002,0.2104940965624159,0.9710000000000002,0.02242356601364363
0.9720000000000002,0.2110132505779675,0.9720000000000002,0.02243370198348928
0.9730000000000002,0.2115325056750023,0.9730000000000002,0.02244378154951379
0.9740000000000002,0.2120518611981921,0.9740000000000002,0.02245380503307083
0.9750000000000002,0.2125713164965748,0.9750000000000002,0.02246377275357521
0.9760000000000002,0.2130908709235196,0.9760000000000002,0.02247368502851324
0.9770000000000002,0.2136105238366945,0.9770000000000002,0.02248354217345296
0.9780000000000002,0.2141302745980325,0.9780000000000002,0.02249334450205432
0.9790000000000002,0.2146501225736984,0.9790000000000002,0.02250309232607962
0.9800000000000002,0.2151700671340566,0.9800000000000002,0.02251278595540349
0.9810000000000002,0.2156901076536382,0.9810000000000002,0.02252242569802325
0.9820000000000002,0.2162102435111094,0.9820000000000002,0.022532011860069
0.9830000000000002,0.2167304740892389,0.9830000000000002,0.02254154474581379
0.9840000000000002,0.2172507987748665,0.9840000000000002,0.02255102465768379
0.9850000000000002,0.2177712169588723,0.9850000000000002,0.02256045189626829
0.9860000000000002,0.2182917280361445,0.9860000000000002,0.02256982676032992
0.9870000000000002,0.2188123314055502,0.9870000000000002,0.02257914954681452
0.9880000000000002,0.2193330264699028,0.9880000000000002,0.02258842055086141
0.9890000000000002,0.2198538126359332,0.9890000000000002,0.02259764006581308
0.9900000000000002,0.2203746893142592,0.9900000000000002,0.02260680838322549
0.9910000000000002,0.2208956559193558,0.9910000000000002,0.02261592579287778
0.9920000000000002,0.2214167118695252,0.9920000000000002,0.02262499258278229
0.9930000000000002,0.2219378565868685,0.9930000000000002,0.0226340090391944
0.9940000000000002,0.2224590894972552,0.9940000000000002,0.02264297544662252
