;Version, 1, 0
;phase((VF("/out+") - VF("/out-"))) (VCTRL=0.02),;phase((VF("/out+") - VF("/out-"))) (VCTRL=0.04),;phase((VF("/out+") - VF("/out-"))) (VCTRL=0.06),;phase((VF("/out+") - VF("/out-"))) (VCTRL=0.08),;phase((VF("/out+") - VF("/out-"))) (VCTRL=0.1),;phase((VF("/out+") - VF("/out-"))) (VCTRL=0.12),;phase((VF("/out+") - VF("/out-"))) (VCTRL=0.14),;phase((VF("/out+") - VF("/out-"))) (VCTRL=0.16),;phase((VF("/out+") - VF("/out-"))) (VCTRL=0.18),;phase((VF("/out+") - VF("/out-"))) (VCTRL=0.2),;phase((VF("/out+") - VF("/out-"))) (VCTRL=0.22),;phase((VF("/out+") - VF("/out-"))) (VCTRL=0.24),;phase((VF("/out+") - VF("/out-"))) (VCTRL=0.26),;phase((VF("/out+") - VF("/out-"))) (VCTRL=0.28),;phase((VF("/out+") - VF("/out-"))) (VCTRL=0.3)
;X, Y,;X, Y,;X, Y,;X, Y,;X, Y,;X, Y,;X, Y,;X, Y,;X, Y,;X, Y,;X, Y,;X, Y,;X, Y,;X, Y,;X, Y
;Re, Re,;Re, Re,;Re, Re,;Re, Re,;Re, Re,;Re, Re,;Re, Re,;Re, Re,;Re, Re,;Re, Re,;Re, Re,;Re, Re,;Re, Re,;Re, Re,;Re, Re
;freq, V,;freq, V,;freq, V,;freq, V,;freq, V,;freq, V,;freq, V,;freq, V,;freq, V,;freq, V,;freq, V,;freq, V,;freq, V,;freq, V,;freq, V
;Hz, deg,;Hz, deg,;Hz, deg,;Hz, deg,;Hz, deg,;Hz, deg,;Hz, deg,;Hz, deg,;Hz, deg,;Hz, deg,;Hz, deg,;Hz, deg,;Hz, deg,;Hz, deg,;Hz, deg
1000000,-0.02523494509176217,1000000,-0.0252893235411948,1000000,-0.02538554791118297,1000000,-0.02553243077068291,1000000,-0.02574292793658043,1000000,-0.02603390699631222,1000000,-0.02642366793353605,1000000,-0.02692141819500502,1000000,-0.02752639534274269,1000000,-0.02817956736790546,1000000,-0.02880365477789194,1000000,-0.02931722423879882,1000000,-0.0297022120260944,1000000,-0.02996570182824254,1000000,-0.03014463727920895
1002305.2380779,-0.02529311764620832,1002305.2380779,-0.02534762145090567,1002305.2380779,-0.02544406764096218,1002305.2380779,-0.02559128910040217,1002305.2380779,-0.0258022715123514,1002305.2380779,-0.02609392134804807,1002305.2380779,-0.02648458077696442,1002305.2380779,-0.02698347847120584,1002305.2380779,-0.02758985023518973,1002305.2380779,-0.02824452797724326,1002305.2380779,-0.02887005405714908,1002305.2380779,-0.02938480741780372,1002305.2380779,-0.02977068269350087,1002305.2380779,-0.03003477990229696,1002305.2380779,-0.03021412784202281
1004615.790278395,-0.02535142430222896,1004615.790278395,-0.02540605375116477,1004615.790278395,-0.0255027222726377,1004615.790278395,-0.02565028311257104,1004615.790278395,-0.02586175188917947,1004615.790278395,-0.02615407404713897,1004615.790278395,-0.02654563403898468,1004615.790278395,-0.02704568181110369,1004615.790278395,-0.02765345140625553,1004615.790278395,-0.0283096383362348,1004615.790278395,-0.02893660640253564,1004615.790278395,-0.02945254639210792,1004615.790278395,-0.02983931120207798,1004615.790278395,-0.03010401721773841,1004615.790278395,-0.03028377859710812
1006931.668851804,-0.02540986536896017,1006931.668851804,-0.02546462075177434,1006931.668851804,-0.02556151211719037,1006931.668851804,-0.02570941311996973,1006931.668851804,-0.02592136938242351,1006931.668851804,-0.02621436541250841,1006931.668851804,-0.02660682804329503,1006931.668851804,-0.02710802854449434,1006931.668851804,-0.02771719919314699,1006931.668851804,-0.02837489879008857,1006931.668851804,-0.02900331216690538,1006931.668851804,-0.02952044152085657,1006931.668851804,-0.02990809791568707,1006931.668851804,-0.03017341414165604,1006931.668851804,-0.03035358991374605
1009252.886076684,-0.02546844115625065,1009252.886076684,-0.0255233227632506,1009252.886076684,-0.02562043748631803,1009252.886076684,-0.0257686794360996,1009252.886076684,-0.02598112430816939,1009252.886076684,-0.0262747957638151,1009252.886076684,-0.02666816311433984,1009252.886076684,-0.02717051900193385,1009252.886076684,-0.02778109393384841,1009252.886076684,-0.02844030968480881,1009252.886076684,-0.02907017170392545,1009252.886076684,-0.0295884931640227,1009252.886076684,-0.02997704319902827,1009252.886076684,-0.0302429710419853,1009252.886076684,-0.03042356216206908
1011579.454259898,-0.02552715197466313,1011579.454259898,-0.02558216009682566,1011579.454259898,-0.02567949869243688,1011579.454259898,-0.02582808237518458,1011579.454259898,-0.0260410169832317,1011579.454259898,-0.02633536542145461,1011579.454259898,-0.02672963957731142,1011579.454259898,-0.02723315351474027,1011579.454259898,-0.02784513596712317,1011579.454259898,-0.02850587136719746,1011579.454259898,-0.02913718536807829,1011579.454259898,-0.02965670168240917,1011579.454259898,-0.03004614741764242,1011579.454259898,-0.03031268828750975,1011579.454259898,-0.03049369571306292
1013911.385736679,-0.02558599813547639,1013911.385736679,-0.02564113306444902,1013911.385736679,-0.02573869604868353,1013911.385736679,-0.02588762225217306,1013911.385736679,-0.02610104772515529,1013911.385736679,-0.02639607470656112,1013911.385736679,-0.02679125775815176,1013911.385736679,-0.02729593241499539,1013911.385736679,-0.02790932563251564,1013911.385736679,-0.02857158418485587,1013911.385736679,-0.02920435351466355,1013911.385736679,-0.02972506743765059,1013911.385736679,-0.03011541093791307,1013911.385736679,-0.03038256624786308,1013911.385736679,-0.03056399093856846
1016248.692870695,-0.02564497995068693,1016248.692870695,-0.02570024197878951,1016248.692870695,-0.02579802986891635,1016248.692870695,-0.02594729938273934,1016248.692870695,-0.02616121685221703,1016248.692870695,-0.02645692394100907,1016248.692870695,-0.02685301798355413,1016248.692870695,-0.02735885603554657,1016248.692870695,-0.02797366327035288,1016248.692870695,-0.02863744848618668,1016248.692870695,-0.02927167649979982,1016248.692870695,-0.02979359079221521,1016248.692870695,-0.03018483412706826,1016248.692870695,-0.03045260529353112,1016248.692870695,-0.03063444821128384
1018591.388054117,-0.02570409773301028,1018591.388054117,-0.02575948715323641,1018591.388054117,-0.02585750046771717,1018591.388054117,-0.0260071140832856,1018591.388054117,-0.02622152468342756,1018591.388054117,-0.0265179134474149,1018591.388054117,-0.026914920580965,1018591.388054117,-0.02742192471000841,1018591.388054117,-0.02803814922174649,1018591.388054117,-0.02870346462039572,1018591.388054117,-0.02933915468042677,1018591.388054117,-0.02986227210940686,1018591.388054117,-0.03025441735318269,1018591.388054117,-0.03052280579585371,1018591.388054117,-0.03070506790476627
1020939.483707679,-0.02576335179588286,1020939.483707679,-0.02581886890190173,1020939.483707679,-0.02591710816039306,1020939.483707679,-0.02606706667094325,1020939.483707679,-0.02628197153853282,1020939.483707679,-0.02657904354913878,1020939.483707679,-0.02697696587858563,1020939.483707679,-0.02748513877276463,1020939.483707679,-0.02810278382859441,1020939.483707679,-0.0287696329374938,1020939.483707679,-0.02940678841430679,1020939.483707679,-0.02993111175336687,1020939.483707679,-0.03032416098517952,1020939.483707679,-0.03059316812702676,1020939.483707679,-0.03077585039343418
1023292.992280754,-0.02582274245346375,1023292.992280754,-0.02587838753962142,1023292.992280754,-0.02597685326297797,1023292.992280754,-0.02612715746357478,1023292.992280754,-0.02634255773801593,1023292.992280754,-0.0266403145702863,1023292.992280754,-0.02703915420537386,1023292.992280754,-0.02754849855896975,1023292.992280754,-0.02816756743358274,1023292.992280754,-0.0288359537882986,1023292.992280754,-0.02947457806002705,1023292.992280754,-0.03000011008907601,1023292.992280754,-0.03039406539283234,1023292.992280754,-0.03066369266010414,1023292.992280754,-0.03084679605256905
1025651.926251407,-0.02588227002063612,1025651.926251407,-0.02593804338195723,1025651.926251407,-0.02603673609223437,1025651.926251407,-0.02618738677977551,1025651.926251407,-0.02640328360309872,1025651.926251407,-0.02670172683571017,1025651.926251407,-0.02710148589104589,1025651.926251407,-0.02761200440455089,1025651.926251407,-0.02823250038018757,1025651.926251407,-0.02890242752443647,1025651.926251407,-0.02954252397700131,1025651.926251407,-0.03006926748235639,1025651.926251407,-0.03046413094676717,1025651.926251407,-0.0307343797689997,1025651.926251407,-0.03091790525831755
1028016.298126473,-0.02594193481300907,1028016.298126473,-0.02599783674519849,1028016.298126473,-0.02609675696565496,1028016.298126473,-0.02624775493887511,1028016.298126473,-0.02646414945574357,1028016.298126473,-0.02676328067101197,1028016.298126473,-0.02716396126607797,1028016.298126473,-0.02767565664620961,1028016.298126473,-0.02829758301267674,1028016.298126473,-0.02896905449834443,1028016.298126473,-0.02961062652547191,1028016.298126473,-0.03013858429987346,1028016.298126473,-0.03053435801846445,1028016.298126473,-0.03080522982848927,1028016.298126473,-0.03098917838769338
1030386.120441615,-0.02600173714691945,1030386.120441615,-0.02605776794636335,1030386.120441615,-0.02615691620146419,1030386.120441615,-0.02630826226093947,1030386.120441615,-0.02652515561865505,1030386.120441615,-0.02682497640254389,1030386.120441615,-0.02722658066170817,1030386.120441615,-0.02773945562142357,1030386.120441615,-0.02836281567611176,1030386.120441615,-0.02903583506327188,1030386.120441615,-0.02967888606651162,1030386.120441615,-0.03020806090913791,1030386.120441615,-0.03060474698026088,1030386.120441615,-0.03087624321421264,1030386.120441615,-0.03106061581857939
1032761.405761397,-0.02606167733943287,1032761.405761397,-0.02611783730320104,1032761.405761397,-0.02621721411862033,1032761.405761397,-0.0263689090667722,1032761.405761397,-0.02658630241528159,1032761.405761397,-0.02688681435741039,1032761.405761397,-0.02728934440993816,1032761.405761397,-0.02780340166844848,1032761.405761397,-0.02842819871634955,1032761.405761397,-0.02910276957328254,1032761.405761397,-0.02974730296202553,1032761.405761397,-0.03027769767850761,1032761.405761397,-0.0306752982053516,1032761.405761397,-0.03094742030267549,1032761.405761397,-0.03113221792972954
1035142.166679343,-0.02612175570834621,1035142.166679343,-0.02617804513419318,1035142.166679343,-0.02627765103681674,1035142.166679343,-0.02642969567791653,1035142.166679343,-0.02664759016981731,1035142.166679343,-0.02694879486347005,1035142.166679343,-0.02735225284353495,1035142.166679343,-0.02786749512631972,1035142.166679343,-0.02849373248004431,1035142.166679343,-0.02916985838325639,1035142.166679343,-0.02981587757475304,1035142.166679343,-0.03034749497718959,1035142.166679343,-0.03074601206779194,1035142.166679343,-0.03101876147125148,1035142.166679343,-0.03120398510077086
1037528.415818012,-0.02618197257218913,1037528.415818012,-0.02623839175855554,1037528.415818012,-0.02633822727648382,1037528.415818012,-0.02649062241665686,1037528.415818012,-0.02670901920720365,1037528.415818012,-0.02701091824933718,1037528.415818012,-0.02741530629603262,1037528.415818012,-0.02793173633485431,1037528.415818012,-0.02855941731464941,1037528.415818012,-0.02923710184889143,1037528.415818012,-0.02988461026826976,1037528.415818012,-0.030417453175242,1037528.415818012,-0.03081688894249958,1037528.415818012,-0.03109026709818417,1037528.415818012,-0.03127591771220558
1039920.165829058,-0.02624232825022485,1039920.165829058,-0.02629887749623978,1039920.165829058,-0.02639894315879063,1039920.165829058,-0.02655168960602058,1039920.165829058,-0.02677058985313112,1039920.165829058,-0.02707318484438363,1039920.165829058,-0.02747850510173418,1039920.165829058,-0.02799612563465258,1039920.165829058,-0.02862525356841913,1039920.165829058,-0.02930450032670568,1039920.165829058,-0.02995350140698939,1039920.165829058,-0.03048757264357606,1039920.165829058,-0.03088792920525647,1039920.165829058,-0.03116193756258909,1039920.165829058,-0.03134801614541304
1042317.429393303,-0.02630282306245352,1042317.429393303,-0.02635950266793518,1042317.429393303,-0.02645979900564662,1042317.429393303,-0.02661289756977974,1042317.429393303,-0.02683230243404097,1042317.429393303,-0.02713559497874058,1042317.429393303,-0.02754184959571324,1042317.429393303,-0.02806066336710004,1042317.429393303,-0.02869124159041056,1042317.429393303,-0.02937205417403896,1042317.429393303,-0.03002255135616572,1042317.429393303,-0.03055785375395802,1042317.429393303,-0.03095913323271082,1042317.429393303,-0.0312337732444557,1042317.429393303,-0.03142028078265172
1044720.219220799,-0.02636345732961215,1044720.219220799,-0.02642026759507018,1044720.219220799,-0.02652079513970328,1044720.219220799,-0.02667424663245269,1044720.219220799,-0.02689415727712708,1044720.219220799,-0.02719814898330019,1044720.219220799,-0.02760534011381588,1044720.219220799,-0.02812534987436918,1044720.219220799,-0.02875738173048548,1044720.219220799,-0.02943976374905489,1044720.219220799,-0.03009176048189454,1044720.219220799,-0.03062829687901114,1044720.219220799,-0.03103050140237908,1044720.219220799,-0.03130577452464942,1044720.219220799,-0.03149271200706136
1047128.548050899,-0.02642423137317763,1047128.548050899,-0.02648117259981423,1047128.548050899,-0.0265819318843559,1047128.548050899,-0.02673573711930591,1047128.548050899,-0.0269561547103375,1047128.548050899,-0.02726084718971745,1047128.548050899,-0.02766897699266234,1047128.548050899,-0.02819018549942123,1047128.548050899,-0.02882367433931215,1047128.548050899,-0.02950762941074272,1047128.548050899,-0.03016112915111554,1047128.548050899,-0.03069890239221768,1047128.548050899,-0.031102034092648,1047128.548050899,-0.03137794178491368,1047128.548050899,-0.03156531020266486
1049542.428652321,-0.02648514551536751,1049542.428652321,-0.02654221800507954,1049542.428652321,-0.02664320956374528,1049542.428652321,-0.02679736935635572,1049542.428652321,-0.02701829506237634,1049542.428652321,-0.02732368993041181,1049542.428652321,-0.02773276056964887,1049542.428652321,-0.02825517058600812,1049542.428652321,-0.02889011976836724,1049542.428652321,-0.02957565151891927,1049542.428652321,-0.03023065773161433,1049542.428652321,-0.03076967066792083,1049542.428652321,-0.03117373168277657,1049542.428652321,-0.0314502754078719,1049542.428652321,-0.03163807575437044
1051961.873823222,-0.02654620007914264,1051961.873823222,-0.0266034041345225,1051961.873823222,-0.02670462850275947,1051961.873823222,-0.02685914367037,1051961.873823222,-0.02708057866270537,1051961.873823222,-0.02738667753856911,1051961.873823222,-0.02779669118294952,1051961.873823222,-0.02832030547867412,1051961.873823222,-0.02895671836993763,1051961.873823222,-0.0296438304342308,1051961.873823222,-0.03030034659202434,1051961.873823222,-0.03084060208132676,1051961.873823222,-0.03124559455289808,1051961.873823222,-0.03152277577702956,1051961.873823222,-0.0317110090479736
1054386.896391258,-0.02660739538820813,1054386.896391258,-0.02666473131254586,1054386.896391258,-0.02676618902703538,1054386.896391258,-0.02692106038886979,1054386.896391258,-0.02714300584154592,1054386.896391258,-0.02744981034814325,1054386.896391258,-0.02786076917151784,1054386.896391258,-0.02838559052275779,1054386.896391258,-0.0290234704971223,1054386.896391258,-0.02971216651815496,1054386.896391258,-0.03037019610182876,1054386.896391258,-0.03091169700850656,1054386.896391258,-0.03131762308402211,1054386.896391258,-0.03159544327677617,1054386.896391258,-0.0317841104701592
1056817.509213657,-0.02666873176701497,1056817.509213657,-0.02672619986430004,1056817.509213657,-0.02682789146296065,1056817.509213657,-0.02698311984013131,1056817.509213657,-0.02720557692988053,1056817.509213657,-0.02751308869385794,1056817.509213657,-0.02792499487508884,1056817.509213657,-0.02845102606439379,1056817.509213657,-0.02909037650383423,1056817.509213657,-0.02978066013300271,1056817.509213657,-0.03044020663136261,1056817.509213657,-0.03098295582639827,1056817.509213657,-0.03138981765803657,1056817.509213657,-0.03166827829238738,1056817.509213657,-0.03185738040850347
1059253.725177287,-0.02673020954076268,1059253.725177287,-0.02678781011568496,1059253.725177287,-0.02688973613767531,1059253.725177287,-0.02704532235318741,1059253.725177287,-0.02726829225945475,1059253.725177287,-0.02757651291120852,1059253.725177287,-0.02798936863418061,1059253.725177287,-0.02851661245051467,1059253.725177287,-0.02915743674480223,1059253.725177287,-0.02984931164192017,1059253.725177287,-0.03051037855181449,1059253.725177287,-0.03105437891280884,1059253.725177287,-0.03146217865770967,1059253.725177287,-0.03174128121002696,1059253.725177287,-0.03193081925147611
1061695.557198723,-0.02679182903539993,1061695.557198723,-0.0268495623933521,1061695.557198723,-0.02695172337907359,1061695.557198723,-0.02710766825782945,1061695.557198723,-0.02733115216277885,1061695.557198723,-0.02764008333646372,1061695.557198723,-0.02805389079009632,1061695.557198723,-0.02858235002885279,1061695.557198723,-0.02922465157557287,1061695.557198723,-0.02991812140889064,1061695.557198723,-0.0305807122352288,1061695.557198723,-0.03112596664641619,1061695.557198723,-0.03153470646669206,1061695.557198723,-0.03181445241674893,1061695.557198723,-0.03200442738844237
1064143.018224314,-0.02685359057762725,1064143.018224314,-0.02691145702470556,1064143.018224314,-0.02701385351580546,1064143.018224314,-0.02717015788460914,1064143.018224314,-0.02739415697312965,1064143.018224314,-0.02770380030666746,1064143.018224314,-0.0281185616849258,1064143.018224314,-0.02864823914794206,1064143.018224314,-0.02929202135251231,1064143.018224314,-0.02998708979873647,1064143.018224314,-0.0306512080545075,1064143.018224314,-0.03119771940677113,1064143.018224314,-0.03160740146951873,1064143.018224314,-0.03188779230049953,1064143.018224314,-0.032078205209665
1066596.121230256,-0.02691549449489787,1066596.121230256,-0.02697349433790449,1066596.121230256,-0.02707612687727859,1066596.121230256,-0.02723279156484004,1066596.121230256,-0.02745730702455223,1066596.121230256,-0.02776766415964064,1066596.121230256,-0.02818338166154759,1066596.121230256,-0.02871428015711986,1066596.121230256,-0.02935954643280823,1066596.121230256,-0.03005621717712105,1066596.121230256,-0.03072186638341225,1066596.121230256,-0.03126963757429947,1066596.121230256,-0.03168026405161112,1066596.121230256,-0.03196130125011929,1066596.121230256,-0.03215215310630649
1069054.879222656,-0.02697754111542016,1069054.879222656,-0.02703567466186426,1069054.879222656,-0.02713854379366001,1069054.879222656,-0.02729556963059961,1069054.879222656,-0.02752060265186172,1069054.879222656,-0.02783167523398289,1069054.879222656,-0.02824835106363055,1069054.879222656,-0.02878047340652892,1069054.879222656,-0.02942722717447172,1069054.879222656,-0.03012550391055063,1069054.879222656,-0.03079268759656627,1069054.879222656,-0.03134172153030397,1069054.879222656,-0.03175329459927925,1069054.879222656,-0.03203497965534513,1069054.879222656,-0.03222627147043099
1071519.305237605,-0.02703973076815893,1071519.305237605,-0.02709799832625872,1071519.305237605,-0.02720110459587783,1071519.305237605,-0.02735849241473069,1071519.305237605,-0.02758404419064508,1071519.305237605,-0.02789583386907437,1071519.305237605,-0.02831347023563589,1071519.305237605,-0.02884681924711909,1071519.305237605,-0.02949506393633914,1071519.305237605,-0.03019495036637641,1071519.305237605,-0.03086367206945638,1071519.305237605,-0.03141397165696637,1071519.305237605,-0.03182649349972352,1071519.305237605,-0.03210882790681239,1071519.305237605,-0.03230056069500646
1073989.412341243,-0.02710206378283724,1073989.412341243,-0.0271604656615216,1073989.412341243,-0.02726380961562311,1073989.412341243,-0.02742156025084352,1073989.412341243,-0.02764763197726289,1073989.412341243,-0.02796014040507767,1073989.412341243,-0.02837873952281875,1073989.412341243,-0.02891331803064921,1073989.412341243,-0.02956305707807411,1073989.412341243,-0.03026455691279641,1073989.412341243,-0.03093482017843499,1073989.412341243,-0.03148638833734945,1073989.412341243,-0.03189986114103703,1073989.412341243,-0.03218284639605696,1073989.412341243,-0.03237502117390675
