;Version, 1, 0
;(VS("/out+") - VS("/out-")) (VCTRL=0.02),;(VS("/out+") - VS("/out-")) (VCTRL=0.04),;(VS("/out+") - VS("/out-")) (VCTRL=0.06),;(VS("/out+") - VS("/out-")) (VCTRL=0.08),;(VS("/out+") - VS("/out-")) (VCTRL=0.1),;(VS("/out+") - VS("/out-")) (VCTRL=0.12),;(VS("/out+") - VS("/out-")) (VCTRL=0.14),;(VS("/out+") - VS("/out-")) (VCTRL=0.16),;(VS("/out+") - VS("/out-")) (VCTRL=0.18),;(VS("/out+") - VS("/out-")) (VCTRL=0.2),;(VS("/out+") - VS("/out-")) (VCTRL=0.22),;(VS("/out+") - VS("/out-")) (VCTRL=0.24),;(VS("/out+") - VS("/out-")) (VCTRL=0.26),;(VS("/out+") - VS("/out-")) (VCTRL=0.28),;(VS("/out+") - VS("/out-")) (VCTRL=0.3)
;X, Y,;X, Y,;X, Y,;X, Y,;X, Y,;X, Y,;X, Y,;X, Y,;X, Y,;X, Y,;X, Y,;X, Y,;X, Y,;X, Y,;X, Y
;Re, Re,;Re, Re,;Re, Re,;Re, Re,;Re, Re,;Re, Re,;Re, Re,;Re, Re,;Re, Re,;Re, Re,;Re, Re,;Re, Re,;Re, Re,;Re, Re,;Re, Re
;vin, V,;vin, V,;vin, V,;vin, V,;vin, V,;vin, V,;vin, V,;vin, V,;vin, V,;vin, V,;vin, V,;vin, V,;vin, V,;vin, V,;vin, V
;xunit, V,;xunit, V,;xunit, V,;xunit, V,;xunit, V,;xunit, V,;xunit, V,;xunit, V,;xunit, V,;xunit, V,;xunit, V,;xunit, V,;xunit, V,;xunit, V,;xunit, V
-0.4,-0.06679468378544762,-0.4,-0.1335880319034861,-0.4,-0.2002916334563902,-0.4,-0.2667333706657011,-0.4,-0.3328042699870739,-0.4,-0.3983483761012483,-0.4,-0.4631993296730286,-0.4,-0.5271594784465927,-0.4,-0.5899821456890308,-0.4,-0.6513770125015268,-0.4,-0.71098609384369,-0.4,-0.7683854968421011,-0.4,-0.8230843634450759,-0.4,-0.8745378019946051,-0.4,-0.9221795650317184
-0.399,-0.06679255796005124,-0.399,-0.1335843314401486,-0.399,-0.2002765163132429,-0.399,-0.2667276732414343,-0.399,-0.3327975275414352,-0.399,-0.3983402805305691,-0.399,-0.4631894187924785,-0.399,-0.5271456591266239,-0.399,-0.5899666679444814,-0.399,-0.6513573312289384,-0.399,-0.7109609603937865,-0.399,-0.7683533426925839,-0.399,-0.8230432979621306,-0.399,-0.8744855949360311,-0.399,-0.9221137098357837
-0.398,-0.06679039604671555,-0.398,-0.1335805722172303,-0.398,-0.2002716681236532,-0.398,-0.2667218898189387,-0.398,-0.3327906829836573,-0.398,-0.3983320685036322,-0.398,-0.4631793862286271,-0.398,-0.5271331981350511,-0.398,-0.5899509873193496,-0.398,-0.6513374172340217,-0.398,-0.7109355322294392,-0.398,-0.7683208106187028,-0.398,-0.8230017370349755,-0.398,-0.8744327583867518,-0.398,-0.9220471171255624
-0.397,-0.06678819933367297,-0.397,-0.1335767524586609,-0.397,-0.200266742664476,-0.397,-0.2667160161907733,-0.397,-0.3327837347714577,-0.397,-0.3983237362579133,-0.397,-0.4631692118950541,-0.397,-0.5271205670098249,-0.397,-0.5899350992731363,-0.397,-0.6513172470505936,-0.397,-0.7109097845480576,-0.397,-0.768287877542275,-0.397,-0.8229596715311238,-0.397,-0.8743792877751949,-0.397,-0.9219797321180694
-0.396,-0.06678596723482477,-0.396,-0.1335728711478452,-0.396,-0.2002617386659395,-0.396,-0.2667100509369196,-0.396,-0.3327766813694972,-0.396,-0.398315282141851,-0.396,-0.4631588940052338,-0.396,-0.5271077637987689,-0.396,-0.589919001645723,-0.396,-0.651296818254593,-0.396,-0.7108837145887993,-0.396,-0.7682545402721835,-0.396,-0.8229170977119673,-0.396,-0.8743251786733378,-0.396,-0.9219115495331027
-0.395,-0.06678369915396121,-0.395,-0.1335689272505007,-0.395,-0.20025665483642,-0.395,-0.2667039926137487,-0.395,-0.3327695212183526,-0.395,-0.3983067044800104,-0.395,-0.4631484307494897,-0.395,-0.5270947865278217,-0.395,-0.5899026922570063,-0.395,-0.6512761284046421,-0.395,-0.7108573195771117,-0.395,-0.7682207956082906,-0.395,-0.8228740118357901,-0.395,-0.8742704266572582,-0.395,-0.9218425641030358
-0.394,-0.06678139448454745,-0.394,-0.1335649197142748,-0.394,-0.2002514898619472,-0.394,-0.2666978397534896,-0.394,-0.3327622527339633,-0.394,-0.3982980015725262,-0.394,-0.4631378202944456,-0.394,-0.5270816332004915,-0.394,-0.5898861689063667,-0.394,-0.6512551750415364,-0.394,-0.7108305967242453,-0.394,-0.7681866403409837,-0.394,-0.822830410157358,-0.394,-0.8742150273067705,-0.394,-0.9217727705724985
-0.393,-0.06677905260949402,-0.393,-0.1335608474683372,-0.393,-0.200246242405693,-0.393,-0.2666915908636764,-0.393,-0.3327548743070623,-0.393,-0.3982891716945298,-0.393,-0.4631270607824529,-0.393,-0.5270683017972968,-0.393,-0.5898694293721158,-0.393,-0.6512339556877175,-0.393,-0.7108035432267457,-0.393,-0.7681520712507054,-0.393,-0.8227862889274797,-0.393,-0.8741589762050427,-0.393,-0.9217021636980461
-0.392,-0.06677667290093181,-0.392,-0.1335567094229717,-0.392,-0.2002409111074526,-0.392,-0.2666852444265788,-0.392,-0.3327473843025954,-0.392,-0.3982802130955592,-0.392,-0.4631161503310084,-0.392,-0.5270547902751852,-0.392,-0.589852471410936,-0.392,-0.6512124678467168,-0.392,-0.7107761562659339,-0.392,-0.7681170851074565,-0.392,-0.8227416443925563,-0.392,-0.8741022689381795,-0.392,-0.9216307382477948
-0.391,-0.06677425471996812,-0.391,-0.1335525044691479,-0.391,-0.200235494583112,-0.391,-0.2666787988986206,-0.391,-0.3327397810591102,-0.391,-0.3982711239989549,-0.391,-0.463105087032144,-0.391,-0.5270410965669348,-0.391,-0.5898352927572859,-0.391,-0.6511907090025908,-0.391,-0.7107484330073561,-0.391,-0.7680816786702851,-0.391,-0.822696472794104,-0.391,-0.8740449010947957,-0.391,-0.9215584890010352
-0.39,-0.06677179741644657,-0.39,-0.1335482314780878,-0.39,-0.2002299914240979,-0.39,-0.2666722527097789,-0.39,-0.3327320628881472,-0.39,-0.3982619026012302,-0.39,-0.463093868951808,-0.39,-0.5270272185805385,-0.39,-0.5898178911228033,-0.39,-0.6511686766193313,-0.39,-0.7107203706002173,-0.39,-0.7680458486867441,-0.39,-0.8226507703682523,-0.39,-0.8739868682655523,-0.39,-0.921485410747816
-0.389,-0.06676930032869755,-0.389,-0.1335438893008201,-0.389,-0.2002244001968152,-0.389,-0.2666656042629678,-0.389,-0.3327242280735951,-0.389,-0.398252547071436,-0.389,-0.4630824941292231,-0.389,-0.527013154198569,-0.389,-0.5898002641956739,-0.389,-0.6511463681402566,-0.389,-0.7106919661767956,-0.389,-0.7680095918923321,-0.389,-0.8226045333452116,-0.389,-0.8739281660426637,-0.389,-0.9214114982884895
-0.388,-0.06676676278328109,-0.388,-0.1335394767677225,-0.388,-0.200218719442071,-0.388,-0.2666588519334081,-0.388,-0.3327162748710468,-0.388,-0.398243055550499,-0.388,-0.4630709605762289,-0.388,-0.5269989012775276,-0.388,-0.5897824096399905,-0.388,-0.6511237809873752,-0.388,-0.7106632168518271,-0.388,-0.7679729050099066,-0.388,-0.8225577579487184,-0.388,-0.8738687900193806,-0.388,-0.9213367464332298
-0.387,-0.0667641840947264,-0.387,-0.1335349926880542,-0.387,-0.2002129476744869,-0.387,-0.2666519940679808,-0.387,-0.3327082015071245,-0.387,-0.3982334261505456,-0.387,-0.4630592662766031,-0.387,-0.5269844576471654,-0.387,-0.5897643250950859,-0.387,-0.6511009125607417,-0.387,-0.7106341197218724,-0.387,-0.76793578474907,-0.387,-0.822510440395453,-0.387,-0.8738087357894301,-0.387,-0.9212611500015023
-0.386,-0.06676156356526652,-0.386,-0.1335304358494793,-0.386,-0.2002070833818899,-0.386,-0.2666450289845654,-0.386,-0.3327000061787979,-0.386,-0.3982236569542101,-0.386,-0.4630474091853718,-0.386,-0.5269698211098002,-0.386,-0.5897460081748497,-0.386,-0.6510777602377736,-0.386,-0.7106046718646547,-0.386,-0.7678982278055291,-0.386,-0.8224625768944187,-0.386,-0.8737479989464274,-0.386,-0.9211847038215047
-0.385,-0.06675890048456523,-0.385,-0.1335258050175772,-0.385,-0.2002011250246993,-0.385,-0.2666379549713631,-0.385,-0.3326916870526819,-0.385,-0.398213746013923,-0.385,-0.4630353872280915,-0.385,-0.5269549894395975,-0.385,-0.5897274564670227,-0.385,-0.6510543213725599,-0.385,-0.7105748703383763,-0.385,-0.7678602308604274,-0.385,-0.8224141636462932,-0.385,-0.8736865750832497,-0.385,-0.921107402729554
-0.384,-0.06675619412943967,-0.384,-0.1335210989353446,-0.384,-0.2001950710352935,-0.384,-0.2666307702861987,-0.384,-0.3326832422643147,-0.384,-0.3982036913511826,-0.384,-0.4630231983001176,-0.384,-0.5269399603818412,-0.384,-0.5897086675324605,-0.384,-0.6510305932951329,-0.384,-0.7105447121810056,-0.384,-0.7678217905796415,-0.384,-0.8223651968427484,-0.384,-0.8736244597913676,-0.384,-0.9210292415694361
-0.383,-0.06675344376357417,-0.383,-0.1335163163226856,-0.383,-0.2001889198173628,-0.383,-0.2666234731558137,-0.383,-0.3326746699174279,-0.383,-0.3981934909558063,-0.383,-0.463010840265857,-0.383,-0.5269247316521835,-0.383,-0.5896896389043953,-0.383,-0.6510065733107271,-0.383,-0.7105141944095373,-0.383,-0.7677829036130629,-0.383,-0.82231567266573,-0.383,-0.8735616486601406,-0.383,-0.9209502151917035
-0.382,-0.06675064863723401,-0.382,-0.133511455875891,-0.382,-0.2001826697452516,-0.382,-0.2666160617751421,-0.382,-0.3326659680831838,-0.382,-0.3981831427851668,-0.382,-0.4629983109579907,-0.382,-0.5269093009358676,-0.382,-0.5896703680876521,-0.382,-0.6509822586990062,-0.382,-0.7104833140192298,-0.382,-0.767743566593826,-0.382,-0.8222655872867055,-0.382,-0.8734981372760651,-0.382,-0.9208703184529251
-0.381,-0.06674780798696855,-0.381,-0.1335065162671081,-0.381,-0.2001763191632826,-0.381,-0.2666085343065625,-0.381,-0.3326571347994105,-0.381,-0.3981726447634071,-0.381,-0.4629856081766892,-0.381,-0.5268936658869374,-0.381,-0.5896508525578597,-0.381,-0.6509576467132661,-0.381,-0.7104520679828056,-0.381,-0.7677037761375222,-0.381,-0.8222149368658728,-0.381,-0.8734339212219874,-0.381,-0.9207895462148861
-0.38,-0.06674492103531215,-0.38,-0.1335014961437977,-0.38,-0.2001698663850642,-0.38,-0.2666008888791418,-0.38,-0.3326481680698081,-0.38,-0.3981619947806345,-0.38,-0.462972729688796,-0.38,-0.5268778241274163,-0.38,-0.5896310897606263,-0.38,-0.6509327345796126,-0.38,-0.7104204532496298,-0.38,-0.7676635288413713,-0.38,-0.8221637175513319,-0.38,-0.8733689960762617,-0.38,-0.9207078933437371
-0.379,-0.06674198699047373,-0.379,-0.1334963941281799,-0.379,-0.2001633096927922,-0.379,-0.2665931235878567,-0.379,-0.3326390658631435,-0.379,-0.3981511906921007,-0.379,-0.4629596732269954,-0.379,-0.5268617732464707,-0.379,-0.5896110771106948,-0.379,-0.6509075194961133,-0.379,-0.7103884667448537,-0.379,-0.7676228212833593,-0.379,-0.822111925478211,-0.379,-0.8733033574118694,-0.379,-0.920625354709081
-0.378,-0.06673900504602837,-0.378,-0.1334912088166709,-0.378,-0.2001566473365237,-0.378,-0.2665852364927994,-0.378,-0.3326298261124156,-0.378,-0.3981402303173522,-0.378,-0.4629464364889626,-0.378,-0.5268455107995489,-0.378,-0.5895908119910754,-0.378,-0.6508819986319151,-0.378,-0.7103561053685279,-0.378,-0.7675816500213477,-0.378,-0.8220595567677649,-0.378,-0.873237000795491,-0.378,-0.9205419251830175
-0.377,-0.06673597438059176,-0.377,-0.1334859387793033,-0.377,-0.2001498775334447,-0.377,-0.2665772256183625,-0.377,-0.3326204467140161,-0.377,-0.3981291114393717,-0.377,-0.4629330171364809,-0.377,-0.52682903430749,-0.377,-0.5895702917521483,-0.377,-0.6508561691263426,-0.377,-0.710323365994689,-0.377,-0.7675400115921363,-0.377,-0.8220066075264177,-0.377,-0.8731699217865247,-0.377,-0.9204575996391194
-0.376,-0.06673289415750272,-0.376,-0.1334805825591387,-0.376,-0.2001429984671148,-0.376,-0.2665690889524082,-0.376,-0.3326109255268532,-0.376,-0.3981178318036844,-0.376,-0.4629194127945471,-0.376,-0.5268123412556178,-0.376,-0.5895495137107405,-0.376,-0.6508300280879618,-0.376,-0.7102902454704068,-0.376,-0.767497902510498,-0.376,-0.8219530738447752,-0.376,-0.8731021159360643,-0.376,-0.9203723729513611
-0.375,-0.06672976352448257,-0.375,-0.1334751386716668,-0.375,-0.2001360082867014,-0.375,-0.2665608244454161,-0.375,-0.3326012603714708,-0.375,-0.3981063891174577,-0.375,-0.4629056210504474,-0.375,-0.526795429092805,-0.375,-0.5895284751491786,-0.375,-0.6508035725936148,-0.375,-0.7102567406148008,-0.375,-0.7674553192681707,-0.375,-0.8218989517965823,-0.375,-0.8730335787858171,-0.375,-0.9202862399929806
-0.374,-0.06672658161330114,-0.374,-0.1334696056041871,-0.374,-0.2001289051061892,-0.374,-0.2665524300096149,-0.374,-0.3325914490291322,-0.374,-0.3980947810485607,-0.374,-0.4628916394528106,-0.374,-0.5267782952305089,-0.374,-0.5895071733143135,-0.374,-0.6507767996874266,-0.374,-0.7102228482180259,-0.374,-0.7674122583328192,-0.374,-0.821844237437652,-0.374,-0.8729643058669821,-0.374,-0.9201991956352883
-0.373,-0.06672334753943021,-0.373,-0.1334639818151855,-0.373,-0.2001216870035805,-0.373,-0.266543903518085,-0.373,-0.33258148924089,-0.373,-0.3980830052246205,-0.373,-0.4628774655106385,-0.373,-0.5267609370417914,-0.373,-0.5894856054165112,-0.373,-0.6507497063797765,-0.373,-0.7101885650402192,-0.373,-0.7673687161469428,-0.373,-0.8217889268047343,-0.373,-0.8728942926990658,-0.373,-0.9201112347464127
-0.372,-0.06672006040168776,-0.372,-0.13345826573369,-0.372,-0.200114352020069,-0.372,-0.2665352428038537,-0.372,-0.3325713787066327,-0.372,-0.3980710592320349,-0.372,-0.4628630966923077,-0.372,-0.5267433518602944,-0.372,-0.5894637686286218,-0.372,-0.6507222896462427,-0.372,-0.7101538878104157,-0.372,-0.7673246891267615,-0.372,-0.8217330159143518,-0.372,-0.8728235347886575,-0.372,-0.9200223521899888
-0.371,-0.06671671928187939,-0.371,-0.1334524557586185,-0.371,-0.2001068981592022,-0.371,-0.2665264456589549,-0.371,-0.3325611150841057,-0.371,-0.3980589406149753,-0.371,-0.4628485304245513,-0.371,-0.5267255369792092,-0.371,-0.5894416600849183,-0.371,-0.650694546426512,-0.371,-0.7101188132254248,-0.371,-0.7672801736610499,-0.371,-0.8216765007615826,-0.371,-0.8727520276281406,-0.371,-0.9199325428237811
-0.37,-0.06671332324443191,-0.37,-0.1334465502581066,-0.37,-0.2000993233860187,-0.37,-0.2665175098334747,-0.37,-0.3325506959879114,-0.37,-0.398046646874356,-0.37,-0.4628337640914053,-0.37,-0.5267074896501984,-0.37,-0.5894192768799956,-0.37,-0.6506664736232547,-0.37,-0.710083337948674,-0.37,-0.7672351661099311,-0.37,-0.821619377318799,-0.37,-0.8726797666943609,-0.37,-0.9198418014982471
-0.369,-0.06670987133601392,-0.369,-0.1334405475688238,-0.369,-0.2000916256261687,-0.369,-0.2665084330345757,-0.369,-0.3325401189884805,-0.369,-0.3980341754667851,-0.369,-0.4628187950331368,-0.369,-0.5266892070823042,-0.369,-0.5893966160676531,-0.369,-0.6506380681009718,-0.369,-0.710047458609008,-0.369,-0.7671896628036392,-0.369,-0.8215616415343622,-0.369,-0.8726067474472323,-0.369,-0.9197501230550397
-0.368,-0.06670636258515295,-0.368,-0.1334344459952757,-0.368,-0.2000838027650158,-0.368,-0.2664992129254922,-0.368,-0.3325293816110224,-0.368,-0.3980215238034774,-0.368,-0.4628036205451389,-0.368,-0.5266706864408122,-0.368,-0.5893736746597332,-0.368,-0.6506093266847973,-0.368,-0.710011171799463,-0.368,-0.7671436600412244,-0.368,-0.8215032893312634,-0.368,-0.8725329653282946,-0.368,-0.9196575023254471
-0.367,-0.06670279600184625,-0.367,-0.1334282438090879,-0.367,-0.2000758526467128,-0.367,-0.2664898471245007,-0.367,-0.3325184813344466,-0.367,-0.3980086892491534,-0.367,-0.4627882378767965,-0.367,-0.526651924846099,-0.367,-0.5893504496249322,-0.367,-0.6505802461592805,-0.367,-0.7099744740759867,-0.367,-0.767097154089228,-0.367,-0.8214443166057211,-0.367,-0.8724584157592141,-0.367,-0.9195639341287652
-0.366,-0.0666991705771558,-0.366,-0.1334219392482736,-0.366,-0.2000677730732598,-0.366,-0.2664803332038768,-0.366,-0.3325074155902621,-0.366,-0.3979956691208986,-0.366,-0.4627726442303264,-0.366,-0.5266329193724402,-0.366,-0.5893269378875809,-0.366,-0.6505508232671137,-0.366,-0.7099373619561322,-0.366,-0.7670501411803063,-0.366,-0.8213847192257302,-0.366,-0.8723830941402271,-0.366,-0.9194694132706146
-0.365,-0.06669548528280078,-0.365,-0.1334155305164881,-0.365,-0.2000595618035383,-0.365,-0.2664706686888083,-0.365,-0.3324961817614405,-0.365,-0.397982460687003,-0.365,-0.4627568367595858,-0.365,-0.5266136670467869,-0.365,-0.589303136326386,-0.365,-0.6505210547078417,-0.365,-0.7098998319177061,-0.365,-0.7670026175118179,-0.365,-0.8213244930295586,-0.365,-0.8723069958485334,-0.365,-0.9193739345411837
-0.364,-0.06669173907074133,-0.364,-0.1334090157822636,-0.364,-0.2000512165523258,-0.364,-0.2664608510563009,-0.364,-0.3324847771812593,-0.364,-0.3979690611657636,-0.364,-0.4627408125688428,-0.364,-0.526594164847513,-0.364,-0.5892790417731385,-0.364,-0.6504909371365204,-0.364,-0.7098618803973767,-0.364,-0.7669545792443538,-0.364,-0.8212636338241962,-0.364,-0.8722301162366236,-0.364,-0.9192774927134182
-0.363,-0.06668793087274705,-0.363,-0.1334023931782258,-0.363,-0.2000427349892788,-0.363,-0.2664508777340431,-0.363,-0.3324731991321159,-0.363,-0.3979554677242623,-0.363,-0.4627245687115302,-0.363,-0.5265744097031266,-0.363,-0.5892546510113867,-0.363,-0.6504604671623453,-0.363,-0.7098235037892373,-0.363,-0.7669060225002391,-0.363,-0.8212021373837539,-0.363,-0.8721524506305609,-0.363,-0.919180082541138
-0.362,-0.06668405959996249,-0.362,-0.1333956608002953,-0.362,-0.2000341147379032,-0.362,-0.2664407460992499,-0.362,-0.3324614448443024,-0.362,-0.3979416774771087,-0.362,-0.4627081021889499,-0.362,-0.526554398490948,-0.362,-0.5892299607750768,-0.362,-0.6504296413472371,-0.362,-0.7097846984433382,-0.362,-0.7668569433619749,-0.362,-0.8211399994478079,-0.362,-0.8720739943282013,-0.362,-0.9190816987570954
-0.361,-0.06668012414245927,-0.361,-0.1333888167068671,-0.361,-0.2000253533744905,-0.361,-0.2664304534774757,-0.361,-0.3324495114947632,-0.361,-0.3979276874851521,-0.361,-0.4626914099489541,-0.361,-0.5265341280357501,-0.361,-0.5892049677471458,-0.361,-0.6503984562043881,-0.361,-0.709745460664164,-0.361,-0.7668073378706368,-0.361,-0.8210772157196981,-0.361,-0.8719947425973481,-0.361,-0.9189823360709607
-0.36,-0.06667612336877893,-0.36,-0.1333818589179754,-0.36,-0.200016448427031,-0.36,-0.266419997141399,-0.36,-0.3324373962058083,-0.36,-0.3979134947541603,-0.36,-0.4626744888845915,-0.36,-0.5265135951083657,-0.36,-0.5891796685580883,-0.36,-0.65036690819677,-0.36,-0.709705786709072,-0.36,-0.7667572020242311,-0.36,-0.8210137818647714,-0.36,-0.871914690673865,-0.36,-0.9188819891672523
-0.359,-0.06667205612546678,-0.359,-0.133374785414434,-0.359,-0.2000073973741037,-0.359,-0.2664093743095772,-0.359,-0.3324250960438055,-0.359,-0.3978990962334661,-0.359,-0.4626573358327113,-0.359,-0.5264927964242594,-0.359,-0.5891540597844809,-0.359,-0.650334993735599,-0.359,-0.7096656727866886,-0.359,-0.7667065317759995,-0.359,-0.8209496935085681,-0.359,-0.871833833759713,-0.359,-0.91878065270319
-0.358,-0.0666679212365926,-0.358,-0.1333675941369612,-0.358,-0.1999981976437353,-0.358,-0.2663985821451675,-0.358,-0.3324126080178307,-0.358,-0.3978844888145747,-0.358,-0.4626399475725393,-0.358,-0.5264717286420544,-0.358,-0.5891281379474583,-0.358,-0.6503027091787581,-0.358,-0.7096251150552613,-0.358,-0.7666553230326707,-0.358,-0.8208849462349671,-0.358,-0.8717521670209407,-0.358,-0.9186783213064896
-0.357,-0.06666371750326161,-0.357,-0.1333602829852782,-0.357,-0.1999888466122328,-0.357,-0.2663876177546194,-0.357,-0.3323999290782875,-0.357,-0.397869669329741,-0.357,-0.462622320824212,-0.357,-0.52645038836203,-0.357,-0.5891018995111624,-0.357,-0.6502700508291795,-0.357,-0.7095841096209551,-0.357,-0.7666035716526712,-0.357,-0.8208195355842586,-0.357,-0.8716696855856101,-0.357,-0.9185749895730898
-0.356,-0.06665944370311538,-0.356,-0.1333528498171965,-0.356,-0.1999793416029896,-0.356,-0.2663764781863331,-0.356,-0.332387056115494,-0.356,-0.3978546345505058,-0.356,-0.462604452247273,-0.356,-0.5264287721245702,-0.356,-0.5890753408811409,-0.356,-0.6502370149331778,-0.356,-0.7095426525361147,-0.356,-0.7665512734442788,-0.356,-0.8207534570511787,-0.356,-0.8715863845416578,-0.356,-0.9184706520648074
-0.355,-0.06665509858981911,-0.355,-0.133345292447669,-0.355,-0.1999696798852573,-0.355,-0.2663651604292829,-0.355,-0.3323739859582266,-0.355,-0.3978393811861971,-0.355,-0.4625863384391316,-0.355,-0.5264068764085801,-0.355,-0.5890484584027021,-0.355,-0.6502035976787434,-0.355,-0.7095007397974697,-0.355,-0.766498424163726,-0.355,-0.82068670608288,-0.355,-0.8715022589347038,-0.355,-0.9183653033069288
