;Version, 1, 0
;vout_dc_sweep (VCTRL=0.05),;vout_dc_sweep (VCTRL=0.1),;vout_dc_sweep (VCTRL=0.15),;vout_dc_sweep (VCTRL=0.2),;vout_dc_sweep (VCTRL=0.25),;vout_dc_sweep (VCTRL=0.3),;vout_dc_sweep (VCTRL=0.35),;vout_dc_sweep (VCTRL=0.4)
;X, Y,;X, Y,;X, Y,;X, Y,;X, Y,;X, Y,;X, Y,;X, Y
;Re, Re,;Re, Re,;Re, Re,;Re, Re,;Re, Re,;Re, Re,;Re, Re,;Re, Re
;vin, V,;vin, V,;vin, V,;vin, V,;vin, V,;vin, V,;vin, V,;vin, V
;xunit, V,;xunit, V,;xunit, V,;xunit, V,;xunit, V,;xunit, V,;xunit, V,;xunit, V
-0.3,-0.07366883360015608,-0.3,-0.1595506175839021,-0.3,-0.2688069511577804,-0.3,-0.3821684349107668,-0.3,-0.4707569921598623,-0.3,-0.5380628749972393,-0.3,-0.5883272575856775,-0.3,-0.624529313481197
-0.288,-0.07176994700377404,-0.288,-0.1553596506792783,-0.288,-0.2621251949867944,-0.288,-0.3749478487413169,-0.288,-0.463708270874684,-0.288,-0.5308227668148645,-0.288,-0.5808933631833337,-0.288,-0.6162482975469303
-0.276,-0.06979371251311073,-0.276,-0.1510005464354263,-0.276,-0.255138192970501,-0.276,-0.3672298553922642,-0.276,-0.4561369052619091,-0.276,-0.5231760525766201,-0.276,-0.572831503993165,-0.276,-0.6074645849072353
-0.264,-0.06773705533458374,-0.264,-0.1464644194585436,-0.264,-0.2477946512300111,-0.264,-0.3589653020250303,-0.264,-0.4479791987350406,-0.264,-0.514895339077714,-0.264,-0.5640504790108493,-0.264,-0.5978469161376951
-0.2519999999999999,-0.06559516416413858,-0.2519999999999999,-0.1417413590986543,-0.2519999999999999,-0.2400749671686064,-0.2519999999999999,-0.350099686764614,-0.2519999999999999,-0.4391646310154117,-0.2519999999999999,-0.505894945948361,-0.2519999999999999,-0.5544416192259445,-0.2519999999999999,-0.5872603685147185
-0.2399999999999999,-0.0633627377267727,-0.2399999999999999,-0.136820416133739,-0.2399999999999999,-0.2319582101023856,-0.2399999999999999,-0.3405714950432099,-0.2399999999999999,-0.4296101436044663,-0.2399999999999999,-0.4960707216239443,-0.2399999999999999,-0.5438706152643972,-0.2399999999999999,-0.5755362386090533
-0.2279999999999999,-0.0610339105434754,-0.2279999999999999,-0.1316894300109985,-0.2279999999999999,-0.2234218856533423,-0.2279999999999999,-0.330311263367784,-0.2279999999999999,-0.4192171161146622,-0.2279999999999999,-0.4852947526381416,-0.2279999999999999,-0.5321689816965055,-0.2279999999999999,-0.5624600640361052
-0.2159999999999999,-0.05860217052914751,-0.2159999999999999,-0.1263348398899158,-0.2159999999999999,-0.214441673154417,-0.2159999999999999,-0.3192407339609786,-0.2159999999999999,-0.4078675485710315,-0.2159999999999999,-0.4734082478938142,-0.2159999999999999,-0.5191217855613632,-0.2159999999999999,-0.5477543131443462
-0.2039999999999999,-0.0560602803637702,-0.2039999999999999,-0.1207415186553085,-0.2039999999999999,-0.2049912573799566,-0.2039999999999999,-0.3072725963810083,-0.2039999999999999,-0.3954196732492338,-0.2039999999999999,-0.4602133534665723,-0.2039999999999999,-0.5044505852907083,-0.2039999999999999,-0.5310547369748163
-0.1919999999999999,-0.0534002506201896,-0.1919999999999999,-0.1148927876114709,-0.1919999999999999,-0.195042779015129,-0.1919999999999999,-0.2943126921076271,-0.1919999999999999,-0.3817054021311086,-0.1919999999999999,-0.4454629426371067,-0.1919999999999999,-0.4877964293483537,-0.1919999999999999,-0.5118957187878989
-0.1799999999999999,-0.05061355723576977,-0.1799999999999999,-0.1087712627845638,-0.1799999999999999,-0.1845702047363638,-0.1799999999999999,-0.2802727721907847,-0.1799999999999999,-0.3665447718089918,-0.1799999999999999,-0.4288757042071467,-0.1799999999999999,-0.4687570135504289,-0.1799999999999999,-0.4898603601288584
-0.1679999999999999,-0.04769241319196471,-0.1679999999999999,-0.1023632740672502,-0.1679999999999999,-0.1735648493846265,-0.1679999999999999,-0.2651212058228409,-0.1679999999999999,-0.3498326756476506,-0.1679999999999999,-0.4102789431531045,-0.1679999999999999,-0.4471714352163082,-0.1679999999999999,-0.4650899165669663
-0.1559999999999999,-0.04463497102457792,-0.1559999999999999,-0.0956749388378344,-0.1559999999999999,-0.1620771958239577,-0.1559999999999999,-0.2489643465384419,-0.1559999999999999,-0.3316508697379481,-0.1559999999999999,-0.3897689293967421,-0.1559999999999999,-0.4232789819488187,-0.1559999999999999,-0.4380843564571865
-0.1439999999999999,-0.04145646012313531,-0.1439999999999999,-0.08875477365711792,-0.1439999999999999,-0.150228955310902,-0.1439999999999999,-0.2319912999840354,-0.1439999999999999,-0.3121417521658005,-0.1439999999999999,-0.3674961983531051,-0.1439999999999999,-0.3973447351457332,-0.1439999999999999,-0.4092501155925141
-0.1319999999999998,-0.03818754534256885,-0.1319999999999998,-0.08167180874099755,-0.1319999999999998,-0.1381377390118865,-0.1319999999999998,-0.2143617112728058,-0.1319999999999998,-0.2913955746345371,-0.1319999999999998,-0.3435507012236831,-0.1319999999999998,-0.3695895044181572,-0.1319999999999998,-0.3789181476960015
-0.1199999999999998,-0.03485476293507439,-0.1199999999999998,-0.07447717641943563,-0.1199999999999998,-0.1258822756782363,-0.1199999999999998,-0.196198550067648,-0.1199999999999998,-0.2694691020083375,-0.1199999999999998,-0.3180012352768555,-0.1199999999999998,-0.3402314882335939,-0.1199999999999998,-0.3473668431721497
-0.1079999999999998,-0.03147525745286894,-0.1079999999999998,-0.06720319447183543,-0.1079999999999998,-0.1135143758883497,-0.1079999999999998,-0.1776016335815078,-0.1079999999999998,-0.246406064231887,-0.1079999999999998,-0.2909216448015577,-0.1079999999999998,-0.3094921138629734,-0.1079999999999998,-0.3148274731700977
-0.09599999999999985,-0.02806029369880392,-0.09599999999999985,-0.05987097763251437,-0.09599999999999985,-0.1010687919977862,-0.09599999999999985,-0.1586532525600219,-0.09599999999999985,-0.2222492268023484,-0.09599999999999985,-0.2624046330959862,-0.09599999999999985,-0.2775883631107416,-0.09599999999999985,-0.2814896490056391
-0.08399999999999985,-0.0246175394271011,-0.08399999999999985,-0.05249447271216234,-0.08399999999999985,-0.08856826986828281,-0.08399999999999985,-0.1394206403729312,-0.08399999999999985,-0.197051527143685,-0.08399999999999985,-0.2325681259325207,-0.08399999999999985,-0.2447225207890908,-0.08399999999999985,-0.2475079158592066
-0.07199999999999986,-0.02115220523476102,-0.07199999999999986,-0.04508260280039389,-0.07199999999999986,-0.07602663692511302,-0.07199999999999986,-0.1199575536542412,-0.07199999999999986,-0.1708877491822762,-0.07199999999999986,-0.2015546180016397,-0.07199999999999986,-0.2110747036250205,-0.07199999999999986,-0.2130085035300031
-0.05999999999999986,-0.01766771935781764,-0.05999999999999986,-0.03764060946556325,-0.05999999999999986,-0.06345094152758923,-0.05999999999999986,-0.100305628990605,-0.05999999999999986,-0.1438589439259741,-0.05999999999999986,-0.1695246984186094,-0.05999999999999986,-0.1768000163306731,-0.05999999999999986,-0.1780955042380643
-0.04799999999999986,-0.01416617660381481,-0.04799999999999986,-0.03017096738366121,-0.04799999999999986,-0.05084301110151856,-0.04799999999999986,-0.08049574002351734,-0.04799999999999986,-0.1160831225662551,-0.04799999999999986,-0.1366477164565045,-0.04799999999999986,-0.1420296825930059,-0.04799999999999986,-0.1428563080127045
-0.03599999999999987,-0.0106486529848504,-0.03599999999999987,-0.02267402995926338,-0.03599999999999987,-0.03820060908431699,-0.03599999999999987,-0.06054943104092825,-0.03599999999999987,-0.08768414314738138,-0.03599999999999987,-0.10309382069897,-0.03599999999999987,-0.1068745436842995,-0.03599999999999987,-0.1073662819999388
-0.02399999999999987,-0.007115431506521386,-0.02399999999999987,-0.01514849183727685,-0.02399999999999987,-0.02551830146213696,-0.02399999999999987,-0.0404804406232302,-0.02399999999999987,-0.05878708776959285,-0.02399999999999987,-0.06903046115265954,-0.02399999999999987,-0.07142954785641065,-0.02399999999999987,-0.07169128182466489
-0.01199999999999986,-0.003566166120284597,-0.01199999999999986,-0.007591722004227197,-0.01199999999999986,-0.01278810974789835,-0.01199999999999986,-0.020296303515283,-0.01199999999999986,-0.0295172645093551,-0.01199999999999986,-0.03461766030021352,-0.01199999999999986,-0.03577860967422297,-0.01199999999999986,-0.03588690803431538
0,-1.435634278124098e-09,0,-3.486972488531137e-09,0,-7.247855871028719e-09,0,-1.297735652272536e-08,0,-5.387034596182616e-09,0,-2.038906377066496e-09,0,-2.606408200378496e-09,0,-1.824096429459132e-10
0.012,0.003584339799337588,0.012,0.007631295291382623,0.012,0.01285769739008091,0.012,0.02040827130930167,0.012,0.02963964611027392,0.012,0.0346919281036846,0.012,0.03582901399782612,0.012,0.03592750934293609
0.024,0.007188493031540899,0.024,0.01530759961081585,0.024,0.02579805376831534,0.024,0.04092948117090645,0.024,0.05927751257930369,0.024,0.06933322313328949,0.024,0.07163384968066033,0.024,0.07185563680401952
0.036,0.01081440603525841,0.036,0.02303504493155351,0.036,0.03883521018925618,0.036,0.06156387676048669,0.036,0.08879104224985324,0.036,0.1037963971106342,0.036,0.1073453553252239,0.036,0.1077431883300877
0.048,0.01446430646715524,0.048,0.03082042090033021,0.048,0.05198417360277041,0.048,0.08230928599256737,0.048,0.1180601135769348,0.048,0.1379478300650729,0.048,0.1428963228957161,0.048,0.1435440777404258
0.06,0.01814067959445365,0.06,0.03867113514901455,0.06,0.06526056272958547,0.06,0.1031593913722504,0.06,0.1469678315444007,0.06,0.1716518557622504,0.06,0.1782169439990593,0.06,0.179208491654113
0.07199999999999999,0.02184625371620874,0.07199999999999999,0.04659519042621763,0.07199999999999999,0.07868032758905619,0.07199999999999999,0.1241021387792214,0.07199999999999999,0.1754016026309217,0.07199999999999999,0.204774385453073,0.07199999999999999,0.2132312424621019,0.07199999999999999,0.214685750617188
0.08399999999999999,0.02558399130831135,0.08399999999999999,0.05460116921018887,0.08399999999999999,0.09225940715832537,0.08399999999999999,0.1451183757574861,0.08399999999999999,0.2032557635286671,0.08399999999999999,0.2371843105101337,0.08399999999999999,0.2478541083811627,0.08399999999999999,0.2499230621559194
0.09599999999999999,0.02935708423675076,0.09599999999999999,0.06269821997326508,0.09599999999999999,0.1060132949540176,0.09599999999999999,0.1661808533979168,0.09599999999999999,0.2304383745584653,0.09599999999999999,0.2687580905104385,0.09599999999999999,0.2819889805112685,0.09599999999999999,0.284863266958499
0.108,0.03316895153774801,0.108,0.0708960387279669,0.108,0.1199564809224309,0.108,0.1872537335527991,0.108,0.2568811702030449,0.108,0.2993869400886957,0.108,0.3155267744504706,0.108,0.319442809392773
0.12,0.03702323827658427,0.12,0.07920483835981695,0.12,0.134101738651957,0.12,0.2082927207699465,0.12,0.2825431663689222,0.12,0.328983967035301,0.12,0.3483470617803504,0.12,0.3535898301223188
0.132,0.04092381387409016,0.132,0.08763529648398194,0.132,0.1484592317839251,0.132,0.2292458828534429,0.132,0.3074052533355005,0.132,0.3574890537263258,0.132,0.3803225371925576,0.132,0.3872223575658706
0.144,0.04487476802393164,0.144,0.09619847007302162,0.144,0.1630354255171458,0.144,0.2500551473520782,0.144,0.3314633285408524,0.144,0.3848702385336877,0.144,0.4113271448761726,0.144,0.4202468582221974
0.156,0.04888040189763121,0.156,0.1049056618150785,0.156,0.1778318115825814,0.156,0.2706583939704079,0.156,0.3547233304488475,0.156,0.4111215786361881,0.156,0.4412468377894939,0.156,0.4525578190999093
0.168,0.05294521172062239,0.168,0.1137682190445299,0.168,0.1928434906973175,0.168,0.2909920451982528,0.168,0.3771976985686372,0.168,0.4362584639449637,0.168,0.4699903682134581,0.168,0.4840395226620421
0.18,0.05707386096600531,0.18,0.12279724122981,0.18,0.208057705433542,0.18,0.3109940948262926,0.18,0.3989026838121834,0.18,0.460311748848464,0.18,0.4974969714701458,0.18,0.5145708668157726
0.192,0.061271136311281,0.192,0.1320031667411836,0.192,0.2234524734803867,0.192,0.330607453769207,0.192,0.4198562695902783,0.192,0.4833219007894515,0.192,0.5237396911684435,0.192,0.5440337712895886
0.204,0.06554567168863934,0.204,0.1414031502592594,0.204,0.2390061479362247,0.204,0.3497917346469113,0.204,0.4400819923385528,0.204,0.5053357131855333,0.204,0.5487221222879248,0.204,0.5723239589221807
0.2160000000000001,0.06992088121070883,0.2160000000000001,0.1510515765849423,0.2160000000000001,0.2547624076922341,0.2160000000000001,0.3686234933567156,0.2160000000000001,0.4597162119111052,0.2160000000000001,0.5264927520405938,0.2160000000000001,0.5725207174072164,0.2160000000000001,0.5993543059456344
0.2280000000000001,0.07440341803663375,0.2280000000000001,0.1609587780221178,0.2280000000000001,0.2706750678549987,0.2280000000000001,0.3870858424449344,0.2280000000000001,0.4787981346169633,0.2280000000000001,0.5468735921900564,0.2280000000000001,0.5952203234663139,0.2280000000000001,0.62509798391459
0.2400000000000001,0.07899713529355812,0.2400000000000001,0.1711227081480218,0.2400000000000001,0.2866663157873963,0.2400000000000001,0.4051309055243926,0.2400000000000001,0.4973167195397938,0.2400000000000001,0.5665047514379182,0.2400000000000001,0.6168820577668286,0.2400000000000001,0.6495712543461948
0.2520000000000001,0.08370479541601594,0.2520000000000001,0.1815334644233209,0.2520000000000001,0.302646566442081,0.2520000000000001,0.4227123985020309,0.2520000000000001,0.5152544009372639,0.2520000000000001,0.5854023024994716,0.2520000000000001,0.6375564140743897,0.2520000000000001,0.6728052874417774
0.2640000000000001,0.08852763215169679,0.2640000000000001,0.1921710699053392,0.2640000000000001,0.3185180338918232,0.2640000000000001,0.4397850960900644,0.2640000000000001,0.5325856481183608,0.2640000000000001,0.6035716057317516,0.2640000000000001,0.6572823699320673,0.2640000000000001,0.6948384419239665
0.2760000000000001,0.0934647864093745,0.2760000000000001,0.2030032069374974,0.2760000000000001,0.3341788836542223,0.2760000000000001,0.4563045313619949,0.2760000000000001,0.5492914847259068,0.2760000000000001,0.6210090709608961,0.2760000000000001,0.6760874948698894,0.2760000000000001,0.7157096748525669
0.2880000000000001,0.09851258924352746,0.2880000000000001,0.2139831918496031,0.2880000000000001,0.3495272968942094,0.2880000000000001,0.4722268684038957,0.2880000000000001,0.5653470362976292,0.2880000000000001,0.6377052765628046,0.2880000000000001,0.6939888500125015,0.2880000000000001,0.7354540628451535
0.3,0.1036636860901299,0.3,0.2250486451599969,0.3,0.3644649193780252,0.3,0.4875089037078455,0.3,0.5807227157526919,0.3,0.6536453246306889,0.3,0.7109942932437443,0.3,0.7541002976994212
