;Version, 1, 0
;deriv(IS("/I15/VDD_kojima")) (Vref=-0.5),;deriv(IS("/I15/VDD_kojima")) (Vref=-0.45),;deriv(IS("/I15/VDD_kojima")) (Vref=-0.4),;deriv(IS("/I15/VDD_kojima")) (Vref=-0.35),;deriv(IS("/I15/VDD_kojima")) (Vref=-0.3),;deriv(IS("/I15/VDD_kojima")) (Vref=-0.25),;deriv(IS("/I15/VDD_kojima")) (Vref=-0.2),;deriv(IS("/I15/VDD_kojima")) (Vref=-0.15),;deriv(IS("/I15/VDD_kojima")) (Vref=-0.1),;deriv(IS("/I15/VDD_kojima")) (Vref=-0.05),;deriv(IS("/I15/VDD_kojima")) (Vref=-6.938894e-17),;deriv(IS("/I15/VDD_kojima")) (Vref=0.05),;deriv(IS("/I15/VDD_kojima")) (Vref=0.1),;deriv(IS("/I15/VDD_kojima")) (Vref=0.15),;deriv(IS("/I15/VDD_kojima")) (Vref=0.2),;deriv(IS("/I15/VDD_kojima")) (Vref=0.25),;deriv(IS("/I15/VDD_kojima")) (Vref=0.3),;deriv(IS("/I15/VDD_kojima")) (Vref=0.35),;deriv(IS("/I15/VDD_kojima")) (Vref=0.4),;deriv(IS("/I15/VDD_kojima")) (Vref=0.45),;deriv(IS("/I15/VDD_kojima")) (Vref=0.5)
;X, Y,;X, Y,;X, Y,;X, Y,;X, Y,;X, Y,;X, Y,;X, Y,;X, Y,;X, Y,;X, Y,;X, Y,;X, Y,;X, Y,;X, Y,;X, Y,;X, Y,;X, Y,;X, Y,;X, Y,;X, Y
;Re, Re,;Re, Re,;Re, Re,;Re, Re,;Re, Re,;Re, Re,;Re, Re,;Re, Re,;Re, Re,;Re, Re,;Re, Re,;Re, Re,;Re, Re,;Re, Re,;Re, Re,;Re, Re,;Re, Re,;Re, Re,;Re, Re,;Re, Re,;Re, Re
;Rref, Y,;Rref, Y,;Rref, Y,;Rref, Y,;Rref, Y,;Rref, Y,;Rref, Y,;Rref, Y,;Rref, Y,;Rref, Y,;Rref, Y,;Rref, Y,;Rref, Y,;Rref, Y,;Rref, Y,;Rref, Y,;Rref, Y,;Rref, Y,;Rref, Y,;Rref, Y,;Rref, Y
;xunit, yunit,;xunit, yunit,;xunit, yunit,;xunit, yunit,;xunit, yunit,;xunit, yunit,;xunit, yunit,;xunit, yunit,;xunit, yunit,;xunit, yunit,;xunit, yunit,;xunit, yunit,;xunit, yunit,;xunit, yunit,;xunit, yunit,;xunit, yunit,;xunit, yunit,;xunit, yunit,;xunit, yunit,;xunit, yunit,;xunit, yunit
1,-9.284029066759444e-06,1,-8.731656183290533e-06,1,-8.194756386303848e-06,1,-7.673647536776945e-06,1,-7.168638797037073e-06,1,-6.680028806916281e-06,1,-6.208103748212446e-06,1,-5.753135295564517e-06,1,-5.315378452495131e-06,1,-4.895069271872079e-06,1,-4.492422460810512e-06,1,-4.107628870858972e-06,1,-3.740852875425138e-06,1,-3.39222963786673e-06,1,-3.061862275423972e-06,1,-2.749818926839342e-06,1,-2.45612973490128e-06,1,-2.180783759773725e-06,1,-1.923725844980937e-06,1,-1.684853464732649e-06,1,-1.464013587344965e-06
2,-9.221568944541014e-06,2,-8.673702504891339e-06,2,-8.141135066476804e-06,2,-7.6241822476791e-06,2,-7.123151253289779e-06,2,-6.638339082844485e-06,2,-6.17003062733856e-06,2,-5.718496652328247e-06,2,-5.283991665753877e-06,2,-4.866751669438136e-06,2,-4.466991793919189e-06,2,-4.084903817032836e-06,2,-3.720653567784336e-06,2,-3.374378218388031e-06,2,-3.046183469205361e-06,2,-2.736140633814417e-06,2,-2.444283634830567e-06,2,-2.170605925752188e-06,2,-1.915057359904706e-06,2,-1.677541034458938e-06,2,-1.457910143387044e-06
3,-9.159784797123025e-06,3,-8.616368373141371e-06,3,-8.088079591961773e-06,3,-7.575231843844586e-06,3,-7.078130383600389e-06,3,-6.597070570488368e-06,3,-6.132335996746324e-06,3,-5.684196502367053e-06,3,-5.252906074290544e-06,3,-4.838700628628963e-06,3,-4.441795675129076e-06,3,-4.062383863992882e-06,3,-3.700632416117232e-06,3,-3.356680439145499e-06,3,-3.030636133570736e-06,3,-2.722573895547978e-06,3,-2.432531326461472e-06,3,-2.160506163844961e-06,3,-1.906453154056249e-06,3,-1.670280893856842e-06,3,-1.451848673939579e-06
4,-9.098666481826678e-06,4,-8.559644597514252e-06,4,-8.035581669740572e-06,4,-7.526788875230218e-06,4,-7.033569526654609e-06,4,-6.556217343561561e-06,4,-6.09501461212034e-06,4,-5.650230231174676e-06,4,-5.222117642381553e-06,4,-4.810912642761768e-06,4,-4.416831078578711e-06,4,-4.040066420209036e-06,4,-3.680787218655977e-06,4,-3.339134445656854e-06,4,-3.015218721106423e-06,4,-2.709117433898588e-06,4,-2.420871765658732e-06,4,-2.150483631297362e-06,4,-1.89791255612512e-06,4,-1.663072515871618e-06,4,-1.44582877178816e-06
5,-9.03820405084594e-06,5,-8.503522162182833e-06,5,-7.983633162631735e-06,5,-7.478846030088433e-06,5,-6.989462143231449e-06,5,-6.515773582889926e-06,5,-6.058061322552696e-06,5,-5.616593305184017e-06,5,-5.19162240390867e-06,5,-4.783384264568907e-06,5,-4.392095028725321e-06,5,-4.01794893639066e-06,5,-3.6611158087522e-06,5,-3.321738412347466e-06,5,-2.999929707941116e-06,5,-2.69576998967189e-06,5,-2.409303923333857e-06,5,-2.140537497128921e-06,5,-1.889434903882149e-06,5,-1.655915380345454e-06,5,-1.43985003483798e-06
6,-8.978387746723382e-06,6,-8.447992221974256e-06,6,-7.932226085722617e-06,6,-7.431396131859971e-06,6,-6.945801813451093e-06,6,-6.475733574067954e-06,6,-6.021471068526352e-06,6,-5.583281270008563e-06,6,-5.161416460897506e-06,6,-4.756112104982706e-06,6,-4.367584599314833e-06,6,-3.996028904640868e-06,6,-3.641616054198731e-06,6,-3.304490542003916e-06,6,-2.984767593305687e-06,6,-2.68253032226066e-06,6,-2.397826785172563e-06,6,-2.130666941937802e-06,6,-1.881019544033944e-06,6,-1.648808973891166e-06,6,-1.433912066044879e-06
7,-8.91920799786115e-06,7,-8.393046098402641e-06,7,-7.881352602896914e-06,7,-7.384432136096908e-06,7,-6.90258223411469e-06,7,-6.436091705142033e-06,7,-5.985238879925407e-06,7,-5.550289748768381e-06,7,-5.131495982082027e-06,7,-4.729092831913355e-06,7,-4.343296912391777e-06,7,-3.974303857625597e-06,7,-3.62228585653831e-06,7,-3.287389065228423e-06,7,-2.969730899091269e-06,7,-2.669397209310647e-06,7,-2.386439351372612e-06,7,-2.120871157700868e-06,7,-1.872665832068285e-06,7,-1.641752789793101e-06,7,-1.428014473327309e-06
8,-8.860655414227956e-06,8,-8.338675275887386e-06,8,-7.831005023452818e-06,8,-7.33794712751536e-06,8,-6.859797216122662e-06,8,-6.39684246435835e-06,8,-5.949359874101758e-06,8,-5.517614440429548e-06,8,-5.101857201508537e-06,8,-4.702323169102681e-06,8,-4.319229137310712e-06,8,-3.952771367784743e-06,8,-3.603123150444296e-06,8,-3.270432239909976e-06,8,-2.954818169445062e-06,8,-2.656369446400741e-06,8,-2.375140636393146e-06,8,-2.111149347582431e-06,8,-1.864373132111439e-06,8,-1.634746327895025e-06,8,-1.422156869499e-06
9,-8.802720783161484e-06,9,-8.284871397972338e-06,9,-7.781175798793165e-06,9,-7.291934317097196e-06,9,-6.817440681946771e-06,9,-6.357980437991448e-06,9,-5.913829253991615e-06,9,-5.48525111819867e-06,9,-5.072496417175658e-06,9,-4.675799894947145e-06,9,-4.295378489792105e-06,9,-3.931429046527893e-06,9,-3.584125903025905e-06,9,-3.253618350708897e-06,9,-2.940027970344027e-06,9,-2.643445846710769e-06,9,-2.363929668695777e-06,9,-2.101500725733242e-06,9,-1.856140816789602e-06,9,-1.627789094493771e-06,9,-1.416338872184831e-06
10,-8.745395065277908e-06,10,-8.23162626372451e-06,10,-7.731857519250891e-06,10,-7.246387039262867e-06,10,-6.775506663162911e-06,10,-6.319500308203142e-06,10,-5.878642306292314e-06,10,-5.453195627956424e-06,10,-5.04340998968688e-06,10,-4.649519841404964e-06,10,-4.271742230989046e-06,10,-3.910274543480596e-06,10,-3.565292113259224e-06,10,-3.236945708554864e-06,10,-2.925358889210861e-06,10,-2.630625240702738e-06,10,-2.352805490522109e-06,10,-2.091924517120267e-06,10,-1.847968267082532e-06,10,-1.620880602246641e-06,10,-1.41056010375762e-06
11,-8.688669390499813e-06,11,-8.178931824214322e-06,11,-7.683042910928799e-06,11,-7.201298749139225e-06,11,-6.733989298080174e-06,11,-6.281396850963024e-06,11,-5.843794399655166e-06,11,-5.421443886727099e-06,11,-5.014594340988117e-06,11,-4.623479892891524e-06,11,-4.248317666574351e-06,11,-3.889305545729969e-06,11,-3.546619811335607e-06,11,-3.220412650149686e-06,11,-2.910809534496578e-06,11,-2.61790647582312e-06,11,-2.341767157620087e-06,11,-2.082419957327416e-06,11,-1.839854872190188e-06,11,-1.614020370057897e-06,11,-1.404820191252035e-06
12,-8.632535054189493e-06,12,-8.126780179045726e-06,12,-7.634724832703693e-06,12,-7.156663019914061e-06,12,-6.692882829400278e-06,12,-6.243664934045719e-06,12,-5.80928098295767e-06,12,-5.389991881190638e-06,12,-4.986045953065798e-06,12,-4.597676985227924e-06,12,-4.225102145864312e-06,12,-3.868519777093732e-06,12,-3.528107058075767e-06,12,-3.204017537483542e-06,12,-2.896378535316435e-06,12,-2.605288416187993e-06,12,-2.330813739038649e-06,12,-2.072986292390088e-06,12,-1.83180002939873e-06,12,-1.607207922990931e-06,12,-1.399118766308004e-06
13,-8.57698351338981e-06,13,-8.075163573041579e-06,13,-7.586896273246123e-06,13,-7.112473540181984e-06,13,-6.652181601922522e-06,13,-6.20629951503639e-06,13,-5.775097583603055e-06,13,-5.358835666225033e-06,13,-4.957761366743835e-06,13,-4.572108104585826e-06,13,-4.202093060938104e-06,13,-3.847914997399645e-06,13,-3.50975194435949e-06,13,-3.187758757368766e-06,13,-2.882064541067427e-06,13,-2.592769942297247e-06,13,-2.319944316884429e-06,13,-2.06362277860978e-06,13,-1.823803143949105e-06,13,-1.600442792163976e-06,13,-1.393455465090697e-06
14,-8.522006383155679e-06,14,-8.024074392979329e-06,14,-7.539550348141608e-06,14,-7.068724111474606e-06,14,-6.611880060375819e-06,14,-6.169295639417774e-06,14,-5.741239805854073e-06,14,-5.327971363492095e-06,14,-4.929737180455005e-06,14,-4.546770286488261e-06,14,-4.179287845808809e-06,14,-3.827489001793569e-06,14,-3.491552590525202e-06,14,-3.171634720970824e-06,14,-2.867866221054668e-06,14,-2.580349950733613e-06,14,-2.309157986100799e-06,14,-2.054328682389714e-06,14,-1.815863628903697e-06,14,-1.593724514657182e-06,14,-1.387829928226015e-06
15,-8.467595433003534e-06,15,-7.973505164411698e-06,15,-7.492680297096002e-06,15,-7.025408645743025e-06,15,-6.571972747226439e-06,15,-6.132648438702312e-06,15,-5.707703329224916e-06,15,-5.297395160050976e-06,15,-4.901970049083458e-06,15,-4.521660614819961e-06,15,-4.156683975579251e-06,15,-3.807239620062927e-06,15,-3.473507145847167e-06,15,-3.155643863368566e-06,15,-2.853782264132737e-06,15,-2.568027353888353e-06,15,-2.298453854239968e-06,15,-2.045103280056814e-06,15,-1.807980905030315e-06,15,-1.587052633425013e-06,15,-1.38224180073164e-06
16,-8.413742583435798e-06,16,-7.923448548604901e-06,16,-7.446279481192891e-06,16,-6.982521162993399e-06,16,-6.532454300594171e-06,16,-6.096353128608525e-06,16,-5.674483906905649e-06,16,-5.267103307010721e-06,16,-4.874456682811557e-06,16,-4.496776220847898e-06,16,-4.134278965657037e-06,16,-3.787164715948451e-06,16,-3.455613787953921e-06,16,-3.139784643095816e-06,16,-2.839811378359605e-06,16,-2.555801079677858e-06,16,-2.28783104125785e-06,16,-2.035945857709271e-06,16,-1.80015440065886e-06,16,-1.580426697191085e-06,16,-1.37669073195382e-06
17,-8.360439902556013e-06,17,-7.873897339500269e-06,17,-7.400341380258118e-06,17,-6.940055788923812e-06,17,-6.493319452202748e-06,17,-6.060405007269915e-06,17,-5.641577364233052e-06,17,-5.23709211822012e-06,17,-4.847193845997511e-06,17,-4.472114282293204e-06,17,-4.112070370944658e-06,17,-3.767262186518162e-06,17,-3.437870722327154e-06,17,-3.124055541723529e-06,17,-2.825952290648383e-06,17,-2.543670071274108e-06,17,-2.277288679295277e-06,17,-2.026855711043715e-06,17,-1.792383551584183e-06,17,-1.573846260375191e-06,17,-1.371176375501238e-06
18,-8.307679602789341e-06,18,-7.824844460825944e-06,18,-7.354859590235144e-06,18,-6.89800675264746e-06,18,-6.454563025376243e-06,18,-6.024799453498066e-06,18,-5.608979597171437e-06,18,-5.207357968965796e-06,18,-4.820178356094648e-06,18,-4.447672022398971e-06,18,-4.090055785084881e-06,18,-3.747529961509915e-06,18,-3.420276181757007e-06,18,-3.108455063438901e-06,18,-2.812203746418432e-06,18,-2.531633286834275e-06,18,-2.26682591247156e-06,18,-2.017832145198009e-06,18,-1.784667800923834e-06,18,-1.567310882991395e-06,18,-1.365698389175075e-06
19,-8.255454037697611e-06,19,-7.776282963202485e-06,19,-7.309827820685313e-06,19,-6.856368384483037e-06,19,-6.416179933100945e-06,19,-5.989531925117749e-06,19,-5.57668657087413e-06,19,-5.177897294740118e-06,19,-4.793407082572844e-06,19,-4.42344670904273e-06,19,-4.068232839701163e-06,19,-3.727966002722719e-06,19,-3.402828425842471e-06,19,-3.09298173461689e-06,19,-2.798564509285057e-06,19,-2.519689699242034e-06,19,-2.256441896685002e-06,19,-2.008874474605099e-06,19,-1.777006599016371e-06,19,-1.560820130565408e-06,19,-1.360256434919903e-06
20,-8.203755698823426e-06,20,-7.728206021420658e-06,20,-7.26523989232411e-06,20,-6.815135113761618e-06,20,-6.378165176132346e-06,20,-5.9545979572799e-06,20,-5.544694318239743e-06,20,-5.148706590009117e-06,20,-4.766876945878993e-06,20,-4.39943565384588e-06,20,-4.046599203672528e-06,20,-3.70856830340092e-06,20,-3.385525740492003e-06,20,-3.077634103430555e-06,20,-2.785033360722328e-06,20,-2.50783829585776e-06,20,-2.246135799404726e-06,20,-1.999982022825178e-06,20,-1.769399403297534e-06,20,-1.554373574057829e-06,20,-1.354850178745832e-06
21,-8.152577212683018e-06,21,-7.680606931682789e-06,21,-7.221089734611632e-06,21,-6.774301466738047e-06,21,-6.34051384112511e-06,21,-5.919993160880422e-06,21,-5.512998938541746e-06,21,-5.119782407016389e-06,21,-4.740584916434771e-06,21,-4.375636211322162e-06,21,-4.025152582401307e-06,21,-3.689334887638967e-06,21,-3.368366437433252e-06,21,-3.062410739455975e-06,21,-2.771609099743236e-06,21,-2.496078078252466e-06,21,-2.235906799490919e-06,21,-1.991154122409295e-06,21,-1.761845678193786e-06,21,-1.547970789768415e-06,21,-1.34947929068287e-06
22,-8.101911337815484e-06,22,-7.633479109005019e-06,22,-7.177371383438463e-06,22,-6.733862064541799e-06,22,-6.303221098866683e-06,22,-5.885713220974646e-06,22,-5.48159659604806e-06,22,-5.091121354613461e-06,22,-4.714528013628327e-06,22,-4.352045778042383e-06,22,-4.003890717127478e-06,22,-3.670263809810474e-06,22,-3.35134885373926e-06,22,-3.047310233265238e-06,22,-2.758290542605006e-06,22,-2.484408061982721e-06,22,-2.225754086987528e-06,22,-1.982390114744527e-06,22,-1.754344895008248e-06,22,-1.541611359257141e-06,22,-1.344143444711641e-06
23,-8.051750961863245e-06,23,-7.586816084630393e-06,23,-7.134078978835844e-06,23,-6.693811621122196e-06,23,-6.266282202474494e-06,23,-5.851753895248172e-06,23,-5.450483518706136e-06,23,-5.062720097146096e-06,23,-4.68870330485021e-06,23,-4.328661791809345e-06,23,-3.982811384228065e-06,23,-3.651353153982101e-06,23,-3.334471351357053e-06,23,-3.032331196079494e-06,23,-2.745076522487526e-06,23,-2.472827276331965e-06,23,-2.21567686294207e-06,23,-1.973689349913038e-06,23,-1.746896531806862e-06,23,-1.535294869273304e-06,23,-1.338842318710474e-06
24,-8.002089098814273e-06,24,-7.540611503535632e-06,24,-7.091206762745248e-06,24,-6.654144941353659e-06,24,-6.229692485711959e-06,24,-5.818111012535418e-06,24,-5.419655996860562e-06,24,-5.034575353309815e-06,24,-4.66310790455662e-06,24,-4.305481730860084e-06,24,-3.961912394562488e-06,24,-3.632601033373836e-06,24,-3.317732316661381e-06,24,-3.017472259373441e-06,24,-2.731965889213837e-06,24,-2.461334764088238e-06,24,-2.205674339224566e-06,24,-1.965051186553299e-06,24,-1.739500073325148e-06,24,-1.529020911663031e-06,24,-1.333575594391766e-06
25,-7.952918886217856e-06,25,-7.494859121990379e-06,25,-7.04874907689031e-06,25,-6.614856919071131e-06,25,-6.19344736131535e-06,25,-5.784780471346403e-06,25,-5.389110381981508e-06,25,-5.006683895102115e-06,25,-4.637738973323983e-06,25,-4.28250311308785e-06,25,-3.94119159280535e-06,25,-3.614005589808872e-06,25,-3.301130159989165e-06,25,-3.002732074518406e-06,25,-2.718957508938535e-06,25,-2.4499295813074e-06,25,-2.195745738343882e-06,25,-1.956474991718707e-06,25,-1.732155010849808e-06,25,-1.522789083300983e-06,25,-1.328342957257413e-06
26,-7.904233582564299e-06,26,-7.449552805177152e-06,26,-7.00670036062577e-06,26,-6.575942535258592e-06,26,-6.157542319331494e-06,26,-5.751758238441238e-06,26,-5.358843085417463e-06,26,-4.979042546723964e-06,26,-4.612593716975515e-06,26,-4.259723495278825e-06,26,-3.920646856813695e-06,26,-3.595564993183215e-06,26,-3.284663315229015e-06,26,-2.988109312436482e-06,26,-2.706050263883656e-06,26,-2.438610797088044e-06,26,-2.185890293273166e-06,26,-1.947960140737722e-06,26,-1.724860842126138e-06,26,-1.516598986011633e-06,26,-1.3231440965265e-06
27,-7.856026564664626e-06,27,-7.404686524878096e-06,27,-6.965055148919989e-06,27,-6.537396856196379e-06,27,-6.121972925567792e-06,27,-5.719040347462734e-06,27,-5.328850577239908e-06,27,-4.951648183590569e-06,27,-4.587669385670932e-06,27,-4.237140472358172e-06,27,-3.90027609699535e-06,27,-3.577277440938329e-06,27,-3.268330239366299e-06,27,-2.973602663241441e-06,27,-2.693243052048766e-06,27,-2.427377493350973e-06,27,-2.17610724727031e-06,27,-1.939506017090489e-06,27,-1.717617071251122e-06,27,-1.510450226492837e-06,27,-1.317978705100498e-06
28,-7.808291325100969e-06,28,-7.360254357215937e-06,28,-6.923808070316215e-06,28,-6.499215031711275e-06,28,-6.086734820001487e-06,28,-5.6866228975677e-06,28,-5.299129385009493e-06,28,-4.924497731282739e-06,28,-4.562963273064668e-06,28,-4.214751676671858e-06,28,-3.880077255706766e-06,28,-3.559141157570425e-06,28,-3.252129412091966e-06,28,-2.959210835906537e-06,28,-2.680534786931449e-06,28,-2.416228764622573e-06,28,-2.166395853722041e-06,28,-1.931112012272442e-06,28,-1.710423208576943e-06,28,-1.504342416242866e-06,28,-1.312846479492027e-06
29,-7.761021469810964e-06,29,-7.316250480444379e-06,29,-6.882953845000536e-06,29,-6.461392293446565e-06,29,-6.051823715292996e-06,29,-5.654502052107688e-06,29,-5.269676092684895e-06,29,-4.897588164590617e-06,29,-4.5384727154563e-06,29,-4.192554777265444e-06,29,-3.8600483066413e-06,29,-3.541154394112647e-06,29,-3.236059335366909e-06,29,-2.944932557924496e-06,29,-2.667924397276641e-06,29,-2.405163717821663e-06,29,-2.156755375963939e-06,29,-1.922777525665935e-06,29,-1.703278770612748e-06,29,-1.498275171493181e-06,29,-1.307747119784096e-06
30,-7.714210715624881e-06,30,-7.272669172813957e-06,30,-6.842487282882406e-06,30,-6.423923953165472e-06,30,-6.017235395283649e-06,30,-5.622674037325352e-06,30,-5.240487339462294e-06,30,-4.870916506527056e-06,30,-4.514195090963083e-06,30,-4.170547479188241e-06,30,-3.840187254261756e-06,30,-3.523315427666693e-06,30,-3.220118533042281e-06,30,-2.930766574991365e-06,30,-2.655410826799725e-06,30,-2.394181472048073e-06,30,-2.147185087121063e-06,30,-1.914501964413607e-06,30,-1.696183279934881e-06,30,-1.492248113127664e-06,30,-1.302680329573827e-06
31,-7.667852887962776e-06,31,-7.229504810458715e-06,31,-6.802403281744134e-06,31,-6.38680540113179e-06,31,-5.982965713558896e-06,31,-5.591135141118884e-06,31,-5.211559818709376e-06,31,-4.844479827408217e-06,31,-4.490127818738022e-06,31,-4.148727522824578e-06,31,-3.820492133207965e-06,31,-3.505622560912329e-06,31,-3.204305550455954e-06,31,-2.916711650677566e-06,31,-2.64299303393261e-06,31,-2.383281158390739e-06,31,-2.137684269958333e-06,31,-1.906284743302157e-06,31,-1.689136265083883e-06,31,-1.486260866624613e-06,31,-1.297645815921612e-06
32,-7.621941918521669e-06,32,-7.186751865382625e-06,32,-6.762696825409874e-06,32,-6.350032104476648e-06,32,-5.949010592063136e-06,32,-5.559881711793887e-06,32,-5.182890276885909e-06,32,-4.818275243916384e-06,32,-4.466268358148916e-06,32,-4.127092683204247e-06,32,-3.800961007751876e-06,32,-3.488074121655487e-06,32,-3.188618954059986e-06,32,-2.902766566115645e-06,32,-2.630669991578053e-06,32,-2.372461919709131e-06,32,-2.128252216703581e-06,32,-1.898125284630504e-06,32,-1.682137260478078e-06,32,-1.48031306197846e-06,32,-1.292643289302862e-06
33,-7.576471843057705e-06,33,-7.144404903429089e-06,33,-6.723362981992265e-06,33,-6.313599605656337e-06,33,-5.915366019673771e-06,33,-5.528910156870747e-06,33,-5.154475512505943e-06,33,-4.792299918217422e-06,33,-4.442614208046737e-06,33,-4.105640769381906e-06,33,-3.781591971252409e-06,33,-3.470668462353605e-06,33,-3.173057331028141e-06,33,-2.888930119708186e-06,33,-2.61844068685812e-06,33,-2.361722910451322e-06,33,-2.118888228918323e-06,33,-1.890023018100064e-06,33,-1.675185806330093e-06,33,-1.474404333641445e-06,33,-1.287672463560195e-06
34,-7.531436799204302e-06,34,-7.102458582374481e-06,34,-6.684396902155963e-06,34,-6.27750352091578e-06,34,-5.882028050913177e-06,34,-5.49821694189722e-06,34,-5.126312375116921e-06,34,-4.766551057068264e-06,34,-4.419162905991078e-06,34,-4.084369623764657e-06,34,-3.762383145607074e-06,34,-3.453403959696906e-06,34,-3.157619288900052e-06,34,-2.875201126807756e-06,34,-2.606304120870246e-06,34,-2.351063296453845e-06,34,-2.109591617321027e-06,34,-1.881977380694191e-06,34,-1.668281448539738e-06,34,-1.46853432044815e-06,34,-1.282733055849115e-06
