;Version, 1, 0
;/I15/VDD_kojima (Vref=-0.5),;/I15/VDD_kojima (Vref=-0.45),;/I15/VDD_kojima (Vref=-0.4),;/I15/VDD_kojima (Vref=-0.35),;/I15/VDD_kojima (Vref=-0.3),;/I15/VDD_kojima (Vref=-0.25),;/I15/VDD_kojima (Vref=-0.2),;/I15/VDD_kojima (Vref=-0.15),;/I15/VDD_kojima (Vref=-0.1),;/I15/VDD_kojima (Vref=-0.05),;/I15/VDD_kojima (Vref=-6.938894e-17),;/I15/VDD_kojima (Vref=0.05),;/I15/VDD_kojima (Vref=0.1),;/I15/VDD_kojima (Vref=0.15),;/I15/VDD_kojima (Vref=0.2),;/I15/VDD_kojima (Vref=0.25),;/I15/VDD_kojima (Vref=0.3),;/I15/VDD_kojima (Vref=0.35),;/I15/VDD_kojima (Vref=0.4),;/I15/VDD_kojima (Vref=0.45),;/I15/VDD_kojima (Vref=0.5)
;X, Y,;X, Y,;X, Y,;X, Y,;X, Y,;X, Y,;X, Y,;X, Y,;X, Y,;X, Y,;X, Y,;X, Y,;X, Y,;X, Y,;X, Y,;X, Y,;X, Y,;X, Y,;X, Y,;X, Y,;X, Y
;Re, Re,;Re, Re,;Re, Re,;Re, Re,;Re, Re,;Re, Re,;Re, Re,;Re, Re,;Re, Re,;Re, Re,;Re, Re,;Re, Re,;Re, Re,;Re, Re,;Re, Re,;Re, Re,;Re, Re,;Re, Re,;Re, Re,;Re, Re,;Re, Re
;Rref, I,;Rref, I,;Rref, I,;Rref, I,;Rref, I,;Rref, I,;Rref, I,;Rref, I,;Rref, I,;Rref, I,;Rref, I,;Rref, I,;Rref, I,;Rref, I,;Rref, I,;Rref, I,;Rref, I,;Rref, I,;Rref, I,;Rref, I,;Rref, I
;xunit, A,;xunit, A,;xunit, A,;xunit, A,;xunit, A,;xunit, A,;xunit, A,;xunit, A,;xunit, A,;xunit, A,;xunit, A,;xunit, A,;xunit, A,;xunit, A,;xunit, A,;xunit, A,;xunit, A,;xunit, A,;xunit, A,;xunit, A,;xunit, A
0,0.003213894251333889,0,0.003070086015090833,0,0.002928554109944639,0,0.002789363232412969,0,0.002652579640684252,0,0.002518271155006436,0,0.002386507155455764,0,0.002257358576880594,0,0.002130897900802935,0,0.002007199144045416,0,0.001886337843831852,0,0.001768391039080798,0,0.001653437247565182,0,0.001541556438530455,0,0.001432830000216262,0,0.001327340701451011,0,0.001225172645967454,0,0.001126411217102388,0,0.001031143008693476,0,0.0009394557345495258,0,0.0008514381025832166
1,0.003204610222267129,1,0.003061354358907543,1,0.002920359353558335,1,0.002781689584876192,1,0.002645411001887215,1,0.002511591126199519,1,0.002380299051707551,1,0.002251605441585029,1,0.002125582522350439,1,0.002002304074773544,1,0.001881845421371042,1,0.001764283410209939,1,0.001649696394689757,1,0.001538164208892588,1,0.001429768137940838,1,0.001324590882524172,1,0.001222716516232553,1,0.001124230433342614,1,0.001029219282848496,1,0.0009377708810847931,1,0.0008499740889958716
2,0.003195388653322588,2,0.003052680656402651,2,0.002912218218491859,2,0.002774065402628513,2,0.002638287850633925,2,0.002504952787116675,2,0.002374129021080213,2,0.002245886944932701,2,0.002120298530684685,2,0.001997437323104105,2,0.001877378429577123,2,0.001760198506392906,2,0.001645975741121973,2,0.0015347898306742,2,0.001426721954471632,2,0.001321854741890357,2,0.001220272232597722,2,0.001122059827416862,2,0.001027304225488591,2,0.0009360933400503342,2,0.0008485161788524846
3,0.003186228868525465,3,0.00304406428802951,3,0.002904130138899897,3,0.002766490170784668,3,0.002631209720250324,3,0.002498355716546186,3,0.002367996685083466,3,0.002240202748430334,3,0.002115045624610395,3,0.001992598622475476,3,0.001872936633901994,3,0.001756136122528913,3,0.001642275108705856,3,0.001531433150235054,3,0.001423691318338062,3,0.001319132167994809,3,0.001217839701271261,3,0.001119899321253017,3,0.001025397772334535,3,0.0009344230591564773,3,0.000847064330178545
4,0.003177130202043639,4,0.003035504643431996,4,0.002896094557230156,4,0.002758963381909438,4,0.00262417615072367,4,0.002491799499202625,4,0.002361901670471346,4,0.002234552518199159,4,0.002109823506968013,4,0.001987787709832715,4,0.001868519802823415,4,0.001752096056108704,4,0.0016385943214872,4,0.001528094015789398,4,0.001420676099616955,4,0.001316423050560911,4,0.001215418829505602,4,0.001117748837621719,4,0.001023499859778409,4,0.0009327599866406057,4,0.0008456185014067568
5,0.003168091997992793,5,0.003027001121269813,5,0.002888110924067524,5,0.002751484535879349,5,0.002617186688580438,5,0.002485283725619735,5,0.002355843609148793,5,0.002228935924893975,5,0.002104631884564105,5,0.001983004325568146,5,0.00186412770779469,5,0.001748078107172314,5,0.001634933205678447,5,0.00152477227737705,5,0.001417676169909014,5,0.001313727280571239,5,0.001213009525582268,5,0.00111560830012459,5,0.001021610424874527,5,0.0009311040712602603,5,0.0008441786513719189
6,0.003159113610246069,6,0.003018553129047839,6,0.002880178697981802,6,0.002744053139747489,6,0.002610240886766987,6,0.002478807992045667,6,0.002349822138080267,6,0.002223352643623967,6,0.002099470468103207,6,0.001978248213463163,6,0.001859760123195375,6,0.001744082078267673,6,0.001631291589624249,6,0.001521467786835046,6,0.001414691402315708,6,0.001311044750248978,6,0.001210611698797096,6,0.001113477633182653,6,0.001019729405330493,6,0.0009294552622863691,6,0.000842744739305874
7,0.003150194402248208,7,0.003010160082949436,7,0.002872297345378905,7,0.002736668707611392,7,0.002603338304532873,7,0.002472371900340525,7,0.002343836899200342,7,0.002217802353875198,7,0.002094338972121125,7,0.00197351912063125,7,0.001855416826282983,7,0.001740107774410047,7,0.00162766930376771,7,0.001518180397769818,7,0.001411721671416617,7,0.001308375353039667,7,0.001208225259445723,7,0.001111356762024952,7,0.001017856739498425,7,0.000927813509496576,7,0.0008413167248325467
8,0.00314133374683398,8,0.003001821407673549,8,0.002864466340355452,8,0.002729330760483877,8,0.00259647850731675,8,0.002465975057876167,8,0.00233788753932624,8,0.002212284739434769,8,0.002089237114919617,8,0.001968816797462147,8,0.001851097597145672,8,0.001736155003042262,8,0.001624066180617266,8,0.001514909965529908,8,0.001408766853247172,8,0.001305718983593267,8,0.00120585011880933,8,0.001109245612677369,8,0.001015992366366314,8,0.000926178763168681,8,0.0008398945679630477
9,0.003132531026050819,9,0.002993536536275576,9,0.002856685164556659,9,0.00272203882616678,9,0.002589661066634803,9,0.002459617077438175,9,0.002331973710072248,9,0.00220679948831657,9,0.002084164618502441,9,0.0019641409975672,9,0.00184680221865588,9,0.001732223573995735,9,0.00162048205471424,9,0.001511656347179199,9,0.001405826825276828,9,0.001303075537746556,9,0.001203486189140634,9,0.001107144111951636,9,0.001014136225549524,9,0.0009245509740741872,9,0.0008384782290908628
10,0.003123785630985541,10,0.002985304910011852,10,0.002848953307037408,10,0.002714792439127517,10,0.00258288555997164,10,0.002453297577129972,10,0.002326095067765956,10,0.002201346292688614,10,0.002079121208512754,10,0.001959491477725795,10,0.001842530476424891,10,0.001728313299452254,10,0.001616916762600981,10,0.001508419401470644,10,0.001402901466387617,10,0.001300444912505853,10,0.001201133383650112,10,0.001105052187434516,10,0.001012288257282442,10,0.0009229300934719406,10,0.0008370676689871052
11,0.003115096961595041,11,0.002977125978187637,11,0.002841270264126479,11,0.002707591140378378,11,0.00257615157067356,11,0.002447016180279009,11,0.002320251273366301,11,0.002195924848801887,11,0.002074106614171766,11,0.001954867997832903,11,0.001838282158758317,11,0.001724423993906524,11,0.001613370142789645,11,0.001505198988820494,11,0.001399990656853121,11,0.00129782700603003,11,0.001198791616492492,11,0.001102969767477188,11,0.001010448402410251,11,0.0009213160731018827,11,0.0008356628487958532
12,0.003106464426540851,12,0.002968999198008592,12,0.002833635539293776,12,0.002700434477358464,12,0.00256945868784416,12,0.002440772515344963,12,0.002314441992383343,12,0.002190534856920696,12,0.0020691205682187,12,0.001950270320847676,12,0.001834057056612452,12,0.00172055547412943,12,0.00160984203573157,12,0.001501994971283011,12,0.001397094278317804,12,0.001295221717613842,12,0.001196460802753453,12,0.001100896781184798,12,0.001008616602380853,12,0.0009197088651788917,12,0.0008342637300295452
13,0.003097887443027462,13,0.00296092403443555,13,0.002826048643020529,13,0.002693322003818282,13,0.002562806506242237,13,0.002434566215829927,13,0.00230866689479974,13,0.002185176021254471,13,0.002064162806851956,13,0.00194569821274309,13,0.001829854963551514,13,0.001716707559132031,13,0.00160633228378721,13,0.001498807212525642,13,0.001394212213776737,13,0.001292628947671545,13,0.001194140858436569,13,0.001098833158406189,13,0.001006792799236903,13,0.0009181084223867278,13,0.0008328702745644545
14,0.003089365436644306,14,0.002952899960042571,14,0.002818509092672388,14,0.002686253279706807,14,0.002556194626181861,14,0.002428396920190509,14,0.002302925654993886,14,0.002179848049890979,14,0.002059233069671501,14,0.001941151442456601,14,0.001825675675705705,14,0.001712880070130237,14,0.001602840731196685,14,0.001495635577804671,14,0.001391344347555682,14,0.001290048597720811,14,0.001191831700450468,14,0.001096778829723799,14,0.001004976935608,14,0.0009165146978720706,14,0.0008314824446362285
15,0.003080897841211302,15,0.002944926454878159,15,0.002811016412375292,15,0.002679227871061064,15,0.002549622653434635,15,0.002422264271751807,15,0.002297217951664661,15,0.002174550654730928,15,0.002054331099622418,15,0.001936629781841781,15,0.001821518991730126,15,0.001709072830510174,15,0.001599367224050838,15,0.001492479933941303,15,0.001388490565291549,15,0.001287480570366923,15,0.001189533246596228,15,0.001094733726443742,15,0.001003168954702969,15,0.0009149276452386456,15,0.0008301002028354968
16,0.003072484098627867,16,0.002937003006329554,16,0.002803570132894099,16,0.002672245349898071,16,0.002543090199134041,16,0.002416167918623198,16,0.002291543467757755,16,0.002169283551423917,16,0.002049456642939606,16,0.001932133005620934,16,0.001817384712764469,16,0.001705285665794226,16,0.001595911610262884,16,0.001489340149298207,16,0.00138565075391319,16,0.001284924769287245,16,0.00118724541555497,16,0.001092697780586033,16,0.001001368800302311,16,0.0009133472185414545,16,0.000828723512103543
17,0.003064123658725311,17,0.002929129108990054,17,0.002796169791513841,17,0.002665305294109147,17,0.002536596879681838,17,0.002410107513615928,17,0.002285901890393522,17,0.002164046459305697,17,0.002044609449093609,17,0.00192766089133864,17,0.001813272642393525,17,0.001701518403607708,17,0.001592473739540557,17,0.001486216093756483,17,0.001382824801622541,17,0.001282381099215971,17,0.001184968126875675,17,0.001090670924874989,17,0.0009995764167507264,17,0.0009117733722810793,17,0.0008273523357280418
18,0.003055815979122521,18,0.002921304264529228,18,0.002788814931923606,18,0.002658407287356499,18,0.002530142316656462,18,0.00240408271416243,18,0.002280292910796351,18,0.002158839101336731,18,0.002039789270737514,18,0.001923213219316241,18,0.00180918258660844,18,0.001697770873646198,18,0.0015890534633588,18,0.001483107638693044,18,0.001380012597876123,18,0.001279849465929137,18,0.001182701300963203,18,0.001088653092729791,18,0.0009977917489498026,18,0.0009102060613980879,18,0.0008259866373388667
19,0.003047560525084824,19,0.002913527981566025,19,0.00278150510410292,19,0.002651550918972016,19,0.002523726136723361,19,0.002398093182237312,19,0.002274716224225477,19,0.002153661204041991,19,0.002034995863654941,19,0.001918789772607199,19,0.001805114353768739,19,0.001694042907643475,19,0.001585650634932957,19,0.001480014656958428,19,0.001377214033366838,19,0.001277329776229895,19,0.001180444859066518,19,0.001086644218255186,19,0.0009960147423507862,19,0.0009086452412675225,19,0.0008246263809039468
20,0.003039356769386,20,0.002905799775544605,20,0.002774239864210596,20,0.002644735783858255,20,0.002517347971547229,20,0.002392138584280033,20,0.002269171529907237,20,0.002148512497451982,20,0.002030228986709062,20,0.001914390336953353,20,0.001801067754565066,20,0.001690334339340074,20,0.001582265109192465,20,0.001476937022854997,20,0.001374429000006115,20,0.001274821937934037,20,0.001178198723267114,20,0.001084644236232361,20,0.0009942453429474887,20,0.0009070908676934646,20,0.000823271530725201
21,0.003031204192173317,21,0.002898119168612922,21,0.002767018774475985,21,0.002637961482391517,21,0.002511007457706103,21,0.002386218591119152,21,0.002263658530968695,21,0.002143392715044966,21,0.002025488401792628,21,0.001910014700742031,21,0.001797042601982665,21,0.001686645004452435,21,0.001578896742755032,21,0.001473874612115541,21,0.001371657390906372,21,0.001272325859855784,21,0.001175962816467623,21,0.001082653082109951,21,0.0009924834972692949,21,0.0009055428969036962,21,0.0008219220514345181
22,0.003023102280835502,22,0.002890485689503917,22,0.002759841403092546,22,0.002631227620326975,22,0.002504704236607237,22,0.002380332877898178,22,0.002258176934372647,22,0.002138301593690352,22,0.002020773873778999,22,0.001905662654963988,22,0.001793038711265537,22,0.001682974740642625,22,0.001575545393901293,22,0.001470827301882276,22,0.001368899100363767,22,0.001269841451793802,22,0.001173737062380635,22,0.001080670691995207,22,0.0009907291523742867,22,0.0009040012855444391,22,0.0008205779079898065
23,0.003015050529873638,23,0.002882898873419287,23,0.00275270732411371,23,0.002624533808705853,23,0.002498437954404762,23,0.002374481124002929,23,0.002252726450853941,23,0.002133238873593206,23,0.002016085170474149,23,0.001901333993172179,23,0.001789055899881309,23,0.001679323387488642,23,0.001572210922549936,23,0.001467794970686196,23,0.00136615402384128,23,0.00126736862451747,23,0.001171521385517693,23,0.001078697002645294,23,0.0009889822558424798,23,0.0009024659906751658,23,0.000819239065671096
24,0.003007048440774824,24,0.002875358261915751,24,0.002745616117350965,24,0.002617879663764499,24,0.00249220826191905,24,0.002368663012990394,24,0.00224730679485708,24,0.002128204298239896,24,0.002011422062569592,24,0.001897028511441319,24,0.001785093987486747,24,0.001675690786455269,24,0.001568893190233274,24,0.001464777498426823,24,0.001363422057952066,24,0.001264907289753381,24,0.001169315711178469,24,0.001076731951458741,24,0.0009872427557691547,24,0.0009009369697635028,24,0.0008179054900767042
25,0.002999095521888606,25,0.002867863402793761,25,0.002738567368274075,25,0.002611264806845428,25,0.002486014814557735,25,0.002362878232519048,25,0.002241917684475099,25,0.002123197614344794,25,0.002006784323596268,25,0.001892746008328231,25,0.001781152795893941,25,0.00167207678086546,25,0.001565592060073285,25,0.001461774766352304,25,0.001360703100443127,25,0.001262457360172074,25,0.001167119965440125,25,0.001074775476467022,25,0.0009855106007583049,25,0.0008994141806802018,25,0.0008165771471194468
26,0.002991191288306042,26,0.002860413849988583,26,0.002731560667913449,26,0.002604688864310169,26,0.002479857272238404,26,0.002357126474280606,26,0.002236558841389681,26,0.00211821857179807,26,0.002002171729879293,26,0.001888486284832952,26,0.001777232149037128,26,0.001668481215872277,26,0.001562307396758056,26,0.001458786657039868,26,0.001357997050179244,26,0.001260018749374986,26,0.001164934075146851,26,0.001072827516326284,26,0.0009837857399161787,26,0.0008978975816941901,26,0.0008152540030229203
27,0.002983335261741377,27,0.002853009163463705,27,0.002724595612764529,27,0.002598151467453973,27,0.002473735299312836,27,0.002351407433933144,27,0.002231229990812442,27,0.00211326692361448,27,0.001997584060493622,27,0.001884249144360594,27,0.001773331872940132,27,0.001664903938431338,27,0.00155903906651869,27,0.001455813054376626,27,0.001355303807127195,27,0.001257591371881635,27,0.001162757967899581,27,0.001070888010309194,27,0.0009820681228449276,27,0.0008963871314676973,27,0.0008139360243178198
28,0.002975526970416276,28,0.002845648909106489,28,0.002717671804694213,28,0.002591652252422262,28,0.002467648564492834,28,0.002345720811035576,28,0.002225930861427432,28,0.002108342425883197,28,0.001993021097220557,28,0.001880034392683922,28,0.001769451795684425,28,0.001661344797273768,28,0.001555786937106598,28,0.00145285384354072,28,0.001352623272340263,28,0.001255175143117012,28,0.001160591572045859,28,0.001068956898296921,28,0.0009803576996363507,28,0.0008948827890514544,28,0.0008126231778383278
29,0.002967765948946465,29,0.002838332658626045,29,0.002710788850849212,29,0.002585190860128815,29,0.002461596740777541,29,0.002340066308983468,29,0.002220661185334747,29,0.002103444837718606,29,0.001988482624505101,29,0.001875841837906657,29,0.001765591747377784,29,0.001657803642879655,29,0.001552550877771231,29,0.001449908910982795,29,0.001349955347942987,29,0.001252769979399191,29,0.001158434816669895,29,0.001067034120771255,29,0.0009786544208657379,29,0.0008933845138799613,29,0.0008113154307185437
30,0.002960051738230841,30,0.002831059989453231,30,0.00270394636356633,30,0.00257876693617565,30,0.002455579505382258,30,0.002334443634946143,30,0.002215420697995285,30,0.002098573921212079,30,0.001983968429414138,30,0.001871671290427468,30,0.001761751560123522,30,0.001654280327451988,30,0.001549330759238189,30,0.001446978144407804,30,0.001347299937116187,30,0.001250375797927143,30,0.001156287631582774,30,0.001065119618806842,30,0.000976958237585803,30,0.0008918922657668336,30,0.0008100127503889699
31,0.002952383885342878,31,0.002823830484642772,31,0.002697143960284586,31,0.002572380130774518,31,0.002449596539668699,31,0.002328852499805024,31,0.002210209138176576,31,0.002093729441384671,31,0.0019794783015954,31,0.001867522562904644,31,0.001757931067990314,31,0.001650774704891076,31,0.001546126453687733,31,0.001444061432757127,31,0.001344656944082254,31,0.001247992516768752,31,0.001154149947312816,31,0.00106321333406354,31,0.0009752691013207191,31,0.000890406004900209,31,0.0008087151045730482
32,0.002944761943424356,32,0.00281664373277739,32,0.002690381263459176,32,0.002566030098670041,32,0.002443647529076636,32,0.00232329261809323,32,0.00220502624789969,32,0.002088911166140755,32,0.001975012033237251,32,0.00186339547022144,32,0.001754130106982563,32,0.001647286630769421,32,0.001542937834733673,32,0.001441158666191011,32,0.001342026274090676,32,0.001245620054849043,32,0.001152021695096112,32,0.001061315208778909,32,0.0009735869640602411,32,0.0008889256918382305,32,0.0008074224612837454
33,0.002937185471581298,33,0.002809499327873961,33,0.002683657900477184,33,0.002559716499064385,33,0.002437732163056962,33,0.002317763707936359,33,0.002199871772387184,33,0.002084118866222537,33,0.001970569419029204,33,0.001859289829452058,33,0.00175034851501131,33,0.001643815962307067,33,0.001539764777402645,33,0.001438269736071303,33,0.001339407833403818,33,0.001243258331938592,33,0.001149902806867194,33,0.001059425185760809,33,0.000971911778253911,33,0.0008874512875045891,33,0.0008061347888201852
34,0.002929654034782094,34,0.002802396869291586,34,0.002676973503575028,34,0.002553438995543469,34,0.002431850135006049,34,0.002312265490994462,34,0.002194745460012067,34,0.002079352315165469,34,0.001966150256123213,34,0.001855205459828293,34,0.001746586131865703,34,0.00164036255834737,34,0.001536607158113744,34,0.001435394534944495,34,0.001336801529282948,34,0.001240907268642138,34,0.001147793215249873,34,0.001057543208380115,34,0.0009702434968053712,34,0.0008859827531841409,34,0.0008048520557643361
35,0.002922167203757731,35,0.00279533596164158,35,0.002670327709757599,35,0.002547197256004674,35,0.002426001142201453,35,0.002306797692405133,35,0.002189647062247754,35,0.002074611289254487,35,0.001961754344095683,35,0.001851142182706758,35,0.001742842799184964,35,0.001636926279333226,35,0.001533464854658519,35,0.001432532956525058,35,0.001334207269974491,35,0.001238566786387374,35,0.001145692853548209,35,0.001055669220563547,35,0.000968582073066742,35,0.0008845200505185816,35,0.0008035742309777374
36,0.002914724554904111,36,0.002788316214699297,36,0.002663720160719029,36,0.002540990952585994,36,0.002420184885738877,36,0.002301360040727753,36,0.002184576333619008,36,0.002069895567481132,36,0.001957381484910203,36,0.001847099821536768,36,0.001739118360430882,36,0.001633506987283713,36,0.001530337746181316,36,0.001429684895679062,36,0.001331624964696519,36,0.001236236807413934,36,0.001143601655737642,36,0.001053803166786622,36,0.0009669274608330973,36,0.0008830631415021871,36,0.0008023012835982771
